%%   120 ns    Log    PASSED    in Default,                      Expected Completion Time Received : 120 ns
%%   120 ns    Log    PASSED    in Testbench,                    TRANSMIT_VALID_DELAY_CYCLES Received : 2
%%   140 ns    Log    INFO      in transmitter_1,                Axi Stream Send.  TData: AAAAAAAA  TStrb: 1111  TKeep: 1111  TID: 0F  TDest: A  TUser: 4  TLast: 0  Operation# 1
%%   150 ns    Log    PASSED    in receiver_1: Data Check,       Operation# 1  Received.  Data: AAAAAAAA  TID: 0F  TDest: A  TUser: 4  TLast: 0
%%   170 ns    Log    INFO      in transmitter_1,                Axi Stream Send.  TData: BBBBBBBB  TStrb: 1111  TKeep: 1111  TID: 0F  TDest: A  TUser: 4  TLast: 0  Operation# 2
%%   180 ns    Log    PASSED    in receiver_1: Data Check,       Operation# 2  Received.  Data: BBBBBBBB  TID: 0F  TDest: A  TUser: 4  TLast: 0
%%   200 ns    Log    INFO      in transmitter_1,                Axi Stream Send.  TData: 00000000  TStrb: 1111  TKeep: 1111  TID: 0F  TDest: A  TUser: 4  TLast: 0  Operation# 3
%%   210 ns    Log    INFO      in transmitter_1,                Axi Stream Send.  TData: 00000001  TStrb: 1111  TKeep: 1111  TID: 0F  TDest: A  TUser: 4  TLast: 0  Operation# 4
%%   220 ns    Log    INFO      in transmitter_1,                Axi Stream Send.  TData: 00000002  TStrb: 1111  TKeep: 1111  TID: 0F  TDest: A  TUser: 4  TLast: 0  Operation# 5
%%   230 ns    Log    INFO      in transmitter_1,                Axi Stream Send.  TData: 00000003  TStrb: 1111  TKeep: 1111  TID: 0F  TDest: A  TUser: 4  TLast: 0  Operation# 6
%%   240 ns    Log    INFO      in transmitter_1,                Axi Stream Send.  TData: 00000004  TStrb: 1111  TKeep: 1111  TID: 0F  TDest: A  TUser: 4  TLast: 0  Operation# 7
%%   250 ns    Log    INFO      in transmitter_1,                Axi Stream Send.  TData: 00000005  TStrb: 1111  TKeep: 1111  TID: 0F  TDest: A  TUser: 4  TLast: 0  Operation# 8
%%   260 ns    Log    INFO      in transmitter_1,                Axi Stream Send.  TData: 00000006  TStrb: 1111  TKeep: 1111  TID: 0F  TDest: A  TUser: 4  TLast: 0  Operation# 9
%%   270 ns    Log    INFO      in transmitter_1,                Axi Stream Send.  TData: 00000007  TStrb: 1111  TKeep: 1111  TID: 0F  TDest: A  TUser: 4  TLast: 1  Operation# 10
%%   280 ns    Log    PASSED    in receiver_1: RxBurstFifo,      Received: 00000000   Item Number: 1
%%   280 ns    Log    PASSED    in receiver_1: RxBurstFifo,      Received: 00000001   Item Number: 2
%%   280 ns    Log    PASSED    in receiver_1: RxBurstFifo,      Received: 00000002   Item Number: 3
%%   280 ns    Log    PASSED    in receiver_1: RxBurstFifo,      Received: 00000003   Item Number: 4
%%   280 ns    Log    PASSED    in receiver_1: RxBurstFifo,      Received: 00000004   Item Number: 5
%%   280 ns    Log    PASSED    in receiver_1: RxBurstFifo,      Received: 00000005   Item Number: 6
%%   280 ns    Log    PASSED    in receiver_1: RxBurstFifo,      Received: 00000006   Item Number: 7
%%   280 ns    Log    PASSED    in receiver_1: RxBurstFifo,      Received: 00000007   Item Number: 8
%%   280 ns    Log    INFO      in receiver_1,                   Burst Check.  Operation# 3  Last Data: 00000007  TID: 0F  TDest: A  TUser: 4  TLast: 1
%%   280 ns    Log    PASSED    in receiver_1,                   Burst Check WordCount Received : 8
%%   280 ns    Log    PASSED    in receiver_1,                   ID Received : 0F
%%   280 ns    Log    PASSED    in receiver_1,                   DEST Received : A
%%   280 ns    Log    PASSED    in receiver_1,                   USER Received : 4
%%   280 ns    Log    PASSED    in receiver_1,                   Last Received : 1
%%   290 ns    Log    PASSED    in Default,                      Expected Completion Time Received : 290 ns
%%   290 ns    Log    PASSED    in Testbench,                    TRANSMIT_VALID_DELAY_CYCLES Received : 1
%%   300 ns    Log    INFO      in transmitter_1,                Axi Stream Send.  TData: CCCCCCCC  TStrb: 1111  TKeep: 1111  TID: 07  TDest: 5  TUser: 2  TLast: 0  Operation# 11
%%   310 ns    Log    PASSED    in receiver_1: Data Check,       Operation# 4  Received.  Data: CCCCCCCC  TID: 07  TDest: 5  TUser: 2  TLast: 0
%%   320 ns    Log    INFO      in transmitter_1,                Axi Stream Send.  TData: DDDDDDDD  TStrb: 1111  TKeep: 1111  TID: 07  TDest: 5  TUser: 2  TLast: 0  Operation# 12
%%   330 ns    Log    PASSED    in receiver_1: Data Check,       Operation# 5  Received.  Data: DDDDDDDD  TID: 07  TDest: 5  TUser: 2  TLast: 0
%%   340 ns    Log    INFO      in transmitter_1,                Axi Stream Send.  TData: 00000010  TStrb: 1111  TKeep: 1111  TID: 07  TDest: 5  TUser: 2  TLast: 0  Operation# 13
%%   350 ns    Log    INFO      in transmitter_1,                Axi Stream Send.  TData: 00000011  TStrb: 1111  TKeep: 1111  TID: 07  TDest: 5  TUser: 2  TLast: 0  Operation# 14
%%   360 ns    Log    INFO      in transmitter_1,                Axi Stream Send.  TData: 00000012  TStrb: 1111  TKeep: 1111  TID: 07  TDest: 5  TUser: 2  TLast: 0  Operation# 15
%%   370 ns    Log    INFO      in transmitter_1,                Axi Stream Send.  TData: 00000013  TStrb: 1111  TKeep: 1111  TID: 07  TDest: 5  TUser: 2  TLast: 0  Operation# 16
%%   380 ns    Log    INFO      in transmitter_1,                Axi Stream Send.  TData: 00000014  TStrb: 1111  TKeep: 1111  TID: 07  TDest: 5  TUser: 2  TLast: 0  Operation# 17
%%   390 ns    Log    INFO      in transmitter_1,                Axi Stream Send.  TData: 00000015  TStrb: 1111  TKeep: 1111  TID: 07  TDest: 5  TUser: 2  TLast: 0  Operation# 18
%%   400 ns    Log    INFO      in transmitter_1,                Axi Stream Send.  TData: 00000016  TStrb: 1111  TKeep: 1111  TID: 07  TDest: 5  TUser: 2  TLast: 0  Operation# 19
%%   410 ns    Log    INFO      in transmitter_1,                Axi Stream Send.  TData: 00000017  TStrb: 1111  TKeep: 1111  TID: 07  TDest: 5  TUser: 2  TLast: 1  Operation# 20
%%   420 ns    Log    PASSED    in receiver_1: RxBurstFifo,      Received: 00000010   Item Number: 9
%%   420 ns    Log    PASSED    in receiver_1: RxBurstFifo,      Received: 00000011   Item Number: 10
%%   420 ns    Log    PASSED    in receiver_1: RxBurstFifo,      Received: 00000012   Item Number: 11
%%   420 ns    Log    PASSED    in receiver_1: RxBurstFifo,      Received: 00000013   Item Number: 12
%%   420 ns    Log    PASSED    in receiver_1: RxBurstFifo,      Received: 00000014   Item Number: 13
%%   420 ns    Log    PASSED    in receiver_1: RxBurstFifo,      Received: 00000015   Item Number: 14
%%   420 ns    Log    PASSED    in receiver_1: RxBurstFifo,      Received: 00000016   Item Number: 15
%%   420 ns    Log    PASSED    in receiver_1: RxBurstFifo,      Received: 00000017   Item Number: 16
%%   420 ns    Log    INFO      in receiver_1,                   Burst Check.  Operation# 6  Last Data: 00000017  TID: 07  TDest: 5  TUser: 2  TLast: 1
%%   420 ns    Log    PASSED    in receiver_1,                   Burst Check WordCount Received : 8
%%   420 ns    Log    PASSED    in receiver_1,                   ID Received : 07
%%   420 ns    Log    PASSED    in receiver_1,                   DEST Received : 5
%%   420 ns    Log    PASSED    in receiver_1,                   USER Received : 2
%%   420 ns    Log    PASSED    in receiver_1,                   Last Received : 1
