%%    110 ns    Log    ALWAYS    in Default,                      Transmit 16 bytes.  Incrementing.  Starting with 03
%%    110 ns    Log    INFO      in transmitter_1,                Axi Stream Send.  TData: 06050403  TStrb: 1111  TKeep: 1111  TID: 00  TDest: 0  TUser: 0  TLast: 0  Operation# 1
%%    120 ns    Log    INFO      in transmitter_1,                Axi Stream Send.  TData: 0A090807  TStrb: 1111  TKeep: 1111  TID: 00  TDest: 0  TUser: 0  TLast: 0  Operation# 2
%%    130 ns    Log    INFO      in transmitter_1,                Axi Stream Send.  TData: 0E0D0C0B  TStrb: 1111  TKeep: 1111  TID: 00  TDest: 0  TUser: 0  TLast: 0  Operation# 3
%%    140 ns    Log    INFO      in transmitter_1,                Axi Stream Send.  TData: 1211100F  TStrb: 1111  TKeep: 1111  TID: 00  TDest: 0  TUser: 0  TLast: 1  Operation# 4
%%    150 ns    Log    ALWAYS    in Default,                      Transmit 13 bytes.
%%    150 ns    Log    INFO      in transmitter_1,                Axi Stream Send.  TData: 07050301  TStrb: 1111  TKeep: 1111  TID: 00  TDest: 0  TUser: 0  TLast: 0  Operation# 5
%%    150 ns    Log    PASSED    in receiver_1: RxBurstFifo,      Received: 03   Item Number: 1
%%    150 ns    Log    PASSED    in receiver_1: RxBurstFifo,      Received: 04   Item Number: 2
%%    150 ns    Log    PASSED    in receiver_1: RxBurstFifo,      Received: 05   Item Number: 3
%%    150 ns    Log    PASSED    in receiver_1: RxBurstFifo,      Received: 06   Item Number: 4
%%    150 ns    Log    PASSED    in receiver_1: RxBurstFifo,      Received: 07   Item Number: 5
%%    150 ns    Log    PASSED    in receiver_1: RxBurstFifo,      Received: 08   Item Number: 6
%%    150 ns    Log    PASSED    in receiver_1: RxBurstFifo,      Received: 09   Item Number: 7
%%    150 ns    Log    PASSED    in receiver_1: RxBurstFifo,      Received: 0A   Item Number: 8
%%    150 ns    Log    PASSED    in receiver_1: RxBurstFifo,      Received: 0B   Item Number: 9
%%    150 ns    Log    PASSED    in receiver_1: RxBurstFifo,      Received: 0C   Item Number: 10
%%    150 ns    Log    PASSED    in receiver_1: RxBurstFifo,      Received: 0D   Item Number: 11
%%    150 ns    Log    PASSED    in receiver_1: RxBurstFifo,      Received: 0E   Item Number: 12
%%    150 ns    Log    PASSED    in receiver_1: RxBurstFifo,      Received: 0F   Item Number: 13
%%    150 ns    Log    PASSED    in receiver_1: RxBurstFifo,      Received: 10   Item Number: 14
%%    150 ns    Log    PASSED    in receiver_1: RxBurstFifo,      Received: 11   Item Number: 15
%%    150 ns    Log    PASSED    in receiver_1: RxBurstFifo,      Received: 12   Item Number: 16
%%    150 ns    Log    INFO      in receiver_1,                   Burst Check.  Operation# 1  Last Data: 1211100F  TID: 00  TDest: 0  TUser: 0  TLast: 1
%%    150 ns    Log    PASSED    in receiver_1,                   Burst Check WordCount Received : 16
%%    150 ns    Log    PASSED    in receiver_1,                   ID Received : 00
%%    150 ns    Log    PASSED    in receiver_1,                   DEST Received : 0
%%    150 ns    Log    PASSED    in receiver_1,                   USER Received : 0
%%    150 ns    Log    PASSED    in receiver_1,                   Last Received : 1
%%    150 ns    Log    PASSED    in Default,                      TryCount 12
%%    160 ns    Log    INFO      in transmitter_1,                Axi Stream Send.  TData: 0F0D0B09  TStrb: 1111  TKeep: 1111  TID: 00  TDest: 0  TUser: 0  TLast: 0  Operation# 6
%%    170 ns    Log    INFO      in transmitter_1,                Axi Stream Send.  TData: 17151311  TStrb: 1111  TKeep: 1111  TID: 00  TDest: 0  TUser: 0  TLast: 0  Operation# 7
%%    180 ns    Log    INFO      in transmitter_1,                Axi Stream Send.  TData: XXXXXX19  TStrb: 0001  TKeep: 0001  TID: 00  TDest: 0  TUser: 0  TLast: 1  Operation# 8
%%    190 ns    Log    ALWAYS    in Default,                      Transmit 8 bytes.  Random.  Starting with XAA
%%    190 ns    Log    INFO      in transmitter_1,                Axi Stream Send.  TData: DF541FAA  TStrb: 1111  TKeep: 1111  TID: 00  TDest: 0  TUser: 0  TLast: 0  Operation# 9
%%    190 ns    Log    PASSED    in receiver_1: RxBurstFifo,      Received: 01   Item Number: 17
%%    190 ns    Log    PASSED    in receiver_1: RxBurstFifo,      Received: 03   Item Number: 18
%%    190 ns    Log    PASSED    in receiver_1: RxBurstFifo,      Received: 05   Item Number: 19
%%    190 ns    Log    PASSED    in receiver_1: RxBurstFifo,      Received: 07   Item Number: 20
%%    190 ns    Log    PASSED    in receiver_1: RxBurstFifo,      Received: 09   Item Number: 21
%%    190 ns    Log    PASSED    in receiver_1: RxBurstFifo,      Received: 0B   Item Number: 22
%%    190 ns    Log    PASSED    in receiver_1: RxBurstFifo,      Received: 0D   Item Number: 23
%%    190 ns    Log    PASSED    in receiver_1: RxBurstFifo,      Received: 0F   Item Number: 24
%%    190 ns    Log    PASSED    in receiver_1: RxBurstFifo,      Received: 11   Item Number: 25
%%    190 ns    Log    PASSED    in receiver_1: RxBurstFifo,      Received: 13   Item Number: 26
%%    190 ns    Log    PASSED    in receiver_1: RxBurstFifo,      Received: 15   Item Number: 27
%%    190 ns    Log    PASSED    in receiver_1: RxBurstFifo,      Received: 17   Item Number: 28
%%    190 ns    Log    PASSED    in receiver_1: RxBurstFifo,      Received: 19   Item Number: 29
%%    190 ns    Log    INFO      in receiver_1,                   Burst Check.  Operation# 2  Last Data: ------19  TID: 00  TDest: 0  TUser: 0  TLast: 1
%%    190 ns    Log    PASSED    in receiver_1,                   Burst Check WordCount Received : 13
%%    190 ns    Log    PASSED    in receiver_1,                   ID Received : 00
%%    190 ns    Log    PASSED    in receiver_1,                   DEST Received : 0
%%    190 ns    Log    PASSED    in receiver_1,                   USER Received : 0
%%    190 ns    Log    PASSED    in receiver_1,                   Last Received : 1
%%    190 ns    Log    ALWAYS    in Default,                      Transmit 8 bytes. Starting with 0
%%    190 ns    Log    PASSED    in Default,                      TryCount 4
%%    190 ns    Log    ALWAYS    in Default,                      Transmit 11 bytes. Starting with 32
%%    190 ns    Log    ALWAYS    in Default,                      Transmit 14 bytes. Starting with 64
%%    190 ns    Log    ALWAYS    in Default,                      Transmit 17 bytes. Starting with 96
%%    190 ns    Log    ALWAYS    in Default,                      Transmit 20 bytes. Starting with 128
%%    190 ns    Log    ALWAYS    in Default,                      Transmit 23 bytes. Starting with 160
%%    190 ns    Log    ALWAYS    in Default,                      Transmit 26 bytes. Starting with 192
%%    200 ns    Log    INFO      in transmitter_1,                Axi Stream Send.  TData: A017C1D7  TStrb: 1111  TKeep: 1111  TID: 00  TDest: 0  TUser: 0  TLast: 1  Operation# 10
%%    210 ns    Log    INFO      in transmitter_1,                Axi Stream Send.  TData: 03020100  TStrb: 1111  TKeep: 1111  TID: 00  TDest: 0  TUser: 0  TLast: 0  Operation# 11
%%    210 ns    Log    PASSED    in receiver_1: RxBurstFifo,      Received: AA   Item Number: 30
%%    210 ns    Log    PASSED    in receiver_1: RxBurstFifo,      Received: 1F   Item Number: 31
%%    210 ns    Log    PASSED    in receiver_1: RxBurstFifo,      Received: 54   Item Number: 32
%%    210 ns    Log    PASSED    in receiver_1: RxBurstFifo,      Received: DF   Item Number: 33
%%    210 ns    Log    PASSED    in receiver_1: RxBurstFifo,      Received: D7   Item Number: 34
%%    210 ns    Log    PASSED    in receiver_1: RxBurstFifo,      Received: C1   Item Number: 35
%%    210 ns    Log    PASSED    in receiver_1: RxBurstFifo,      Received: 17   Item Number: 36
%%    210 ns    Log    PASSED    in receiver_1: RxBurstFifo,      Received: A0   Item Number: 37
%%    210 ns    Log    INFO      in receiver_1,                   Burst Check.  Operation# 3  Last Data: A017C1D7  TID: 00  TDest: 0  TUser: 0  TLast: 1
%%    210 ns    Log    PASSED    in receiver_1,                   Burst Check WordCount Received : 8
%%    210 ns    Log    PASSED    in receiver_1,                   ID Received : 00
%%    210 ns    Log    PASSED    in receiver_1,                   DEST Received : 0
%%    210 ns    Log    PASSED    in receiver_1,                   USER Received : 0
%%    210 ns    Log    PASSED    in receiver_1,                   Last Received : 1
%%    210 ns    Log    PASSED    in Default,                      TryCount 2
%%    220 ns    Log    INFO      in transmitter_1,                Axi Stream Send.  TData: 07060504  TStrb: 1111  TKeep: 1111  TID: 00  TDest: 0  TUser: 0  TLast: 1  Operation# 12
%%    230 ns    Log    INFO      in transmitter_1,                Axi Stream Send.  TData: 23222120  TStrb: 1111  TKeep: 1111  TID: 00  TDest: 0  TUser: 0  TLast: 0  Operation# 13
%%    230 ns    Log    PASSED    in receiver_1: RxBurstFifo,      Received: 00   Item Number: 38
%%    230 ns    Log    PASSED    in receiver_1: RxBurstFifo,      Received: 01   Item Number: 39
%%    230 ns    Log    PASSED    in receiver_1: RxBurstFifo,      Received: 02   Item Number: 40
%%    230 ns    Log    PASSED    in receiver_1: RxBurstFifo,      Received: 03   Item Number: 41
%%    230 ns    Log    PASSED    in receiver_1: RxBurstFifo,      Received: 04   Item Number: 42
%%    230 ns    Log    PASSED    in receiver_1: RxBurstFifo,      Received: 05   Item Number: 43
%%    230 ns    Log    PASSED    in receiver_1: RxBurstFifo,      Received: 06   Item Number: 44
%%    230 ns    Log    PASSED    in receiver_1: RxBurstFifo,      Received: 07   Item Number: 45
%%    230 ns    Log    INFO      in receiver_1,                   Burst Check.  Operation# 4  Last Data: 07060504  TID: 00  TDest: 0  TUser: 0  TLast: 1
%%    230 ns    Log    PASSED    in receiver_1,                   Burst Check WordCount Received : 8
%%    230 ns    Log    PASSED    in receiver_1,                   ID Received : 00
%%    230 ns    Log    PASSED    in receiver_1,                   DEST Received : 0
%%    230 ns    Log    PASSED    in receiver_1,                   USER Received : 0
%%    230 ns    Log    PASSED    in receiver_1,                   Last Received : 1
%%    230 ns    Log    PASSED    in Default,                      TryCount 2
%%    240 ns    Log    INFO      in transmitter_1,                Axi Stream Send.  TData: 27262524  TStrb: 1111  TKeep: 1111  TID: 00  TDest: 0  TUser: 0  TLast: 0  Operation# 14
%%    250 ns    Log    INFO      in transmitter_1,                Axi Stream Send.  TData: XX2A2928  TStrb: 0111  TKeep: 0111  TID: 00  TDest: 0  TUser: 0  TLast: 1  Operation# 15
%%    260 ns    Log    INFO      in transmitter_1,                Axi Stream Send.  TData: 43424140  TStrb: 1111  TKeep: 1111  TID: 00  TDest: 0  TUser: 0  TLast: 0  Operation# 16
%%    260 ns    Log    PASSED    in receiver_1: RxBurstFifo,      Received: 20   Item Number: 46
%%    260 ns    Log    PASSED    in receiver_1: RxBurstFifo,      Received: 21   Item Number: 47
%%    260 ns    Log    PASSED    in receiver_1: RxBurstFifo,      Received: 22   Item Number: 48
%%    260 ns    Log    PASSED    in receiver_1: RxBurstFifo,      Received: 23   Item Number: 49
%%    260 ns    Log    PASSED    in receiver_1: RxBurstFifo,      Received: 24   Item Number: 50
%%    260 ns    Log    PASSED    in receiver_1: RxBurstFifo,      Received: 25   Item Number: 51
%%    260 ns    Log    PASSED    in receiver_1: RxBurstFifo,      Received: 26   Item Number: 52
%%    260 ns    Log    PASSED    in receiver_1: RxBurstFifo,      Received: 27   Item Number: 53
%%    260 ns    Log    PASSED    in receiver_1: RxBurstFifo,      Received: 28   Item Number: 54
%%    260 ns    Log    PASSED    in receiver_1: RxBurstFifo,      Received: 29   Item Number: 55
%%    260 ns    Log    PASSED    in receiver_1: RxBurstFifo,      Received: 2A   Item Number: 56
%%    260 ns    Log    INFO      in receiver_1,                   Burst Check.  Operation# 5  Last Data: --2A2928  TID: 00  TDest: 0  TUser: 0  TLast: 1
%%    260 ns    Log    PASSED    in receiver_1,                   Burst Check WordCount Received : 11
%%    260 ns    Log    PASSED    in receiver_1,                   ID Received : 00
%%    260 ns    Log    PASSED    in receiver_1,                   DEST Received : 0
%%    260 ns    Log    PASSED    in receiver_1,                   USER Received : 0
%%    260 ns    Log    PASSED    in receiver_1,                   Last Received : 1
%%    260 ns    Log    PASSED    in Default,                      TryCount 3
%%    270 ns    Log    INFO      in transmitter_1,                Axi Stream Send.  TData: 47464544  TStrb: 1111  TKeep: 1111  TID: 00  TDest: 0  TUser: 0  TLast: 0  Operation# 17
%%    280 ns    Log    INFO      in transmitter_1,                Axi Stream Send.  TData: 4B4A4948  TStrb: 1111  TKeep: 1111  TID: 00  TDest: 0  TUser: 0  TLast: 0  Operation# 18
%%    290 ns    Log    INFO      in transmitter_1,                Axi Stream Send.  TData: XXXX4D4C  TStrb: 0011  TKeep: 0011  TID: 00  TDest: 0  TUser: 0  TLast: 1  Operation# 19
%%    300 ns    Log    INFO      in transmitter_1,                Axi Stream Send.  TData: 63626160  TStrb: 1111  TKeep: 1111  TID: 00  TDest: 0  TUser: 0  TLast: 0  Operation# 20
%%    300 ns    Log    PASSED    in receiver_1: RxBurstFifo,      Received: 40   Item Number: 57
%%    300 ns    Log    PASSED    in receiver_1: RxBurstFifo,      Received: 41   Item Number: 58
%%    300 ns    Log    PASSED    in receiver_1: RxBurstFifo,      Received: 42   Item Number: 59
%%    300 ns    Log    PASSED    in receiver_1: RxBurstFifo,      Received: 43   Item Number: 60
%%    300 ns    Log    PASSED    in receiver_1: RxBurstFifo,      Received: 44   Item Number: 61
%%    300 ns    Log    PASSED    in receiver_1: RxBurstFifo,      Received: 45   Item Number: 62
%%    300 ns    Log    PASSED    in receiver_1: RxBurstFifo,      Received: 46   Item Number: 63
%%    300 ns    Log    PASSED    in receiver_1: RxBurstFifo,      Received: 47   Item Number: 64
%%    300 ns    Log    PASSED    in receiver_1: RxBurstFifo,      Received: 48   Item Number: 65
%%    300 ns    Log    PASSED    in receiver_1: RxBurstFifo,      Received: 49   Item Number: 66
%%    300 ns    Log    PASSED    in receiver_1: RxBurstFifo,      Received: 4A   Item Number: 67
%%    300 ns    Log    PASSED    in receiver_1: RxBurstFifo,      Received: 4B   Item Number: 68
%%    300 ns    Log    PASSED    in receiver_1: RxBurstFifo,      Received: 4C   Item Number: 69
%%    300 ns    Log    PASSED    in receiver_1: RxBurstFifo,      Received: 4D   Item Number: 70
%%    300 ns    Log    INFO      in receiver_1,                   Burst Check.  Operation# 6  Last Data: ----4D4C  TID: 00  TDest: 0  TUser: 0  TLast: 1
%%    300 ns    Log    PASSED    in receiver_1,                   Burst Check WordCount Received : 14
%%    300 ns    Log    PASSED    in receiver_1,                   ID Received : 00
%%    300 ns    Log    PASSED    in receiver_1,                   DEST Received : 0
%%    300 ns    Log    PASSED    in receiver_1,                   USER Received : 0
%%    300 ns    Log    PASSED    in receiver_1,                   Last Received : 1
%%    300 ns    Log    PASSED    in Default,                      TryCount 4
%%    310 ns    Log    INFO      in transmitter_1,                Axi Stream Send.  TData: 67666564  TStrb: 1111  TKeep: 1111  TID: 00  TDest: 0  TUser: 0  TLast: 0  Operation# 21
%%    320 ns    Log    INFO      in transmitter_1,                Axi Stream Send.  TData: 6B6A6968  TStrb: 1111  TKeep: 1111  TID: 00  TDest: 0  TUser: 0  TLast: 0  Operation# 22
%%    330 ns    Log    INFO      in transmitter_1,                Axi Stream Send.  TData: 6F6E6D6C  TStrb: 1111  TKeep: 1111  TID: 00  TDest: 0  TUser: 0  TLast: 0  Operation# 23
%%    340 ns    Log    INFO      in transmitter_1,                Axi Stream Send.  TData: XXXXXX70  TStrb: 0001  TKeep: 0001  TID: 00  TDest: 0  TUser: 0  TLast: 1  Operation# 24
%%    350 ns    Log    INFO      in transmitter_1,                Axi Stream Send.  TData: 83828180  TStrb: 1111  TKeep: 1111  TID: 00  TDest: 0  TUser: 0  TLast: 0  Operation# 25
%%    350 ns    Log    PASSED    in receiver_1: RxBurstFifo,      Received: 60   Item Number: 71
%%    350 ns    Log    PASSED    in receiver_1: RxBurstFifo,      Received: 61   Item Number: 72
%%    350 ns    Log    PASSED    in receiver_1: RxBurstFifo,      Received: 62   Item Number: 73
%%    350 ns    Log    PASSED    in receiver_1: RxBurstFifo,      Received: 63   Item Number: 74
%%    350 ns    Log    PASSED    in receiver_1: RxBurstFifo,      Received: 64   Item Number: 75
%%    350 ns    Log    PASSED    in receiver_1: RxBurstFifo,      Received: 65   Item Number: 76
%%    350 ns    Log    PASSED    in receiver_1: RxBurstFifo,      Received: 66   Item Number: 77
%%    350 ns    Log    PASSED    in receiver_1: RxBurstFifo,      Received: 67   Item Number: 78
%%    350 ns    Log    PASSED    in receiver_1: RxBurstFifo,      Received: 68   Item Number: 79
%%    350 ns    Log    PASSED    in receiver_1: RxBurstFifo,      Received: 69   Item Number: 80
%%    350 ns    Log    PASSED    in receiver_1: RxBurstFifo,      Received: 6A   Item Number: 81
%%    350 ns    Log    PASSED    in receiver_1: RxBurstFifo,      Received: 6B   Item Number: 82
%%    350 ns    Log    PASSED    in receiver_1: RxBurstFifo,      Received: 6C   Item Number: 83
%%    350 ns    Log    PASSED    in receiver_1: RxBurstFifo,      Received: 6D   Item Number: 84
%%    350 ns    Log    PASSED    in receiver_1: RxBurstFifo,      Received: 6E   Item Number: 85
%%    350 ns    Log    PASSED    in receiver_1: RxBurstFifo,      Received: 6F   Item Number: 86
%%    350 ns    Log    PASSED    in receiver_1: RxBurstFifo,      Received: 70   Item Number: 87
%%    350 ns    Log    INFO      in receiver_1,                   Burst Check.  Operation# 7  Last Data: ------70  TID: 00  TDest: 0  TUser: 0  TLast: 1
%%    350 ns    Log    PASSED    in receiver_1,                   Burst Check WordCount Received : 17
%%    350 ns    Log    PASSED    in receiver_1,                   ID Received : 00
%%    350 ns    Log    PASSED    in receiver_1,                   DEST Received : 0
%%    350 ns    Log    PASSED    in receiver_1,                   USER Received : 0
%%    350 ns    Log    PASSED    in receiver_1,                   Last Received : 1
%%    350 ns    Log    PASSED    in Default,                      TryCount 5
%%    360 ns    Log    INFO      in transmitter_1,                Axi Stream Send.  TData: 87868584  TStrb: 1111  TKeep: 1111  TID: 00  TDest: 0  TUser: 0  TLast: 0  Operation# 26
%%    370 ns    Log    INFO      in transmitter_1,                Axi Stream Send.  TData: 8B8A8988  TStrb: 1111  TKeep: 1111  TID: 00  TDest: 0  TUser: 0  TLast: 0  Operation# 27
%%    380 ns    Log    INFO      in transmitter_1,                Axi Stream Send.  TData: 8F8E8D8C  TStrb: 1111  TKeep: 1111  TID: 00  TDest: 0  TUser: 0  TLast: 0  Operation# 28
%%    390 ns    Log    INFO      in transmitter_1,                Axi Stream Send.  TData: 93929190  TStrb: 1111  TKeep: 1111  TID: 00  TDest: 0  TUser: 0  TLast: 1  Operation# 29
%%    400 ns    Log    INFO      in transmitter_1,                Axi Stream Send.  TData: A3A2A1A0  TStrb: 1111  TKeep: 1111  TID: 00  TDest: 0  TUser: 0  TLast: 0  Operation# 30
%%    400 ns    Log    PASSED    in receiver_1: RxBurstFifo,      Received: 80   Item Number: 88
%%    400 ns    Log    PASSED    in receiver_1: RxBurstFifo,      Received: 81   Item Number: 89
%%    400 ns    Log    PASSED    in receiver_1: RxBurstFifo,      Received: 82   Item Number: 90
%%    400 ns    Log    PASSED    in receiver_1: RxBurstFifo,      Received: 83   Item Number: 91
%%    400 ns    Log    PASSED    in receiver_1: RxBurstFifo,      Received: 84   Item Number: 92
%%    400 ns    Log    PASSED    in receiver_1: RxBurstFifo,      Received: 85   Item Number: 93
%%    400 ns    Log    PASSED    in receiver_1: RxBurstFifo,      Received: 86   Item Number: 94
%%    400 ns    Log    PASSED    in receiver_1: RxBurstFifo,      Received: 87   Item Number: 95
%%    400 ns    Log    PASSED    in receiver_1: RxBurstFifo,      Received: 88   Item Number: 96
%%    400 ns    Log    PASSED    in receiver_1: RxBurstFifo,      Received: 89   Item Number: 97
%%    400 ns    Log    PASSED    in receiver_1: RxBurstFifo,      Received: 8A   Item Number: 98
%%    400 ns    Log    PASSED    in receiver_1: RxBurstFifo,      Received: 8B   Item Number: 99
%%    400 ns    Log    PASSED    in receiver_1: RxBurstFifo,      Received: 8C   Item Number: 100
%%    400 ns    Log    PASSED    in receiver_1: RxBurstFifo,      Received: 8D   Item Number: 101
%%    400 ns    Log    PASSED    in receiver_1: RxBurstFifo,      Received: 8E   Item Number: 102
%%    400 ns    Log    PASSED    in receiver_1: RxBurstFifo,      Received: 8F   Item Number: 103
%%    400 ns    Log    PASSED    in receiver_1: RxBurstFifo,      Received: 90   Item Number: 104
%%    400 ns    Log    PASSED    in receiver_1: RxBurstFifo,      Received: 91   Item Number: 105
%%    400 ns    Log    PASSED    in receiver_1: RxBurstFifo,      Received: 92   Item Number: 106
%%    400 ns    Log    PASSED    in receiver_1: RxBurstFifo,      Received: 93   Item Number: 107
%%    400 ns    Log    INFO      in receiver_1,                   Burst Check.  Operation# 8  Last Data: 93929190  TID: 00  TDest: 0  TUser: 0  TLast: 1
%%    400 ns    Log    PASSED    in receiver_1,                   Burst Check WordCount Received : 20
%%    400 ns    Log    PASSED    in receiver_1,                   ID Received : 00
%%    400 ns    Log    PASSED    in receiver_1,                   DEST Received : 0
%%    400 ns    Log    PASSED    in receiver_1,                   USER Received : 0
%%    400 ns    Log    PASSED    in receiver_1,                   Last Received : 1
%%    400 ns    Log    PASSED    in Default,                      TryCount 5
%%    410 ns    Log    INFO      in transmitter_1,                Axi Stream Send.  TData: A7A6A5A4  TStrb: 1111  TKeep: 1111  TID: 00  TDest: 0  TUser: 0  TLast: 0  Operation# 31
%%    420 ns    Log    INFO      in transmitter_1,                Axi Stream Send.  TData: ABAAA9A8  TStrb: 1111  TKeep: 1111  TID: 00  TDest: 0  TUser: 0  TLast: 0  Operation# 32
%%    430 ns    Log    INFO      in transmitter_1,                Axi Stream Send.  TData: AFAEADAC  TStrb: 1111  TKeep: 1111  TID: 00  TDest: 0  TUser: 0  TLast: 0  Operation# 33
%%    440 ns    Log    INFO      in transmitter_1,                Axi Stream Send.  TData: B3B2B1B0  TStrb: 1111  TKeep: 1111  TID: 00  TDest: 0  TUser: 0  TLast: 0  Operation# 34
%%    450 ns    Log    INFO      in transmitter_1,                Axi Stream Send.  TData: XXB6B5B4  TStrb: 0111  TKeep: 0111  TID: 00  TDest: 0  TUser: 0  TLast: 1  Operation# 35
%%    460 ns    Log    INFO      in transmitter_1,                Axi Stream Send.  TData: C3C2C1C0  TStrb: 1111  TKeep: 1111  TID: 00  TDest: 0  TUser: 0  TLast: 0  Operation# 36
%%    460 ns    Log    PASSED    in receiver_1: RxBurstFifo,      Received: A0   Item Number: 108
%%    460 ns    Log    PASSED    in receiver_1: RxBurstFifo,      Received: A1   Item Number: 109
%%    460 ns    Log    PASSED    in receiver_1: RxBurstFifo,      Received: A2   Item Number: 110
%%    460 ns    Log    PASSED    in receiver_1: RxBurstFifo,      Received: A3   Item Number: 111
%%    460 ns    Log    PASSED    in receiver_1: RxBurstFifo,      Received: A4   Item Number: 112
%%    460 ns    Log    PASSED    in receiver_1: RxBurstFifo,      Received: A5   Item Number: 113
%%    460 ns    Log    PASSED    in receiver_1: RxBurstFifo,      Received: A6   Item Number: 114
%%    460 ns    Log    PASSED    in receiver_1: RxBurstFifo,      Received: A7   Item Number: 115
%%    460 ns    Log    PASSED    in receiver_1: RxBurstFifo,      Received: A8   Item Number: 116
%%    460 ns    Log    PASSED    in receiver_1: RxBurstFifo,      Received: A9   Item Number: 117
%%    460 ns    Log    PASSED    in receiver_1: RxBurstFifo,      Received: AA   Item Number: 118
%%    460 ns    Log    PASSED    in receiver_1: RxBurstFifo,      Received: AB   Item Number: 119
%%    460 ns    Log    PASSED    in receiver_1: RxBurstFifo,      Received: AC   Item Number: 120
%%    460 ns    Log    PASSED    in receiver_1: RxBurstFifo,      Received: AD   Item Number: 121
%%    460 ns    Log    PASSED    in receiver_1: RxBurstFifo,      Received: AE   Item Number: 122
%%    460 ns    Log    PASSED    in receiver_1: RxBurstFifo,      Received: AF   Item Number: 123
%%    460 ns    Log    PASSED    in receiver_1: RxBurstFifo,      Received: B0   Item Number: 124
%%    460 ns    Log    PASSED    in receiver_1: RxBurstFifo,      Received: B1   Item Number: 125
%%    460 ns    Log    PASSED    in receiver_1: RxBurstFifo,      Received: B2   Item Number: 126
%%    460 ns    Log    PASSED    in receiver_1: RxBurstFifo,      Received: B3   Item Number: 127
%%    460 ns    Log    PASSED    in receiver_1: RxBurstFifo,      Received: B4   Item Number: 128
%%    460 ns    Log    PASSED    in receiver_1: RxBurstFifo,      Received: B5   Item Number: 129
%%    460 ns    Log    PASSED    in receiver_1: RxBurstFifo,      Received: B6   Item Number: 130
%%    460 ns    Log    INFO      in receiver_1,                   Burst Check.  Operation# 9  Last Data: --B6B5B4  TID: 00  TDest: 0  TUser: 0  TLast: 1
%%    460 ns    Log    PASSED    in receiver_1,                   Burst Check WordCount Received : 23
%%    460 ns    Log    PASSED    in receiver_1,                   ID Received : 00
%%    460 ns    Log    PASSED    in receiver_1,                   DEST Received : 0
%%    460 ns    Log    PASSED    in receiver_1,                   USER Received : 0
%%    460 ns    Log    PASSED    in receiver_1,                   Last Received : 1
%%    460 ns    Log    PASSED    in Default,                      TryCount 6
%%    470 ns    Log    INFO      in transmitter_1,                Axi Stream Send.  TData: C7C6C5C4  TStrb: 1111  TKeep: 1111  TID: 00  TDest: 0  TUser: 0  TLast: 0  Operation# 37
%%    480 ns    Log    INFO      in transmitter_1,                Axi Stream Send.  TData: CBCAC9C8  TStrb: 1111  TKeep: 1111  TID: 00  TDest: 0  TUser: 0  TLast: 0  Operation# 38
%%    490 ns    Log    INFO      in transmitter_1,                Axi Stream Send.  TData: CFCECDCC  TStrb: 1111  TKeep: 1111  TID: 00  TDest: 0  TUser: 0  TLast: 0  Operation# 39
%%    500 ns    Log    INFO      in transmitter_1,                Axi Stream Send.  TData: D3D2D1D0  TStrb: 1111  TKeep: 1111  TID: 00  TDest: 0  TUser: 0  TLast: 0  Operation# 40
%%    510 ns    Log    INFO      in transmitter_1,                Axi Stream Send.  TData: D7D6D5D4  TStrb: 1111  TKeep: 1111  TID: 00  TDest: 0  TUser: 0  TLast: 0  Operation# 41
%%    520 ns    Log    INFO      in transmitter_1,                Axi Stream Send.  TData: XXXXD9D8  TStrb: 0011  TKeep: 0011  TID: 00  TDest: 0  TUser: 0  TLast: 1  Operation# 42
%%    530 ns    Log    PASSED    in receiver_1: RxBurstFifo,      Received: C0   Item Number: 131
%%    530 ns    Log    PASSED    in receiver_1: RxBurstFifo,      Received: C1   Item Number: 132
%%    530 ns    Log    PASSED    in receiver_1: RxBurstFifo,      Received: C2   Item Number: 133
%%    530 ns    Log    PASSED    in receiver_1: RxBurstFifo,      Received: C3   Item Number: 134
%%    530 ns    Log    PASSED    in receiver_1: RxBurstFifo,      Received: C4   Item Number: 135
%%    530 ns    Log    PASSED    in receiver_1: RxBurstFifo,      Received: C5   Item Number: 136
%%    530 ns    Log    PASSED    in receiver_1: RxBurstFifo,      Received: C6   Item Number: 137
%%    530 ns    Log    PASSED    in receiver_1: RxBurstFifo,      Received: C7   Item Number: 138
%%    530 ns    Log    PASSED    in receiver_1: RxBurstFifo,      Received: C8   Item Number: 139
%%    530 ns    Log    PASSED    in receiver_1: RxBurstFifo,      Received: C9   Item Number: 140
%%    530 ns    Log    PASSED    in receiver_1: RxBurstFifo,      Received: CA   Item Number: 141
%%    530 ns    Log    PASSED    in receiver_1: RxBurstFifo,      Received: CB   Item Number: 142
%%    530 ns    Log    PASSED    in receiver_1: RxBurstFifo,      Received: CC   Item Number: 143
%%    530 ns    Log    PASSED    in receiver_1: RxBurstFifo,      Received: CD   Item Number: 144
%%    530 ns    Log    PASSED    in receiver_1: RxBurstFifo,      Received: CE   Item Number: 145
%%    530 ns    Log    PASSED    in receiver_1: RxBurstFifo,      Received: CF   Item Number: 146
%%    530 ns    Log    PASSED    in receiver_1: RxBurstFifo,      Received: D0   Item Number: 147
%%    530 ns    Log    PASSED    in receiver_1: RxBurstFifo,      Received: D1   Item Number: 148
%%    530 ns    Log    PASSED    in receiver_1: RxBurstFifo,      Received: D2   Item Number: 149
%%    530 ns    Log    PASSED    in receiver_1: RxBurstFifo,      Received: D3   Item Number: 150
%%    530 ns    Log    PASSED    in receiver_1: RxBurstFifo,      Received: D4   Item Number: 151
%%    530 ns    Log    PASSED    in receiver_1: RxBurstFifo,      Received: D5   Item Number: 152
%%    530 ns    Log    PASSED    in receiver_1: RxBurstFifo,      Received: D6   Item Number: 153
%%    530 ns    Log    PASSED    in receiver_1: RxBurstFifo,      Received: D7   Item Number: 154
%%    530 ns    Log    PASSED    in receiver_1: RxBurstFifo,      Received: D8   Item Number: 155
%%    530 ns    Log    PASSED    in receiver_1: RxBurstFifo,      Received: D9   Item Number: 156
%%    530 ns    Log    INFO      in receiver_1,                   Burst Check.  Operation# 10  Last Data: ----D9D8  TID: 00  TDest: 0  TUser: 0  TLast: 1
%%    530 ns    Log    PASSED    in receiver_1,                   Burst Check WordCount Received : 26
%%    530 ns    Log    PASSED    in receiver_1,                   ID Received : 00
%%    530 ns    Log    PASSED    in receiver_1,                   DEST Received : 0
%%    530 ns    Log    PASSED    in receiver_1,                   USER Received : 0
%%    530 ns    Log    PASSED    in receiver_1,                   Last Received : 1
%%    530 ns    Log    PASSED    in Default,                      TryCount 7
