%%     30 ns    Log    ALWAYS    in Default,                      Send 256 words with each byte incrementing
%%    110 ns    Log    ALWAYS    in Default,                      Send 256 words with each byte incrementing
%%    110 ns    Log    INFO      in transmitter_1,                Axi Stream Send.  TData: 07060504  TStrb: 1111  TKeep: 1111  TID: 00  TDest: F  TUser: 0  TLast: 0  Operation# 1
%%    120 ns    Log    PASSED    in receiver_1: Data Check,       Operation# 1  Received.  Data: 07060504  TID: 00  TDest: F  TUser: 0  TLast: 0
%%    120 ns    Log    INFO      in transmitter_1,                Axi Stream Send.  TData: 0B0A0908  TStrb: 1111  TKeep: 1111  TID: 00  TDest: F  TUser: 0  TLast: 0  Operation# 2
%%    130 ns    Log    PASSED    in receiver_1: Data Check,       Operation# 2  Received.  Data: 0B0A0908  TID: 00  TDest: F  TUser: 0  TLast: 0
%%    130 ns    Log    INFO      in transmitter_1,                Axi Stream Send.  TData: 0F0E0D0C  TStrb: 1111  TKeep: 1111  TID: 00  TDest: F  TUser: 0  TLast: 0  Operation# 3
%%    140 ns    Log    PASSED    in receiver_1: Data Check,       Operation# 3  Received.  Data: 0F0E0D0C  TID: 00  TDest: F  TUser: 0  TLast: 0
%%    140 ns    Log    INFO      in transmitter_1,                Axi Stream Send.  TData: 13121110  TStrb: 1111  TKeep: 1111  TID: 00  TDest: F  TUser: 0  TLast: 0  Operation# 4
%%    150 ns    Log    PASSED    in receiver_1: Data Check,       Operation# 4  Received.  Data: 13121110  TID: 00  TDest: F  TUser: 0  TLast: 0
%%    150 ns    Log    INFO      in transmitter_1,                Axi Stream Send.  TData: 17161514  TStrb: 1111  TKeep: 1111  TID: 00  TDest: F  TUser: 0  TLast: 0  Operation# 5
%%    160 ns    Log    PASSED    in receiver_1: Data Check,       Operation# 5  Received.  Data: 17161514  TID: 00  TDest: F  TUser: 0  TLast: 0
%%    160 ns    Log    INFO      in transmitter_1,                Axi Stream Send.  TData: 1B1A1918  TStrb: 1111  TKeep: 1111  TID: 00  TDest: F  TUser: 0  TLast: 0  Operation# 6
%%    170 ns    Log    PASSED    in receiver_1: Data Check,       Operation# 6  Received.  Data: 1B1A1918  TID: 00  TDest: F  TUser: 0  TLast: 0
%%    170 ns    Log    INFO      in transmitter_1,                Axi Stream Send.  TData: 1F1E1D1C  TStrb: 1111  TKeep: 1111  TID: 00  TDest: F  TUser: 0  TLast: 0  Operation# 7
%%    180 ns    Log    PASSED    in receiver_1: Data Check,       Operation# 7  Received.  Data: 1F1E1D1C  TID: 00  TDest: F  TUser: 0  TLast: 0
%%    180 ns    Log    INFO      in transmitter_1,                Axi Stream Send.  TData: 23222120  TStrb: 1111  TKeep: 1111  TID: 00  TDest: F  TUser: 0  TLast: 0  Operation# 8
%%    190 ns    Log    PASSED    in receiver_1: Data Check,       Operation# 8  Received.  Data: 23222120  TID: 00  TDest: F  TUser: 0  TLast: 0
%%    190 ns    Log    INFO      in transmitter_1,                Axi Stream Send.  TData: 27262524  TStrb: 1111  TKeep: 1111  TID: 00  TDest: F  TUser: 0  TLast: 0  Operation# 9
%%    200 ns    Log    PASSED    in receiver_1: Data Check,       Operation# 9  Received.  Data: 27262524  TID: 00  TDest: F  TUser: 0  TLast: 0
%%    200 ns    Log    INFO      in transmitter_1,                Axi Stream Send.  TData: 2B2A2928  TStrb: 1111  TKeep: 1111  TID: 00  TDest: F  TUser: 0  TLast: 0  Operation# 10
%%    210 ns    Log    PASSED    in receiver_1: Data Check,       Operation# 10  Received.  Data: 2B2A2928  TID: 00  TDest: F  TUser: 0  TLast: 0
%%    210 ns    Log    INFO      in transmitter_1,                Axi Stream Send.  TData: 2F2E2D2C  TStrb: 1111  TKeep: 1111  TID: 00  TDest: F  TUser: 0  TLast: 0  Operation# 11
%%    220 ns    Log    PASSED    in receiver_1: Data Check,       Operation# 11  Received.  Data: 2F2E2D2C  TID: 00  TDest: F  TUser: 0  TLast: 0
%%    220 ns    Log    INFO      in transmitter_1,                Axi Stream Send.  TData: 33323130  TStrb: 1111  TKeep: 1111  TID: 00  TDest: F  TUser: 0  TLast: 0  Operation# 12
%%    230 ns    Log    PASSED    in receiver_1: Data Check,       Operation# 12  Received.  Data: 33323130  TID: 00  TDest: F  TUser: 0  TLast: 0
%%    230 ns    Log    INFO      in transmitter_1,                Axi Stream Send.  TData: 37363534  TStrb: 1111  TKeep: 1111  TID: 00  TDest: F  TUser: 0  TLast: 0  Operation# 13
%%    240 ns    Log    PASSED    in receiver_1: Data Check,       Operation# 13  Received.  Data: 37363534  TID: 00  TDest: F  TUser: 0  TLast: 0
%%    240 ns    Log    INFO      in transmitter_1,                Axi Stream Send.  TData: 3B3A3938  TStrb: 1111  TKeep: 1111  TID: 00  TDest: F  TUser: 0  TLast: 0  Operation# 14
%%    250 ns    Log    PASSED    in receiver_1: Data Check,       Operation# 14  Received.  Data: 3B3A3938  TID: 00  TDest: F  TUser: 0  TLast: 0
%%    250 ns    Log    INFO      in transmitter_1,                Axi Stream Send.  TData: 3F3E3D3C  TStrb: 1111  TKeep: 1111  TID: 00  TDest: F  TUser: 0  TLast: 0  Operation# 15
%%    260 ns    Log    PASSED    in receiver_1: Data Check,       Operation# 15  Received.  Data: 3F3E3D3C  TID: 00  TDest: F  TUser: 0  TLast: 0
%%    260 ns    Log    INFO      in transmitter_1,                Axi Stream Send.  TData: 43424140  TStrb: 1111  TKeep: 1111  TID: 00  TDest: F  TUser: 0  TLast: 0  Operation# 16
%%    270 ns    Log    PASSED    in receiver_1: Data Check,       Operation# 16  Received.  Data: 43424140  TID: 00  TDest: F  TUser: 0  TLast: 0
%%    270 ns    Log    INFO      in transmitter_1,                Axi Stream Send.  TData: 47464544  TStrb: 1111  TKeep: 1111  TID: 00  TDest: E  TUser: 1  TLast: 0  Operation# 17
%%    280 ns    Log    PASSED    in receiver_1: Data Check,       Operation# 17  Received.  Data: 47464544  TID: 00  TDest: E  TUser: 1  TLast: 0
%%    280 ns    Log    INFO      in transmitter_1,                Axi Stream Send.  TData: 4B4A4948  TStrb: 1111  TKeep: 1111  TID: 00  TDest: E  TUser: 1  TLast: 0  Operation# 18
%%    290 ns    Log    PASSED    in receiver_1: Data Check,       Operation# 18  Received.  Data: 4B4A4948  TID: 00  TDest: E  TUser: 1  TLast: 0
%%    290 ns    Log    INFO      in transmitter_1,                Axi Stream Send.  TData: 4F4E4D4C  TStrb: 1111  TKeep: 1111  TID: 00  TDest: E  TUser: 1  TLast: 0  Operation# 19
%%    300 ns    Log    PASSED    in receiver_1: Data Check,       Operation# 19  Received.  Data: 4F4E4D4C  TID: 00  TDest: E  TUser: 1  TLast: 0
%%    300 ns    Log    INFO      in transmitter_1,                Axi Stream Send.  TData: 53525150  TStrb: 1111  TKeep: 1111  TID: 00  TDest: E  TUser: 1  TLast: 0  Operation# 20
%%    310 ns    Log    PASSED    in receiver_1: Data Check,       Operation# 20  Received.  Data: 53525150  TID: 00  TDest: E  TUser: 1  TLast: 0
%%    310 ns    Log    INFO      in transmitter_1,                Axi Stream Send.  TData: 57565554  TStrb: 1111  TKeep: 1111  TID: 00  TDest: E  TUser: 1  TLast: 0  Operation# 21
%%    320 ns    Log    PASSED    in receiver_1: Data Check,       Operation# 21  Received.  Data: 57565554  TID: 00  TDest: E  TUser: 1  TLast: 0
%%    320 ns    Log    INFO      in transmitter_1,                Axi Stream Send.  TData: 5B5A5958  TStrb: 1111  TKeep: 1111  TID: 00  TDest: E  TUser: 1  TLast: 0  Operation# 22
%%    330 ns    Log    PASSED    in receiver_1: Data Check,       Operation# 22  Received.  Data: 5B5A5958  TID: 00  TDest: E  TUser: 1  TLast: 0
%%    330 ns    Log    INFO      in transmitter_1,                Axi Stream Send.  TData: 5F5E5D5C  TStrb: 1111  TKeep: 1111  TID: 00  TDest: E  TUser: 1  TLast: 0  Operation# 23
%%    340 ns    Log    PASSED    in receiver_1: Data Check,       Operation# 23  Received.  Data: 5F5E5D5C  TID: 00  TDest: E  TUser: 1  TLast: 0
%%    340 ns    Log    INFO      in transmitter_1,                Axi Stream Send.  TData: 63626160  TStrb: 1111  TKeep: 1111  TID: 00  TDest: E  TUser: 1  TLast: 0  Operation# 24
%%    350 ns    Log    PASSED    in receiver_1: Data Check,       Operation# 24  Received.  Data: 63626160  TID: 00  TDest: E  TUser: 1  TLast: 0
%%    350 ns    Log    INFO      in transmitter_1,                Axi Stream Send.  TData: 67666564  TStrb: 1111  TKeep: 1111  TID: 00  TDest: E  TUser: 1  TLast: 0  Operation# 25
%%    360 ns    Log    PASSED    in receiver_1: Data Check,       Operation# 25  Received.  Data: 67666564  TID: 00  TDest: E  TUser: 1  TLast: 0
%%    360 ns    Log    INFO      in transmitter_1,                Axi Stream Send.  TData: 6B6A6968  TStrb: 1111  TKeep: 1111  TID: 00  TDest: E  TUser: 1  TLast: 0  Operation# 26
%%    370 ns    Log    PASSED    in receiver_1: Data Check,       Operation# 26  Received.  Data: 6B6A6968  TID: 00  TDest: E  TUser: 1  TLast: 0
%%    370 ns    Log    INFO      in transmitter_1,                Axi Stream Send.  TData: 6F6E6D6C  TStrb: 1111  TKeep: 1111  TID: 00  TDest: E  TUser: 1  TLast: 0  Operation# 27
%%    380 ns    Log    PASSED    in receiver_1: Data Check,       Operation# 27  Received.  Data: 6F6E6D6C  TID: 00  TDest: E  TUser: 1  TLast: 0
%%    380 ns    Log    INFO      in transmitter_1,                Axi Stream Send.  TData: 73727170  TStrb: 1111  TKeep: 1111  TID: 00  TDest: E  TUser: 1  TLast: 0  Operation# 28
%%    390 ns    Log    PASSED    in receiver_1: Data Check,       Operation# 28  Received.  Data: 73727170  TID: 00  TDest: E  TUser: 1  TLast: 0
%%    390 ns    Log    INFO      in transmitter_1,                Axi Stream Send.  TData: 77767574  TStrb: 1111  TKeep: 1111  TID: 00  TDest: E  TUser: 1  TLast: 0  Operation# 29
%%    400 ns    Log    PASSED    in receiver_1: Data Check,       Operation# 29  Received.  Data: 77767574  TID: 00  TDest: E  TUser: 1  TLast: 0
%%    400 ns    Log    INFO      in transmitter_1,                Axi Stream Send.  TData: 7B7A7978  TStrb: 1111  TKeep: 1111  TID: 00  TDest: E  TUser: 1  TLast: 0  Operation# 30
%%    410 ns    Log    PASSED    in receiver_1: Data Check,       Operation# 30  Received.  Data: 7B7A7978  TID: 00  TDest: E  TUser: 1  TLast: 0
%%    410 ns    Log    INFO      in transmitter_1,                Axi Stream Send.  TData: 7F7E7D7C  TStrb: 1111  TKeep: 1111  TID: 00  TDest: E  TUser: 1  TLast: 0  Operation# 31
%%    420 ns    Log    PASSED    in receiver_1: Data Check,       Operation# 31  Received.  Data: 7F7E7D7C  TID: 00  TDest: E  TUser: 1  TLast: 0
%%    420 ns    Log    INFO      in transmitter_1,                Axi Stream Send.  TData: 83828180  TStrb: 1111  TKeep: 1111  TID: 00  TDest: E  TUser: 1  TLast: 0  Operation# 32
%%    430 ns    Log    PASSED    in receiver_1: Data Check,       Operation# 32  Received.  Data: 83828180  TID: 00  TDest: E  TUser: 1  TLast: 0
%%    430 ns    Log    INFO      in transmitter_1,                Axi Stream Send.  TData: 87868584  TStrb: 1111  TKeep: 1111  TID: 01  TDest: D  TUser: 2  TLast: 0  Operation# 33
%%    440 ns    Log    PASSED    in receiver_1: Data Check,       Operation# 33  Received.  Data: 87868584  TID: 01  TDest: D  TUser: 2  TLast: 0
%%    440 ns    Log    INFO      in transmitter_1,                Axi Stream Send.  TData: 8B8A8988  TStrb: 1111  TKeep: 1111  TID: 01  TDest: D  TUser: 2  TLast: 0  Operation# 34
%%    450 ns    Log    PASSED    in receiver_1: Data Check,       Operation# 34  Received.  Data: 8B8A8988  TID: 01  TDest: D  TUser: 2  TLast: 0
%%    450 ns    Log    INFO      in transmitter_1,                Axi Stream Send.  TData: 8F8E8D8C  TStrb: 1111  TKeep: 1111  TID: 01  TDest: D  TUser: 2  TLast: 0  Operation# 35
%%    460 ns    Log    PASSED    in receiver_1: Data Check,       Operation# 35  Received.  Data: 8F8E8D8C  TID: 01  TDest: D  TUser: 2  TLast: 0
%%    460 ns    Log    INFO      in transmitter_1,                Axi Stream Send.  TData: 93929190  TStrb: 1111  TKeep: 1111  TID: 01  TDest: D  TUser: 2  TLast: 0  Operation# 36
%%    470 ns    Log    PASSED    in receiver_1: Data Check,       Operation# 36  Received.  Data: 93929190  TID: 01  TDest: D  TUser: 2  TLast: 0
%%    470 ns    Log    INFO      in transmitter_1,                Axi Stream Send.  TData: 97969594  TStrb: 1111  TKeep: 1111  TID: 01  TDest: D  TUser: 2  TLast: 0  Operation# 37
%%    480 ns    Log    PASSED    in receiver_1: Data Check,       Operation# 37  Received.  Data: 97969594  TID: 01  TDest: D  TUser: 2  TLast: 0
%%    480 ns    Log    INFO      in transmitter_1,                Axi Stream Send.  TData: 9B9A9998  TStrb: 1111  TKeep: 1111  TID: 01  TDest: D  TUser: 2  TLast: 0  Operation# 38
%%    490 ns    Log    PASSED    in receiver_1: Data Check,       Operation# 38  Received.  Data: 9B9A9998  TID: 01  TDest: D  TUser: 2  TLast: 0
%%    490 ns    Log    INFO      in transmitter_1,                Axi Stream Send.  TData: 9F9E9D9C  TStrb: 1111  TKeep: 1111  TID: 01  TDest: D  TUser: 2  TLast: 0  Operation# 39
%%    500 ns    Log    PASSED    in receiver_1: Data Check,       Operation# 39  Received.  Data: 9F9E9D9C  TID: 01  TDest: D  TUser: 2  TLast: 0
%%    500 ns    Log    INFO      in transmitter_1,                Axi Stream Send.  TData: A3A2A1A0  TStrb: 1111  TKeep: 1111  TID: 01  TDest: D  TUser: 2  TLast: 0  Operation# 40
%%    510 ns    Log    PASSED    in receiver_1: Data Check,       Operation# 40  Received.  Data: A3A2A1A0  TID: 01  TDest: D  TUser: 2  TLast: 0
%%    510 ns    Log    INFO      in transmitter_1,                Axi Stream Send.  TData: A7A6A5A4  TStrb: 1111  TKeep: 1111  TID: 01  TDest: D  TUser: 2  TLast: 0  Operation# 41
%%    520 ns    Log    PASSED    in receiver_1: Data Check,       Operation# 41  Received.  Data: A7A6A5A4  TID: 01  TDest: D  TUser: 2  TLast: 0
%%    520 ns    Log    INFO      in transmitter_1,                Axi Stream Send.  TData: ABAAA9A8  TStrb: 1111  TKeep: 1111  TID: 01  TDest: D  TUser: 2  TLast: 0  Operation# 42
%%    530 ns    Log    PASSED    in receiver_1: Data Check,       Operation# 42  Received.  Data: ABAAA9A8  TID: 01  TDest: D  TUser: 2  TLast: 0
%%    530 ns    Log    INFO      in transmitter_1,                Axi Stream Send.  TData: AFAEADAC  TStrb: 1111  TKeep: 1111  TID: 01  TDest: D  TUser: 2  TLast: 0  Operation# 43
%%    540 ns    Log    PASSED    in receiver_1: Data Check,       Operation# 43  Received.  Data: AFAEADAC  TID: 01  TDest: D  TUser: 2  TLast: 0
%%    540 ns    Log    INFO      in transmitter_1,                Axi Stream Send.  TData: B3B2B1B0  TStrb: 1111  TKeep: 1111  TID: 01  TDest: D  TUser: 2  TLast: 0  Operation# 44
%%    550 ns    Log    PASSED    in receiver_1: Data Check,       Operation# 44  Received.  Data: B3B2B1B0  TID: 01  TDest: D  TUser: 2  TLast: 0
%%    550 ns    Log    INFO      in transmitter_1,                Axi Stream Send.  TData: B7B6B5B4  TStrb: 1111  TKeep: 1111  TID: 01  TDest: D  TUser: 2  TLast: 0  Operation# 45
%%    560 ns    Log    PASSED    in receiver_1: Data Check,       Operation# 45  Received.  Data: B7B6B5B4  TID: 01  TDest: D  TUser: 2  TLast: 0
%%    560 ns    Log    INFO      in transmitter_1,                Axi Stream Send.  TData: BBBAB9B8  TStrb: 1111  TKeep: 1111  TID: 01  TDest: D  TUser: 2  TLast: 0  Operation# 46
%%    570 ns    Log    PASSED    in receiver_1: Data Check,       Operation# 46  Received.  Data: BBBAB9B8  TID: 01  TDest: D  TUser: 2  TLast: 0
%%    570 ns    Log    INFO      in transmitter_1,                Axi Stream Send.  TData: BFBEBDBC  TStrb: 1111  TKeep: 1111  TID: 01  TDest: D  TUser: 2  TLast: 0  Operation# 47
%%    580 ns    Log    PASSED    in receiver_1: Data Check,       Operation# 47  Received.  Data: BFBEBDBC  TID: 01  TDest: D  TUser: 2  TLast: 0
%%    580 ns    Log    INFO      in transmitter_1,                Axi Stream Send.  TData: C3C2C1C0  TStrb: 1111  TKeep: 1111  TID: 01  TDest: D  TUser: 2  TLast: 0  Operation# 48
%%    590 ns    Log    PASSED    in receiver_1: Data Check,       Operation# 48  Received.  Data: C3C2C1C0  TID: 01  TDest: D  TUser: 2  TLast: 0
%%    590 ns    Log    INFO      in transmitter_1,                Axi Stream Send.  TData: C7C6C5C4  TStrb: 1111  TKeep: 1111  TID: 01  TDest: C  TUser: 3  TLast: 0  Operation# 49
%%    600 ns    Log    PASSED    in receiver_1: Data Check,       Operation# 49  Received.  Data: C7C6C5C4  TID: 01  TDest: C  TUser: 3  TLast: 0
%%    600 ns    Log    INFO      in transmitter_1,                Axi Stream Send.  TData: CBCAC9C8  TStrb: 1111  TKeep: 1111  TID: 01  TDest: C  TUser: 3  TLast: 0  Operation# 50
%%    610 ns    Log    PASSED    in receiver_1: Data Check,       Operation# 50  Received.  Data: CBCAC9C8  TID: 01  TDest: C  TUser: 3  TLast: 0
%%    610 ns    Log    INFO      in transmitter_1,                Axi Stream Send.  TData: CFCECDCC  TStrb: 1111  TKeep: 1111  TID: 01  TDest: C  TUser: 3  TLast: 0  Operation# 51
%%    620 ns    Log    PASSED    in receiver_1: Data Check,       Operation# 51  Received.  Data: CFCECDCC  TID: 01  TDest: C  TUser: 3  TLast: 0
%%    620 ns    Log    INFO      in transmitter_1,                Axi Stream Send.  TData: D3D2D1D0  TStrb: 1111  TKeep: 1111  TID: 01  TDest: C  TUser: 3  TLast: 0  Operation# 52
%%    630 ns    Log    PASSED    in receiver_1: Data Check,       Operation# 52  Received.  Data: D3D2D1D0  TID: 01  TDest: C  TUser: 3  TLast: 0
%%    630 ns    Log    INFO      in transmitter_1,                Axi Stream Send.  TData: D7D6D5D4  TStrb: 1111  TKeep: 1111  TID: 01  TDest: C  TUser: 3  TLast: 0  Operation# 53
%%    640 ns    Log    PASSED    in receiver_1: Data Check,       Operation# 53  Received.  Data: D7D6D5D4  TID: 01  TDest: C  TUser: 3  TLast: 0
%%    640 ns    Log    INFO      in transmitter_1,                Axi Stream Send.  TData: DBDAD9D8  TStrb: 1111  TKeep: 1111  TID: 01  TDest: C  TUser: 3  TLast: 0  Operation# 54
%%    650 ns    Log    PASSED    in receiver_1: Data Check,       Operation# 54  Received.  Data: DBDAD9D8  TID: 01  TDest: C  TUser: 3  TLast: 0
%%    650 ns    Log    INFO      in transmitter_1,                Axi Stream Send.  TData: DFDEDDDC  TStrb: 1111  TKeep: 1111  TID: 01  TDest: C  TUser: 3  TLast: 0  Operation# 55
%%    660 ns    Log    PASSED    in receiver_1: Data Check,       Operation# 55  Received.  Data: DFDEDDDC  TID: 01  TDest: C  TUser: 3  TLast: 0
%%    660 ns    Log    INFO      in transmitter_1,                Axi Stream Send.  TData: E3E2E1E0  TStrb: 1111  TKeep: 1111  TID: 01  TDest: C  TUser: 3  TLast: 0  Operation# 56
%%    670 ns    Log    PASSED    in receiver_1: Data Check,       Operation# 56  Received.  Data: E3E2E1E0  TID: 01  TDest: C  TUser: 3  TLast: 0
%%    670 ns    Log    INFO      in transmitter_1,                Axi Stream Send.  TData: E7E6E5E4  TStrb: 1111  TKeep: 1111  TID: 01  TDest: C  TUser: 3  TLast: 0  Operation# 57
%%    680 ns    Log    PASSED    in receiver_1: Data Check,       Operation# 57  Received.  Data: E7E6E5E4  TID: 01  TDest: C  TUser: 3  TLast: 0
%%    680 ns    Log    INFO      in transmitter_1,                Axi Stream Send.  TData: EBEAE9E8  TStrb: 1111  TKeep: 1111  TID: 01  TDest: C  TUser: 3  TLast: 0  Operation# 58
%%    690 ns    Log    PASSED    in receiver_1: Data Check,       Operation# 58  Received.  Data: EBEAE9E8  TID: 01  TDest: C  TUser: 3  TLast: 0
%%    690 ns    Log    INFO      in transmitter_1,                Axi Stream Send.  TData: EFEEEDEC  TStrb: 1111  TKeep: 1111  TID: 01  TDest: C  TUser: 3  TLast: 0  Operation# 59
%%    700 ns    Log    PASSED    in receiver_1: Data Check,       Operation# 59  Received.  Data: EFEEEDEC  TID: 01  TDest: C  TUser: 3  TLast: 0
%%    700 ns    Log    INFO      in transmitter_1,                Axi Stream Send.  TData: F3F2F1F0  TStrb: 1111  TKeep: 1111  TID: 01  TDest: C  TUser: 3  TLast: 0  Operation# 60
%%    710 ns    Log    PASSED    in receiver_1: Data Check,       Operation# 60  Received.  Data: F3F2F1F0  TID: 01  TDest: C  TUser: 3  TLast: 0
%%    710 ns    Log    INFO      in transmitter_1,                Axi Stream Send.  TData: F7F6F5F4  TStrb: 1111  TKeep: 1111  TID: 01  TDest: C  TUser: 3  TLast: 0  Operation# 61
%%    720 ns    Log    PASSED    in receiver_1: Data Check,       Operation# 61  Received.  Data: F7F6F5F4  TID: 01  TDest: C  TUser: 3  TLast: 0
%%    720 ns    Log    INFO      in transmitter_1,                Axi Stream Send.  TData: FBFAF9F8  TStrb: 1111  TKeep: 1111  TID: 01  TDest: C  TUser: 3  TLast: 0  Operation# 62
%%    730 ns    Log    PASSED    in receiver_1: Data Check,       Operation# 62  Received.  Data: FBFAF9F8  TID: 01  TDest: C  TUser: 3  TLast: 0
%%    730 ns    Log    INFO      in transmitter_1,                Axi Stream Send.  TData: FFFEFDFC  TStrb: 1111  TKeep: 1111  TID: 01  TDest: C  TUser: 3  TLast: 0  Operation# 63
%%    740 ns    Log    PASSED    in receiver_1: Data Check,       Operation# 63  Received.  Data: FFFEFDFC  TID: 01  TDest: C  TUser: 3  TLast: 0
%%    740 ns    Log    INFO      in transmitter_1,                Axi Stream Send.  TData: 03020100  TStrb: 1111  TKeep: 1111  TID: 01  TDest: C  TUser: 3  TLast: 0  Operation# 64
%%    750 ns    Log    PASSED    in receiver_1: Data Check,       Operation# 64  Received.  Data: 03020100  TID: 01  TDest: C  TUser: 3  TLast: 0
%%    750 ns    Log    INFO      in transmitter_1,                Axi Stream Send.  TData: 07060504  TStrb: 1111  TKeep: 1111  TID: 02  TDest: B  TUser: 4  TLast: 0  Operation# 65
%%    760 ns    Log    PASSED    in receiver_1: Data Check,       Operation# 65  Received.  Data: 07060504  TID: 02  TDest: B  TUser: 4  TLast: 0
%%    760 ns    Log    INFO      in transmitter_1,                Axi Stream Send.  TData: 0B0A0908  TStrb: 1111  TKeep: 1111  TID: 02  TDest: B  TUser: 4  TLast: 0  Operation# 66
%%    770 ns    Log    PASSED    in receiver_1: Data Check,       Operation# 66  Received.  Data: 0B0A0908  TID: 02  TDest: B  TUser: 4  TLast: 0
%%    770 ns    Log    INFO      in transmitter_1,                Axi Stream Send.  TData: 0F0E0D0C  TStrb: 1111  TKeep: 1111  TID: 02  TDest: B  TUser: 4  TLast: 0  Operation# 67
%%    780 ns    Log    PASSED    in receiver_1: Data Check,       Operation# 67  Received.  Data: 0F0E0D0C  TID: 02  TDest: B  TUser: 4  TLast: 0
%%    780 ns    Log    INFO      in transmitter_1,                Axi Stream Send.  TData: 13121110  TStrb: 1111  TKeep: 1111  TID: 02  TDest: B  TUser: 4  TLast: 0  Operation# 68
%%    790 ns    Log    PASSED    in receiver_1: Data Check,       Operation# 68  Received.  Data: 13121110  TID: 02  TDest: B  TUser: 4  TLast: 0
%%    790 ns    Log    INFO      in transmitter_1,                Axi Stream Send.  TData: 17161514  TStrb: 1111  TKeep: 1111  TID: 02  TDest: B  TUser: 4  TLast: 0  Operation# 69
%%    800 ns    Log    PASSED    in receiver_1: Data Check,       Operation# 69  Received.  Data: 17161514  TID: 02  TDest: B  TUser: 4  TLast: 0
%%    800 ns    Log    INFO      in transmitter_1,                Axi Stream Send.  TData: 1B1A1918  TStrb: 1111  TKeep: 1111  TID: 02  TDest: B  TUser: 4  TLast: 0  Operation# 70
%%    810 ns    Log    PASSED    in receiver_1: Data Check,       Operation# 70  Received.  Data: 1B1A1918  TID: 02  TDest: B  TUser: 4  TLast: 0
%%    810 ns    Log    INFO      in transmitter_1,                Axi Stream Send.  TData: 1F1E1D1C  TStrb: 1111  TKeep: 1111  TID: 02  TDest: B  TUser: 4  TLast: 0  Operation# 71
%%    820 ns    Log    PASSED    in receiver_1: Data Check,       Operation# 71  Received.  Data: 1F1E1D1C  TID: 02  TDest: B  TUser: 4  TLast: 0
%%    820 ns    Log    INFO      in transmitter_1,                Axi Stream Send.  TData: 23222120  TStrb: 1111  TKeep: 1111  TID: 02  TDest: B  TUser: 4  TLast: 0  Operation# 72
%%    830 ns    Log    PASSED    in receiver_1: Data Check,       Operation# 72  Received.  Data: 23222120  TID: 02  TDest: B  TUser: 4  TLast: 0
%%    830 ns    Log    INFO      in transmitter_1,                Axi Stream Send.  TData: 27262524  TStrb: 1111  TKeep: 1111  TID: 02  TDest: B  TUser: 4  TLast: 0  Operation# 73
%%    840 ns    Log    PASSED    in receiver_1: Data Check,       Operation# 73  Received.  Data: 27262524  TID: 02  TDest: B  TUser: 4  TLast: 0
%%    840 ns    Log    INFO      in transmitter_1,                Axi Stream Send.  TData: 2B2A2928  TStrb: 1111  TKeep: 1111  TID: 02  TDest: B  TUser: 4  TLast: 0  Operation# 74
%%    850 ns    Log    PASSED    in receiver_1: Data Check,       Operation# 74  Received.  Data: 2B2A2928  TID: 02  TDest: B  TUser: 4  TLast: 0
%%    850 ns    Log    INFO      in transmitter_1,                Axi Stream Send.  TData: 2F2E2D2C  TStrb: 1111  TKeep: 1111  TID: 02  TDest: B  TUser: 4  TLast: 0  Operation# 75
%%    860 ns    Log    PASSED    in receiver_1: Data Check,       Operation# 75  Received.  Data: 2F2E2D2C  TID: 02  TDest: B  TUser: 4  TLast: 0
%%    860 ns    Log    INFO      in transmitter_1,                Axi Stream Send.  TData: 33323130  TStrb: 1111  TKeep: 1111  TID: 02  TDest: B  TUser: 4  TLast: 0  Operation# 76
%%    870 ns    Log    PASSED    in receiver_1: Data Check,       Operation# 76  Received.  Data: 33323130  TID: 02  TDest: B  TUser: 4  TLast: 0
%%    870 ns    Log    INFO      in transmitter_1,                Axi Stream Send.  TData: 37363534  TStrb: 1111  TKeep: 1111  TID: 02  TDest: B  TUser: 4  TLast: 0  Operation# 77
%%    880 ns    Log    PASSED    in receiver_1: Data Check,       Operation# 77  Received.  Data: 37363534  TID: 02  TDest: B  TUser: 4  TLast: 0
%%    880 ns    Log    INFO      in transmitter_1,                Axi Stream Send.  TData: 3B3A3938  TStrb: 1111  TKeep: 1111  TID: 02  TDest: B  TUser: 4  TLast: 0  Operation# 78
%%    890 ns    Log    PASSED    in receiver_1: Data Check,       Operation# 78  Received.  Data: 3B3A3938  TID: 02  TDest: B  TUser: 4  TLast: 0
%%    890 ns    Log    INFO      in transmitter_1,                Axi Stream Send.  TData: 3F3E3D3C  TStrb: 1111  TKeep: 1111  TID: 02  TDest: B  TUser: 4  TLast: 0  Operation# 79
%%    900 ns    Log    PASSED    in receiver_1: Data Check,       Operation# 79  Received.  Data: 3F3E3D3C  TID: 02  TDest: B  TUser: 4  TLast: 0
%%    900 ns    Log    INFO      in transmitter_1,                Axi Stream Send.  TData: 43424140  TStrb: 1111  TKeep: 1111  TID: 02  TDest: B  TUser: 4  TLast: 0  Operation# 80
%%    910 ns    Log    PASSED    in receiver_1: Data Check,       Operation# 80  Received.  Data: 43424140  TID: 02  TDest: B  TUser: 4  TLast: 0
%%    910 ns    Log    INFO      in transmitter_1,                Axi Stream Send.  TData: 47464544  TStrb: 1111  TKeep: 1111  TID: 02  TDest: A  TUser: 5  TLast: 0  Operation# 81
%%    920 ns    Log    PASSED    in receiver_1: Data Check,       Operation# 81  Received.  Data: 47464544  TID: 02  TDest: A  TUser: 5  TLast: 0
%%    920 ns    Log    INFO      in transmitter_1,                Axi Stream Send.  TData: 4B4A4948  TStrb: 1111  TKeep: 1111  TID: 02  TDest: A  TUser: 5  TLast: 0  Operation# 82
%%    930 ns    Log    PASSED    in receiver_1: Data Check,       Operation# 82  Received.  Data: 4B4A4948  TID: 02  TDest: A  TUser: 5  TLast: 0
%%    930 ns    Log    INFO      in transmitter_1,                Axi Stream Send.  TData: 4F4E4D4C  TStrb: 1111  TKeep: 1111  TID: 02  TDest: A  TUser: 5  TLast: 0  Operation# 83
%%    940 ns    Log    PASSED    in receiver_1: Data Check,       Operation# 83  Received.  Data: 4F4E4D4C  TID: 02  TDest: A  TUser: 5  TLast: 0
%%    940 ns    Log    INFO      in transmitter_1,                Axi Stream Send.  TData: 53525150  TStrb: 1111  TKeep: 1111  TID: 02  TDest: A  TUser: 5  TLast: 0  Operation# 84
%%    950 ns    Log    PASSED    in receiver_1: Data Check,       Operation# 84  Received.  Data: 53525150  TID: 02  TDest: A  TUser: 5  TLast: 0
%%    950 ns    Log    INFO      in transmitter_1,                Axi Stream Send.  TData: 57565554  TStrb: 1111  TKeep: 1111  TID: 02  TDest: A  TUser: 5  TLast: 0  Operation# 85
%%    960 ns    Log    PASSED    in receiver_1: Data Check,       Operation# 85  Received.  Data: 57565554  TID: 02  TDest: A  TUser: 5  TLast: 0
%%    960 ns    Log    INFO      in transmitter_1,                Axi Stream Send.  TData: 5B5A5958  TStrb: 1111  TKeep: 1111  TID: 02  TDest: A  TUser: 5  TLast: 0  Operation# 86
%%    970 ns    Log    PASSED    in receiver_1: Data Check,       Operation# 86  Received.  Data: 5B5A5958  TID: 02  TDest: A  TUser: 5  TLast: 0
%%    970 ns    Log    INFO      in transmitter_1,                Axi Stream Send.  TData: 5F5E5D5C  TStrb: 1111  TKeep: 1111  TID: 02  TDest: A  TUser: 5  TLast: 0  Operation# 87
%%    980 ns    Log    PASSED    in receiver_1: Data Check,       Operation# 87  Received.  Data: 5F5E5D5C  TID: 02  TDest: A  TUser: 5  TLast: 0
%%    980 ns    Log    INFO      in transmitter_1,                Axi Stream Send.  TData: 63626160  TStrb: 1111  TKeep: 1111  TID: 02  TDest: A  TUser: 5  TLast: 0  Operation# 88
%%    990 ns    Log    PASSED    in receiver_1: Data Check,       Operation# 88  Received.  Data: 63626160  TID: 02  TDest: A  TUser: 5  TLast: 0
%%    990 ns    Log    INFO      in transmitter_1,                Axi Stream Send.  TData: 67666564  TStrb: 1111  TKeep: 1111  TID: 02  TDest: A  TUser: 5  TLast: 0  Operation# 89
%%   1000 ns    Log    PASSED    in receiver_1: Data Check,       Operation# 89  Received.  Data: 67666564  TID: 02  TDest: A  TUser: 5  TLast: 0
%%   1000 ns    Log    INFO      in transmitter_1,                Axi Stream Send.  TData: 6B6A6968  TStrb: 1111  TKeep: 1111  TID: 02  TDest: A  TUser: 5  TLast: 0  Operation# 90
%%   1010 ns    Log    PASSED    in receiver_1: Data Check,       Operation# 90  Received.  Data: 6B6A6968  TID: 02  TDest: A  TUser: 5  TLast: 0
%%   1010 ns    Log    INFO      in transmitter_1,                Axi Stream Send.  TData: 6F6E6D6C  TStrb: 1111  TKeep: 1111  TID: 02  TDest: A  TUser: 5  TLast: 0  Operation# 91
%%   1020 ns    Log    PASSED    in receiver_1: Data Check,       Operation# 91  Received.  Data: 6F6E6D6C  TID: 02  TDest: A  TUser: 5  TLast: 0
%%   1020 ns    Log    INFO      in transmitter_1,                Axi Stream Send.  TData: 73727170  TStrb: 1111  TKeep: 1111  TID: 02  TDest: A  TUser: 5  TLast: 0  Operation# 92
%%   1030 ns    Log    PASSED    in receiver_1: Data Check,       Operation# 92  Received.  Data: 73727170  TID: 02  TDest: A  TUser: 5  TLast: 0
%%   1030 ns    Log    INFO      in transmitter_1,                Axi Stream Send.  TData: 77767574  TStrb: 1111  TKeep: 1111  TID: 02  TDest: A  TUser: 5  TLast: 0  Operation# 93
%%   1040 ns    Log    PASSED    in receiver_1: Data Check,       Operation# 93  Received.  Data: 77767574  TID: 02  TDest: A  TUser: 5  TLast: 0
%%   1040 ns    Log    INFO      in transmitter_1,                Axi Stream Send.  TData: 7B7A7978  TStrb: 1111  TKeep: 1111  TID: 02  TDest: A  TUser: 5  TLast: 0  Operation# 94
%%   1050 ns    Log    PASSED    in receiver_1: Data Check,       Operation# 94  Received.  Data: 7B7A7978  TID: 02  TDest: A  TUser: 5  TLast: 0
%%   1050 ns    Log    INFO      in transmitter_1,                Axi Stream Send.  TData: 7F7E7D7C  TStrb: 1111  TKeep: 1111  TID: 02  TDest: A  TUser: 5  TLast: 0  Operation# 95
%%   1060 ns    Log    PASSED    in receiver_1: Data Check,       Operation# 95  Received.  Data: 7F7E7D7C  TID: 02  TDest: A  TUser: 5  TLast: 0
%%   1060 ns    Log    INFO      in transmitter_1,                Axi Stream Send.  TData: 83828180  TStrb: 1111  TKeep: 1111  TID: 02  TDest: A  TUser: 5  TLast: 0  Operation# 96
%%   1070 ns    Log    PASSED    in receiver_1: Data Check,       Operation# 96  Received.  Data: 83828180  TID: 02  TDest: A  TUser: 5  TLast: 0
%%   1070 ns    Log    INFO      in transmitter_1,                Axi Stream Send.  TData: 87868584  TStrb: 1111  TKeep: 1111  TID: 03  TDest: 9  TUser: 6  TLast: 0  Operation# 97
%%   1080 ns    Log    PASSED    in receiver_1: Data Check,       Operation# 97  Received.  Data: 87868584  TID: 03  TDest: 9  TUser: 6  TLast: 0
%%   1080 ns    Log    INFO      in transmitter_1,                Axi Stream Send.  TData: 8B8A8988  TStrb: 1111  TKeep: 1111  TID: 03  TDest: 9  TUser: 6  TLast: 0  Operation# 98
%%   1090 ns    Log    PASSED    in receiver_1: Data Check,       Operation# 98  Received.  Data: 8B8A8988  TID: 03  TDest: 9  TUser: 6  TLast: 0
%%   1090 ns    Log    INFO      in transmitter_1,                Axi Stream Send.  TData: 8F8E8D8C  TStrb: 1111  TKeep: 1111  TID: 03  TDest: 9  TUser: 6  TLast: 0  Operation# 99
%%   1100 ns    Log    PASSED    in receiver_1: Data Check,       Operation# 99  Received.  Data: 8F8E8D8C  TID: 03  TDest: 9  TUser: 6  TLast: 0
%%   1100 ns    Log    INFO      in transmitter_1,                Axi Stream Send.  TData: 93929190  TStrb: 1111  TKeep: 1111  TID: 03  TDest: 9  TUser: 6  TLast: 0  Operation# 100
%%   1110 ns    Log    PASSED    in receiver_1: Data Check,       Operation# 100  Received.  Data: 93929190  TID: 03  TDest: 9  TUser: 6  TLast: 0
%%   1110 ns    Log    INFO      in transmitter_1,                Axi Stream Send.  TData: 97969594  TStrb: 1111  TKeep: 1111  TID: 03  TDest: 9  TUser: 6  TLast: 0  Operation# 101
%%   1120 ns    Log    PASSED    in receiver_1: Data Check,       Operation# 101  Received.  Data: 97969594  TID: 03  TDest: 9  TUser: 6  TLast: 0
%%   1120 ns    Log    INFO      in transmitter_1,                Axi Stream Send.  TData: 9B9A9998  TStrb: 1111  TKeep: 1111  TID: 03  TDest: 9  TUser: 6  TLast: 0  Operation# 102
%%   1130 ns    Log    PASSED    in receiver_1: Data Check,       Operation# 102  Received.  Data: 9B9A9998  TID: 03  TDest: 9  TUser: 6  TLast: 0
%%   1130 ns    Log    INFO      in transmitter_1,                Axi Stream Send.  TData: 9F9E9D9C  TStrb: 1111  TKeep: 1111  TID: 03  TDest: 9  TUser: 6  TLast: 0  Operation# 103
%%   1140 ns    Log    PASSED    in receiver_1: Data Check,       Operation# 103  Received.  Data: 9F9E9D9C  TID: 03  TDest: 9  TUser: 6  TLast: 0
%%   1140 ns    Log    INFO      in transmitter_1,                Axi Stream Send.  TData: A3A2A1A0  TStrb: 1111  TKeep: 1111  TID: 03  TDest: 9  TUser: 6  TLast: 0  Operation# 104
%%   1150 ns    Log    PASSED    in receiver_1: Data Check,       Operation# 104  Received.  Data: A3A2A1A0  TID: 03  TDest: 9  TUser: 6  TLast: 0
%%   1150 ns    Log    INFO      in transmitter_1,                Axi Stream Send.  TData: A7A6A5A4  TStrb: 1111  TKeep: 1111  TID: 03  TDest: 9  TUser: 6  TLast: 0  Operation# 105
%%   1160 ns    Log    PASSED    in receiver_1: Data Check,       Operation# 105  Received.  Data: A7A6A5A4  TID: 03  TDest: 9  TUser: 6  TLast: 0
%%   1160 ns    Log    INFO      in transmitter_1,                Axi Stream Send.  TData: ABAAA9A8  TStrb: 1111  TKeep: 1111  TID: 03  TDest: 9  TUser: 6  TLast: 0  Operation# 106
%%   1170 ns    Log    PASSED    in receiver_1: Data Check,       Operation# 106  Received.  Data: ABAAA9A8  TID: 03  TDest: 9  TUser: 6  TLast: 0
%%   1170 ns    Log    INFO      in transmitter_1,                Axi Stream Send.  TData: AFAEADAC  TStrb: 1111  TKeep: 1111  TID: 03  TDest: 9  TUser: 6  TLast: 0  Operation# 107
%%   1180 ns    Log    PASSED    in receiver_1: Data Check,       Operation# 107  Received.  Data: AFAEADAC  TID: 03  TDest: 9  TUser: 6  TLast: 0
%%   1180 ns    Log    INFO      in transmitter_1,                Axi Stream Send.  TData: B3B2B1B0  TStrb: 1111  TKeep: 1111  TID: 03  TDest: 9  TUser: 6  TLast: 0  Operation# 108
%%   1190 ns    Log    PASSED    in receiver_1: Data Check,       Operation# 108  Received.  Data: B3B2B1B0  TID: 03  TDest: 9  TUser: 6  TLast: 0
%%   1190 ns    Log    INFO      in transmitter_1,                Axi Stream Send.  TData: B7B6B5B4  TStrb: 1111  TKeep: 1111  TID: 03  TDest: 9  TUser: 6  TLast: 0  Operation# 109
%%   1200 ns    Log    PASSED    in receiver_1: Data Check,       Operation# 109  Received.  Data: B7B6B5B4  TID: 03  TDest: 9  TUser: 6  TLast: 0
%%   1200 ns    Log    INFO      in transmitter_1,                Axi Stream Send.  TData: BBBAB9B8  TStrb: 1111  TKeep: 1111  TID: 03  TDest: 9  TUser: 6  TLast: 0  Operation# 110
%%   1210 ns    Log    PASSED    in receiver_1: Data Check,       Operation# 110  Received.  Data: BBBAB9B8  TID: 03  TDest: 9  TUser: 6  TLast: 0
%%   1210 ns    Log    INFO      in transmitter_1,                Axi Stream Send.  TData: BFBEBDBC  TStrb: 1111  TKeep: 1111  TID: 03  TDest: 9  TUser: 6  TLast: 0  Operation# 111
%%   1220 ns    Log    PASSED    in receiver_1: Data Check,       Operation# 111  Received.  Data: BFBEBDBC  TID: 03  TDest: 9  TUser: 6  TLast: 0
%%   1220 ns    Log    INFO      in transmitter_1,                Axi Stream Send.  TData: C3C2C1C0  TStrb: 1111  TKeep: 1111  TID: 03  TDest: 9  TUser: 6  TLast: 0  Operation# 112
%%   1230 ns    Log    PASSED    in receiver_1: Data Check,       Operation# 112  Received.  Data: C3C2C1C0  TID: 03  TDest: 9  TUser: 6  TLast: 0
%%   1230 ns    Log    INFO      in transmitter_1,                Axi Stream Send.  TData: C7C6C5C4  TStrb: 1111  TKeep: 1111  TID: 03  TDest: 8  TUser: 7  TLast: 0  Operation# 113
%%   1240 ns    Log    PASSED    in receiver_1: Data Check,       Operation# 113  Received.  Data: C7C6C5C4  TID: 03  TDest: 8  TUser: 7  TLast: 0
%%   1240 ns    Log    INFO      in transmitter_1,                Axi Stream Send.  TData: CBCAC9C8  TStrb: 1111  TKeep: 1111  TID: 03  TDest: 8  TUser: 7  TLast: 0  Operation# 114
%%   1250 ns    Log    PASSED    in receiver_1: Data Check,       Operation# 114  Received.  Data: CBCAC9C8  TID: 03  TDest: 8  TUser: 7  TLast: 0
%%   1250 ns    Log    INFO      in transmitter_1,                Axi Stream Send.  TData: CFCECDCC  TStrb: 1111  TKeep: 1111  TID: 03  TDest: 8  TUser: 7  TLast: 0  Operation# 115
%%   1260 ns    Log    PASSED    in receiver_1: Data Check,       Operation# 115  Received.  Data: CFCECDCC  TID: 03  TDest: 8  TUser: 7  TLast: 0
%%   1260 ns    Log    INFO      in transmitter_1,                Axi Stream Send.  TData: D3D2D1D0  TStrb: 1111  TKeep: 1111  TID: 03  TDest: 8  TUser: 7  TLast: 0  Operation# 116
%%   1270 ns    Log    PASSED    in receiver_1: Data Check,       Operation# 116  Received.  Data: D3D2D1D0  TID: 03  TDest: 8  TUser: 7  TLast: 0
%%   1270 ns    Log    INFO      in transmitter_1,                Axi Stream Send.  TData: D7D6D5D4  TStrb: 1111  TKeep: 1111  TID: 03  TDest: 8  TUser: 7  TLast: 0  Operation# 117
%%   1280 ns    Log    PASSED    in receiver_1: Data Check,       Operation# 117  Received.  Data: D7D6D5D4  TID: 03  TDest: 8  TUser: 7  TLast: 0
%%   1280 ns    Log    INFO      in transmitter_1,                Axi Stream Send.  TData: DBDAD9D8  TStrb: 1111  TKeep: 1111  TID: 03  TDest: 8  TUser: 7  TLast: 0  Operation# 118
%%   1290 ns    Log    PASSED    in receiver_1: Data Check,       Operation# 118  Received.  Data: DBDAD9D8  TID: 03  TDest: 8  TUser: 7  TLast: 0
%%   1290 ns    Log    INFO      in transmitter_1,                Axi Stream Send.  TData: DFDEDDDC  TStrb: 1111  TKeep: 1111  TID: 03  TDest: 8  TUser: 7  TLast: 0  Operation# 119
%%   1300 ns    Log    PASSED    in receiver_1: Data Check,       Operation# 119  Received.  Data: DFDEDDDC  TID: 03  TDest: 8  TUser: 7  TLast: 0
%%   1300 ns    Log    INFO      in transmitter_1,                Axi Stream Send.  TData: E3E2E1E0  TStrb: 1111  TKeep: 1111  TID: 03  TDest: 8  TUser: 7  TLast: 0  Operation# 120
%%   1310 ns    Log    PASSED    in receiver_1: Data Check,       Operation# 120  Received.  Data: E3E2E1E0  TID: 03  TDest: 8  TUser: 7  TLast: 0
%%   1310 ns    Log    INFO      in transmitter_1,                Axi Stream Send.  TData: E7E6E5E4  TStrb: 1111  TKeep: 1111  TID: 03  TDest: 8  TUser: 7  TLast: 0  Operation# 121
%%   1320 ns    Log    PASSED    in receiver_1: Data Check,       Operation# 121  Received.  Data: E7E6E5E4  TID: 03  TDest: 8  TUser: 7  TLast: 0
%%   1320 ns    Log    INFO      in transmitter_1,                Axi Stream Send.  TData: EBEAE9E8  TStrb: 1111  TKeep: 1111  TID: 03  TDest: 8  TUser: 7  TLast: 0  Operation# 122
%%   1330 ns    Log    PASSED    in receiver_1: Data Check,       Operation# 122  Received.  Data: EBEAE9E8  TID: 03  TDest: 8  TUser: 7  TLast: 0
%%   1330 ns    Log    INFO      in transmitter_1,                Axi Stream Send.  TData: EFEEEDEC  TStrb: 1111  TKeep: 1111  TID: 03  TDest: 8  TUser: 7  TLast: 0  Operation# 123
%%   1340 ns    Log    PASSED    in receiver_1: Data Check,       Operation# 123  Received.  Data: EFEEEDEC  TID: 03  TDest: 8  TUser: 7  TLast: 0
%%   1340 ns    Log    INFO      in transmitter_1,                Axi Stream Send.  TData: F3F2F1F0  TStrb: 1111  TKeep: 1111  TID: 03  TDest: 8  TUser: 7  TLast: 0  Operation# 124
%%   1350 ns    Log    PASSED    in receiver_1: Data Check,       Operation# 124  Received.  Data: F3F2F1F0  TID: 03  TDest: 8  TUser: 7  TLast: 0
%%   1350 ns    Log    INFO      in transmitter_1,                Axi Stream Send.  TData: F7F6F5F4  TStrb: 1111  TKeep: 1111  TID: 03  TDest: 8  TUser: 7  TLast: 0  Operation# 125
%%   1360 ns    Log    PASSED    in receiver_1: Data Check,       Operation# 125  Received.  Data: F7F6F5F4  TID: 03  TDest: 8  TUser: 7  TLast: 0
%%   1360 ns    Log    INFO      in transmitter_1,                Axi Stream Send.  TData: FBFAF9F8  TStrb: 1111  TKeep: 1111  TID: 03  TDest: 8  TUser: 7  TLast: 0  Operation# 126
%%   1370 ns    Log    PASSED    in receiver_1: Data Check,       Operation# 126  Received.  Data: FBFAF9F8  TID: 03  TDest: 8  TUser: 7  TLast: 0
%%   1370 ns    Log    INFO      in transmitter_1,                Axi Stream Send.  TData: FFFEFDFC  TStrb: 1111  TKeep: 1111  TID: 03  TDest: 8  TUser: 7  TLast: 0  Operation# 127
%%   1380 ns    Log    PASSED    in receiver_1: Data Check,       Operation# 127  Received.  Data: FFFEFDFC  TID: 03  TDest: 8  TUser: 7  TLast: 0
%%   1380 ns    Log    INFO      in transmitter_1,                Axi Stream Send.  TData: 03020100  TStrb: 1111  TKeep: 1111  TID: 03  TDest: 8  TUser: 7  TLast: 0  Operation# 128
%%   1390 ns    Log    PASSED    in receiver_1: Data Check,       Operation# 128  Received.  Data: 03020100  TID: 03  TDest: 8  TUser: 7  TLast: 0
%%   1390 ns    Log    INFO      in transmitter_1,                Axi Stream Send.  TData: 07060504  TStrb: 1111  TKeep: 1111  TID: 04  TDest: 7  TUser: 8  TLast: 0  Operation# 129
%%   1400 ns    Log    PASSED    in receiver_1: Data Check,       Operation# 129  Received.  Data: 07060504  TID: 04  TDest: 7  TUser: 8  TLast: 0
%%   1400 ns    Log    INFO      in transmitter_1,                Axi Stream Send.  TData: 0B0A0908  TStrb: 1111  TKeep: 1111  TID: 04  TDest: 7  TUser: 8  TLast: 0  Operation# 130
%%   1410 ns    Log    PASSED    in receiver_1: Data Check,       Operation# 130  Received.  Data: 0B0A0908  TID: 04  TDest: 7  TUser: 8  TLast: 0
%%   1410 ns    Log    INFO      in transmitter_1,                Axi Stream Send.  TData: 0F0E0D0C  TStrb: 1111  TKeep: 1111  TID: 04  TDest: 7  TUser: 8  TLast: 0  Operation# 131
%%   1420 ns    Log    PASSED    in receiver_1: Data Check,       Operation# 131  Received.  Data: 0F0E0D0C  TID: 04  TDest: 7  TUser: 8  TLast: 0
%%   1420 ns    Log    INFO      in transmitter_1,                Axi Stream Send.  TData: 13121110  TStrb: 1111  TKeep: 1111  TID: 04  TDest: 7  TUser: 8  TLast: 0  Operation# 132
%%   1430 ns    Log    PASSED    in receiver_1: Data Check,       Operation# 132  Received.  Data: 13121110  TID: 04  TDest: 7  TUser: 8  TLast: 0
%%   1430 ns    Log    INFO      in transmitter_1,                Axi Stream Send.  TData: 17161514  TStrb: 1111  TKeep: 1111  TID: 04  TDest: 7  TUser: 8  TLast: 0  Operation# 133
%%   1440 ns    Log    PASSED    in receiver_1: Data Check,       Operation# 133  Received.  Data: 17161514  TID: 04  TDest: 7  TUser: 8  TLast: 0
%%   1440 ns    Log    INFO      in transmitter_1,                Axi Stream Send.  TData: 1B1A1918  TStrb: 1111  TKeep: 1111  TID: 04  TDest: 7  TUser: 8  TLast: 0  Operation# 134
%%   1450 ns    Log    PASSED    in receiver_1: Data Check,       Operation# 134  Received.  Data: 1B1A1918  TID: 04  TDest: 7  TUser: 8  TLast: 0
%%   1450 ns    Log    INFO      in transmitter_1,                Axi Stream Send.  TData: 1F1E1D1C  TStrb: 1111  TKeep: 1111  TID: 04  TDest: 7  TUser: 8  TLast: 0  Operation# 135
%%   1460 ns    Log    PASSED    in receiver_1: Data Check,       Operation# 135  Received.  Data: 1F1E1D1C  TID: 04  TDest: 7  TUser: 8  TLast: 0
%%   1460 ns    Log    INFO      in transmitter_1,                Axi Stream Send.  TData: 23222120  TStrb: 1111  TKeep: 1111  TID: 04  TDest: 7  TUser: 8  TLast: 0  Operation# 136
%%   1470 ns    Log    PASSED    in receiver_1: Data Check,       Operation# 136  Received.  Data: 23222120  TID: 04  TDest: 7  TUser: 8  TLast: 0
%%   1470 ns    Log    INFO      in transmitter_1,                Axi Stream Send.  TData: 27262524  TStrb: 1111  TKeep: 1111  TID: 04  TDest: 7  TUser: 8  TLast: 0  Operation# 137
%%   1480 ns    Log    PASSED    in receiver_1: Data Check,       Operation# 137  Received.  Data: 27262524  TID: 04  TDest: 7  TUser: 8  TLast: 0
%%   1480 ns    Log    INFO      in transmitter_1,                Axi Stream Send.  TData: 2B2A2928  TStrb: 1111  TKeep: 1111  TID: 04  TDest: 7  TUser: 8  TLast: 0  Operation# 138
%%   1490 ns    Log    PASSED    in receiver_1: Data Check,       Operation# 138  Received.  Data: 2B2A2928  TID: 04  TDest: 7  TUser: 8  TLast: 0
%%   1490 ns    Log    INFO      in transmitter_1,                Axi Stream Send.  TData: 2F2E2D2C  TStrb: 1111  TKeep: 1111  TID: 04  TDest: 7  TUser: 8  TLast: 0  Operation# 139
%%   1500 ns    Log    PASSED    in receiver_1: Data Check,       Operation# 139  Received.  Data: 2F2E2D2C  TID: 04  TDest: 7  TUser: 8  TLast: 0
%%   1500 ns    Log    INFO      in transmitter_1,                Axi Stream Send.  TData: 33323130  TStrb: 1111  TKeep: 1111  TID: 04  TDest: 7  TUser: 8  TLast: 0  Operation# 140
%%   1510 ns    Log    PASSED    in receiver_1: Data Check,       Operation# 140  Received.  Data: 33323130  TID: 04  TDest: 7  TUser: 8  TLast: 0
%%   1510 ns    Log    INFO      in transmitter_1,                Axi Stream Send.  TData: 37363534  TStrb: 1111  TKeep: 1111  TID: 04  TDest: 7  TUser: 8  TLast: 0  Operation# 141
%%   1520 ns    Log    PASSED    in receiver_1: Data Check,       Operation# 141  Received.  Data: 37363534  TID: 04  TDest: 7  TUser: 8  TLast: 0
%%   1520 ns    Log    INFO      in transmitter_1,                Axi Stream Send.  TData: 3B3A3938  TStrb: 1111  TKeep: 1111  TID: 04  TDest: 7  TUser: 8  TLast: 0  Operation# 142
%%   1530 ns    Log    PASSED    in receiver_1: Data Check,       Operation# 142  Received.  Data: 3B3A3938  TID: 04  TDest: 7  TUser: 8  TLast: 0
%%   1530 ns    Log    INFO      in transmitter_1,                Axi Stream Send.  TData: 3F3E3D3C  TStrb: 1111  TKeep: 1111  TID: 04  TDest: 7  TUser: 8  TLast: 0  Operation# 143
%%   1540 ns    Log    PASSED    in receiver_1: Data Check,       Operation# 143  Received.  Data: 3F3E3D3C  TID: 04  TDest: 7  TUser: 8  TLast: 0
%%   1540 ns    Log    INFO      in transmitter_1,                Axi Stream Send.  TData: 43424140  TStrb: 1111  TKeep: 1111  TID: 04  TDest: 7  TUser: 8  TLast: 0  Operation# 144
%%   1550 ns    Log    PASSED    in receiver_1: Data Check,       Operation# 144  Received.  Data: 43424140  TID: 04  TDest: 7  TUser: 8  TLast: 0
%%   1550 ns    Log    INFO      in transmitter_1,                Axi Stream Send.  TData: 47464544  TStrb: 1111  TKeep: 1111  TID: 04  TDest: 6  TUser: 9  TLast: 0  Operation# 145
%%   1560 ns    Log    PASSED    in receiver_1: Data Check,       Operation# 145  Received.  Data: 47464544  TID: 04  TDest: 6  TUser: 9  TLast: 0
%%   1560 ns    Log    INFO      in transmitter_1,                Axi Stream Send.  TData: 4B4A4948  TStrb: 1111  TKeep: 1111  TID: 04  TDest: 6  TUser: 9  TLast: 0  Operation# 146
%%   1570 ns    Log    PASSED    in receiver_1: Data Check,       Operation# 146  Received.  Data: 4B4A4948  TID: 04  TDest: 6  TUser: 9  TLast: 0
%%   1570 ns    Log    INFO      in transmitter_1,                Axi Stream Send.  TData: 4F4E4D4C  TStrb: 1111  TKeep: 1111  TID: 04  TDest: 6  TUser: 9  TLast: 0  Operation# 147
%%   1580 ns    Log    PASSED    in receiver_1: Data Check,       Operation# 147  Received.  Data: 4F4E4D4C  TID: 04  TDest: 6  TUser: 9  TLast: 0
%%   1580 ns    Log    INFO      in transmitter_1,                Axi Stream Send.  TData: 53525150  TStrb: 1111  TKeep: 1111  TID: 04  TDest: 6  TUser: 9  TLast: 0  Operation# 148
%%   1590 ns    Log    PASSED    in receiver_1: Data Check,       Operation# 148  Received.  Data: 53525150  TID: 04  TDest: 6  TUser: 9  TLast: 0
%%   1590 ns    Log    INFO      in transmitter_1,                Axi Stream Send.  TData: 57565554  TStrb: 1111  TKeep: 1111  TID: 04  TDest: 6  TUser: 9  TLast: 0  Operation# 149
%%   1600 ns    Log    PASSED    in receiver_1: Data Check,       Operation# 149  Received.  Data: 57565554  TID: 04  TDest: 6  TUser: 9  TLast: 0
%%   1600 ns    Log    INFO      in transmitter_1,                Axi Stream Send.  TData: 5B5A5958  TStrb: 1111  TKeep: 1111  TID: 04  TDest: 6  TUser: 9  TLast: 0  Operation# 150
%%   1610 ns    Log    PASSED    in receiver_1: Data Check,       Operation# 150  Received.  Data: 5B5A5958  TID: 04  TDest: 6  TUser: 9  TLast: 0
%%   1610 ns    Log    INFO      in transmitter_1,                Axi Stream Send.  TData: 5F5E5D5C  TStrb: 1111  TKeep: 1111  TID: 04  TDest: 6  TUser: 9  TLast: 0  Operation# 151
%%   1620 ns    Log    PASSED    in receiver_1: Data Check,       Operation# 151  Received.  Data: 5F5E5D5C  TID: 04  TDest: 6  TUser: 9  TLast: 0
%%   1620 ns    Log    INFO      in transmitter_1,                Axi Stream Send.  TData: 63626160  TStrb: 1111  TKeep: 1111  TID: 04  TDest: 6  TUser: 9  TLast: 0  Operation# 152
%%   1630 ns    Log    PASSED    in receiver_1: Data Check,       Operation# 152  Received.  Data: 63626160  TID: 04  TDest: 6  TUser: 9  TLast: 0
%%   1630 ns    Log    INFO      in transmitter_1,                Axi Stream Send.  TData: 67666564  TStrb: 1111  TKeep: 1111  TID: 04  TDest: 6  TUser: 9  TLast: 0  Operation# 153
%%   1640 ns    Log    PASSED    in receiver_1: Data Check,       Operation# 153  Received.  Data: 67666564  TID: 04  TDest: 6  TUser: 9  TLast: 0
%%   1640 ns    Log    INFO      in transmitter_1,                Axi Stream Send.  TData: 6B6A6968  TStrb: 1111  TKeep: 1111  TID: 04  TDest: 6  TUser: 9  TLast: 0  Operation# 154
%%   1650 ns    Log    PASSED    in receiver_1: Data Check,       Operation# 154  Received.  Data: 6B6A6968  TID: 04  TDest: 6  TUser: 9  TLast: 0
%%   1650 ns    Log    INFO      in transmitter_1,                Axi Stream Send.  TData: 6F6E6D6C  TStrb: 1111  TKeep: 1111  TID: 04  TDest: 6  TUser: 9  TLast: 0  Operation# 155
%%   1660 ns    Log    PASSED    in receiver_1: Data Check,       Operation# 155  Received.  Data: 6F6E6D6C  TID: 04  TDest: 6  TUser: 9  TLast: 0
%%   1660 ns    Log    INFO      in transmitter_1,                Axi Stream Send.  TData: 73727170  TStrb: 1111  TKeep: 1111  TID: 04  TDest: 6  TUser: 9  TLast: 0  Operation# 156
%%   1670 ns    Log    PASSED    in receiver_1: Data Check,       Operation# 156  Received.  Data: 73727170  TID: 04  TDest: 6  TUser: 9  TLast: 0
%%   1670 ns    Log    INFO      in transmitter_1,                Axi Stream Send.  TData: 77767574  TStrb: 1111  TKeep: 1111  TID: 04  TDest: 6  TUser: 9  TLast: 0  Operation# 157
%%   1680 ns    Log    PASSED    in receiver_1: Data Check,       Operation# 157  Received.  Data: 77767574  TID: 04  TDest: 6  TUser: 9  TLast: 0
%%   1680 ns    Log    INFO      in transmitter_1,                Axi Stream Send.  TData: 7B7A7978  TStrb: 1111  TKeep: 1111  TID: 04  TDest: 6  TUser: 9  TLast: 0  Operation# 158
%%   1690 ns    Log    PASSED    in receiver_1: Data Check,       Operation# 158  Received.  Data: 7B7A7978  TID: 04  TDest: 6  TUser: 9  TLast: 0
%%   1690 ns    Log    INFO      in transmitter_1,                Axi Stream Send.  TData: 7F7E7D7C  TStrb: 1111  TKeep: 1111  TID: 04  TDest: 6  TUser: 9  TLast: 0  Operation# 159
%%   1700 ns    Log    PASSED    in receiver_1: Data Check,       Operation# 159  Received.  Data: 7F7E7D7C  TID: 04  TDest: 6  TUser: 9  TLast: 0
%%   1700 ns    Log    INFO      in transmitter_1,                Axi Stream Send.  TData: 83828180  TStrb: 1111  TKeep: 1111  TID: 04  TDest: 6  TUser: 9  TLast: 0  Operation# 160
%%   1710 ns    Log    PASSED    in receiver_1: Data Check,       Operation# 160  Received.  Data: 83828180  TID: 04  TDest: 6  TUser: 9  TLast: 0
%%   1710 ns    Log    INFO      in transmitter_1,                Axi Stream Send.  TData: 87868584  TStrb: 1111  TKeep: 1111  TID: 05  TDest: 5  TUser: A  TLast: 0  Operation# 161
%%   1720 ns    Log    PASSED    in receiver_1: Data Check,       Operation# 161  Received.  Data: 87868584  TID: 05  TDest: 5  TUser: A  TLast: 0
%%   1720 ns    Log    INFO      in transmitter_1,                Axi Stream Send.  TData: 8B8A8988  TStrb: 1111  TKeep: 1111  TID: 05  TDest: 5  TUser: A  TLast: 0  Operation# 162
%%   1730 ns    Log    PASSED    in receiver_1: Data Check,       Operation# 162  Received.  Data: 8B8A8988  TID: 05  TDest: 5  TUser: A  TLast: 0
%%   1730 ns    Log    INFO      in transmitter_1,                Axi Stream Send.  TData: 8F8E8D8C  TStrb: 1111  TKeep: 1111  TID: 05  TDest: 5  TUser: A  TLast: 0  Operation# 163
%%   1740 ns    Log    PASSED    in receiver_1: Data Check,       Operation# 163  Received.  Data: 8F8E8D8C  TID: 05  TDest: 5  TUser: A  TLast: 0
%%   1740 ns    Log    INFO      in transmitter_1,                Axi Stream Send.  TData: 93929190  TStrb: 1111  TKeep: 1111  TID: 05  TDest: 5  TUser: A  TLast: 0  Operation# 164
%%   1750 ns    Log    PASSED    in receiver_1: Data Check,       Operation# 164  Received.  Data: 93929190  TID: 05  TDest: 5  TUser: A  TLast: 0
%%   1750 ns    Log    INFO      in transmitter_1,                Axi Stream Send.  TData: 97969594  TStrb: 1111  TKeep: 1111  TID: 05  TDest: 5  TUser: A  TLast: 0  Operation# 165
%%   1760 ns    Log    PASSED    in receiver_1: Data Check,       Operation# 165  Received.  Data: 97969594  TID: 05  TDest: 5  TUser: A  TLast: 0
%%   1760 ns    Log    INFO      in transmitter_1,                Axi Stream Send.  TData: 9B9A9998  TStrb: 1111  TKeep: 1111  TID: 05  TDest: 5  TUser: A  TLast: 0  Operation# 166
%%   1770 ns    Log    PASSED    in receiver_1: Data Check,       Operation# 166  Received.  Data: 9B9A9998  TID: 05  TDest: 5  TUser: A  TLast: 0
%%   1770 ns    Log    INFO      in transmitter_1,                Axi Stream Send.  TData: 9F9E9D9C  TStrb: 1111  TKeep: 1111  TID: 05  TDest: 5  TUser: A  TLast: 0  Operation# 167
%%   1780 ns    Log    PASSED    in receiver_1: Data Check,       Operation# 167  Received.  Data: 9F9E9D9C  TID: 05  TDest: 5  TUser: A  TLast: 0
%%   1780 ns    Log    INFO      in transmitter_1,                Axi Stream Send.  TData: A3A2A1A0  TStrb: 1111  TKeep: 1111  TID: 05  TDest: 5  TUser: A  TLast: 0  Operation# 168
%%   1790 ns    Log    PASSED    in receiver_1: Data Check,       Operation# 168  Received.  Data: A3A2A1A0  TID: 05  TDest: 5  TUser: A  TLast: 0
%%   1790 ns    Log    INFO      in transmitter_1,                Axi Stream Send.  TData: A7A6A5A4  TStrb: 1111  TKeep: 1111  TID: 05  TDest: 5  TUser: A  TLast: 0  Operation# 169
%%   1800 ns    Log    PASSED    in receiver_1: Data Check,       Operation# 169  Received.  Data: A7A6A5A4  TID: 05  TDest: 5  TUser: A  TLast: 0
%%   1800 ns    Log    INFO      in transmitter_1,                Axi Stream Send.  TData: ABAAA9A8  TStrb: 1111  TKeep: 1111  TID: 05  TDest: 5  TUser: A  TLast: 0  Operation# 170
%%   1810 ns    Log    PASSED    in receiver_1: Data Check,       Operation# 170  Received.  Data: ABAAA9A8  TID: 05  TDest: 5  TUser: A  TLast: 0
%%   1810 ns    Log    INFO      in transmitter_1,                Axi Stream Send.  TData: AFAEADAC  TStrb: 1111  TKeep: 1111  TID: 05  TDest: 5  TUser: A  TLast: 0  Operation# 171
%%   1820 ns    Log    PASSED    in receiver_1: Data Check,       Operation# 171  Received.  Data: AFAEADAC  TID: 05  TDest: 5  TUser: A  TLast: 0
%%   1820 ns    Log    INFO      in transmitter_1,                Axi Stream Send.  TData: B3B2B1B0  TStrb: 1111  TKeep: 1111  TID: 05  TDest: 5  TUser: A  TLast: 0  Operation# 172
%%   1830 ns    Log    PASSED    in receiver_1: Data Check,       Operation# 172  Received.  Data: B3B2B1B0  TID: 05  TDest: 5  TUser: A  TLast: 0
%%   1830 ns    Log    INFO      in transmitter_1,                Axi Stream Send.  TData: B7B6B5B4  TStrb: 1111  TKeep: 1111  TID: 05  TDest: 5  TUser: A  TLast: 0  Operation# 173
%%   1840 ns    Log    PASSED    in receiver_1: Data Check,       Operation# 173  Received.  Data: B7B6B5B4  TID: 05  TDest: 5  TUser: A  TLast: 0
%%   1840 ns    Log    INFO      in transmitter_1,                Axi Stream Send.  TData: BBBAB9B8  TStrb: 1111  TKeep: 1111  TID: 05  TDest: 5  TUser: A  TLast: 0  Operation# 174
%%   1850 ns    Log    PASSED    in receiver_1: Data Check,       Operation# 174  Received.  Data: BBBAB9B8  TID: 05  TDest: 5  TUser: A  TLast: 0
%%   1850 ns    Log    INFO      in transmitter_1,                Axi Stream Send.  TData: BFBEBDBC  TStrb: 1111  TKeep: 1111  TID: 05  TDest: 5  TUser: A  TLast: 0  Operation# 175
%%   1860 ns    Log    PASSED    in receiver_1: Data Check,       Operation# 175  Received.  Data: BFBEBDBC  TID: 05  TDest: 5  TUser: A  TLast: 0
%%   1860 ns    Log    INFO      in transmitter_1,                Axi Stream Send.  TData: C3C2C1C0  TStrb: 1111  TKeep: 1111  TID: 05  TDest: 5  TUser: A  TLast: 0  Operation# 176
%%   1870 ns    Log    PASSED    in receiver_1: Data Check,       Operation# 176  Received.  Data: C3C2C1C0  TID: 05  TDest: 5  TUser: A  TLast: 0
%%   1870 ns    Log    INFO      in transmitter_1,                Axi Stream Send.  TData: C7C6C5C4  TStrb: 1111  TKeep: 1111  TID: 05  TDest: 4  TUser: B  TLast: 0  Operation# 177
%%   1880 ns    Log    PASSED    in receiver_1: Data Check,       Operation# 177  Received.  Data: C7C6C5C4  TID: 05  TDest: 4  TUser: B  TLast: 0
%%   1880 ns    Log    INFO      in transmitter_1,                Axi Stream Send.  TData: CBCAC9C8  TStrb: 1111  TKeep: 1111  TID: 05  TDest: 4  TUser: B  TLast: 0  Operation# 178
%%   1890 ns    Log    PASSED    in receiver_1: Data Check,       Operation# 178  Received.  Data: CBCAC9C8  TID: 05  TDest: 4  TUser: B  TLast: 0
%%   1890 ns    Log    INFO      in transmitter_1,                Axi Stream Send.  TData: CFCECDCC  TStrb: 1111  TKeep: 1111  TID: 05  TDest: 4  TUser: B  TLast: 0  Operation# 179
%%   1900 ns    Log    PASSED    in receiver_1: Data Check,       Operation# 179  Received.  Data: CFCECDCC  TID: 05  TDest: 4  TUser: B  TLast: 0
%%   1900 ns    Log    INFO      in transmitter_1,                Axi Stream Send.  TData: D3D2D1D0  TStrb: 1111  TKeep: 1111  TID: 05  TDest: 4  TUser: B  TLast: 0  Operation# 180
%%   1910 ns    Log    PASSED    in receiver_1: Data Check,       Operation# 180  Received.  Data: D3D2D1D0  TID: 05  TDest: 4  TUser: B  TLast: 0
%%   1910 ns    Log    INFO      in transmitter_1,                Axi Stream Send.  TData: D7D6D5D4  TStrb: 1111  TKeep: 1111  TID: 05  TDest: 4  TUser: B  TLast: 0  Operation# 181
%%   1920 ns    Log    PASSED    in receiver_1: Data Check,       Operation# 181  Received.  Data: D7D6D5D4  TID: 05  TDest: 4  TUser: B  TLast: 0
%%   1920 ns    Log    INFO      in transmitter_1,                Axi Stream Send.  TData: DBDAD9D8  TStrb: 1111  TKeep: 1111  TID: 05  TDest: 4  TUser: B  TLast: 0  Operation# 182
%%   1930 ns    Log    PASSED    in receiver_1: Data Check,       Operation# 182  Received.  Data: DBDAD9D8  TID: 05  TDest: 4  TUser: B  TLast: 0
%%   1930 ns    Log    INFO      in transmitter_1,                Axi Stream Send.  TData: DFDEDDDC  TStrb: 1111  TKeep: 1111  TID: 05  TDest: 4  TUser: B  TLast: 0  Operation# 183
%%   1940 ns    Log    PASSED    in receiver_1: Data Check,       Operation# 183  Received.  Data: DFDEDDDC  TID: 05  TDest: 4  TUser: B  TLast: 0
%%   1940 ns    Log    INFO      in transmitter_1,                Axi Stream Send.  TData: E3E2E1E0  TStrb: 1111  TKeep: 1111  TID: 05  TDest: 4  TUser: B  TLast: 0  Operation# 184
%%   1950 ns    Log    PASSED    in receiver_1: Data Check,       Operation# 184  Received.  Data: E3E2E1E0  TID: 05  TDest: 4  TUser: B  TLast: 0
%%   1950 ns    Log    INFO      in transmitter_1,                Axi Stream Send.  TData: E7E6E5E4  TStrb: 1111  TKeep: 1111  TID: 05  TDest: 4  TUser: B  TLast: 0  Operation# 185
%%   1960 ns    Log    PASSED    in receiver_1: Data Check,       Operation# 185  Received.  Data: E7E6E5E4  TID: 05  TDest: 4  TUser: B  TLast: 0
%%   1960 ns    Log    INFO      in transmitter_1,                Axi Stream Send.  TData: EBEAE9E8  TStrb: 1111  TKeep: 1111  TID: 05  TDest: 4  TUser: B  TLast: 0  Operation# 186
%%   1970 ns    Log    PASSED    in receiver_1: Data Check,       Operation# 186  Received.  Data: EBEAE9E8  TID: 05  TDest: 4  TUser: B  TLast: 0
%%   1970 ns    Log    INFO      in transmitter_1,                Axi Stream Send.  TData: EFEEEDEC  TStrb: 1111  TKeep: 1111  TID: 05  TDest: 4  TUser: B  TLast: 0  Operation# 187
%%   1980 ns    Log    PASSED    in receiver_1: Data Check,       Operation# 187  Received.  Data: EFEEEDEC  TID: 05  TDest: 4  TUser: B  TLast: 0
%%   1980 ns    Log    INFO      in transmitter_1,                Axi Stream Send.  TData: F3F2F1F0  TStrb: 1111  TKeep: 1111  TID: 05  TDest: 4  TUser: B  TLast: 0  Operation# 188
%%   1990 ns    Log    PASSED    in receiver_1: Data Check,       Operation# 188  Received.  Data: F3F2F1F0  TID: 05  TDest: 4  TUser: B  TLast: 0
%%   1990 ns    Log    INFO      in transmitter_1,                Axi Stream Send.  TData: F7F6F5F4  TStrb: 1111  TKeep: 1111  TID: 05  TDest: 4  TUser: B  TLast: 0  Operation# 189
%%   2000 ns    Log    PASSED    in receiver_1: Data Check,       Operation# 189  Received.  Data: F7F6F5F4  TID: 05  TDest: 4  TUser: B  TLast: 0
%%   2000 ns    Log    INFO      in transmitter_1,                Axi Stream Send.  TData: FBFAF9F8  TStrb: 1111  TKeep: 1111  TID: 05  TDest: 4  TUser: B  TLast: 0  Operation# 190
%%   2010 ns    Log    PASSED    in receiver_1: Data Check,       Operation# 190  Received.  Data: FBFAF9F8  TID: 05  TDest: 4  TUser: B  TLast: 0
%%   2010 ns    Log    INFO      in transmitter_1,                Axi Stream Send.  TData: FFFEFDFC  TStrb: 1111  TKeep: 1111  TID: 05  TDest: 4  TUser: B  TLast: 0  Operation# 191
%%   2020 ns    Log    PASSED    in receiver_1: Data Check,       Operation# 191  Received.  Data: FFFEFDFC  TID: 05  TDest: 4  TUser: B  TLast: 0
%%   2020 ns    Log    INFO      in transmitter_1,                Axi Stream Send.  TData: 03020100  TStrb: 1111  TKeep: 1111  TID: 05  TDest: 4  TUser: B  TLast: 0  Operation# 192
%%   2030 ns    Log    PASSED    in receiver_1: Data Check,       Operation# 192  Received.  Data: 03020100  TID: 05  TDest: 4  TUser: B  TLast: 0
%%   2030 ns    Log    INFO      in transmitter_1,                Axi Stream Send.  TData: 07060504  TStrb: 1111  TKeep: 1111  TID: 06  TDest: 3  TUser: C  TLast: 0  Operation# 193
%%   2040 ns    Log    PASSED    in receiver_1: Data Check,       Operation# 193  Received.  Data: 07060504  TID: 06  TDest: 3  TUser: C  TLast: 0
%%   2040 ns    Log    INFO      in transmitter_1,                Axi Stream Send.  TData: 0B0A0908  TStrb: 1111  TKeep: 1111  TID: 06  TDest: 3  TUser: C  TLast: 0  Operation# 194
%%   2050 ns    Log    PASSED    in receiver_1: Data Check,       Operation# 194  Received.  Data: 0B0A0908  TID: 06  TDest: 3  TUser: C  TLast: 0
%%   2050 ns    Log    INFO      in transmitter_1,                Axi Stream Send.  TData: 0F0E0D0C  TStrb: 1111  TKeep: 1111  TID: 06  TDest: 3  TUser: C  TLast: 0  Operation# 195
%%   2060 ns    Log    PASSED    in receiver_1: Data Check,       Operation# 195  Received.  Data: 0F0E0D0C  TID: 06  TDest: 3  TUser: C  TLast: 0
%%   2060 ns    Log    INFO      in transmitter_1,                Axi Stream Send.  TData: 13121110  TStrb: 1111  TKeep: 1111  TID: 06  TDest: 3  TUser: C  TLast: 0  Operation# 196
%%   2070 ns    Log    PASSED    in receiver_1: Data Check,       Operation# 196  Received.  Data: 13121110  TID: 06  TDest: 3  TUser: C  TLast: 0
%%   2070 ns    Log    INFO      in transmitter_1,                Axi Stream Send.  TData: 17161514  TStrb: 1111  TKeep: 1111  TID: 06  TDest: 3  TUser: C  TLast: 0  Operation# 197
%%   2080 ns    Log    PASSED    in receiver_1: Data Check,       Operation# 197  Received.  Data: 17161514  TID: 06  TDest: 3  TUser: C  TLast: 0
%%   2080 ns    Log    INFO      in transmitter_1,                Axi Stream Send.  TData: 1B1A1918  TStrb: 1111  TKeep: 1111  TID: 06  TDest: 3  TUser: C  TLast: 0  Operation# 198
%%   2090 ns    Log    PASSED    in receiver_1: Data Check,       Operation# 198  Received.  Data: 1B1A1918  TID: 06  TDest: 3  TUser: C  TLast: 0
%%   2090 ns    Log    INFO      in transmitter_1,                Axi Stream Send.  TData: 1F1E1D1C  TStrb: 1111  TKeep: 1111  TID: 06  TDest: 3  TUser: C  TLast: 0  Operation# 199
%%   2100 ns    Log    PASSED    in receiver_1: Data Check,       Operation# 199  Received.  Data: 1F1E1D1C  TID: 06  TDest: 3  TUser: C  TLast: 0
%%   2100 ns    Log    INFO      in transmitter_1,                Axi Stream Send.  TData: 23222120  TStrb: 1111  TKeep: 1111  TID: 06  TDest: 3  TUser: C  TLast: 0  Operation# 200
%%   2110 ns    Log    PASSED    in receiver_1: Data Check,       Operation# 200  Received.  Data: 23222120  TID: 06  TDest: 3  TUser: C  TLast: 0
%%   2110 ns    Log    INFO      in transmitter_1,                Axi Stream Send.  TData: 27262524  TStrb: 1111  TKeep: 1111  TID: 06  TDest: 3  TUser: C  TLast: 0  Operation# 201
%%   2120 ns    Log    PASSED    in receiver_1: Data Check,       Operation# 201  Received.  Data: 27262524  TID: 06  TDest: 3  TUser: C  TLast: 0
%%   2120 ns    Log    INFO      in transmitter_1,                Axi Stream Send.  TData: 2B2A2928  TStrb: 1111  TKeep: 1111  TID: 06  TDest: 3  TUser: C  TLast: 0  Operation# 202
%%   2130 ns    Log    PASSED    in receiver_1: Data Check,       Operation# 202  Received.  Data: 2B2A2928  TID: 06  TDest: 3  TUser: C  TLast: 0
%%   2130 ns    Log    INFO      in transmitter_1,                Axi Stream Send.  TData: 2F2E2D2C  TStrb: 1111  TKeep: 1111  TID: 06  TDest: 3  TUser: C  TLast: 0  Operation# 203
%%   2140 ns    Log    PASSED    in receiver_1: Data Check,       Operation# 203  Received.  Data: 2F2E2D2C  TID: 06  TDest: 3  TUser: C  TLast: 0
%%   2140 ns    Log    INFO      in transmitter_1,                Axi Stream Send.  TData: 33323130  TStrb: 1111  TKeep: 1111  TID: 06  TDest: 3  TUser: C  TLast: 0  Operation# 204
%%   2150 ns    Log    PASSED    in receiver_1: Data Check,       Operation# 204  Received.  Data: 33323130  TID: 06  TDest: 3  TUser: C  TLast: 0
%%   2150 ns    Log    INFO      in transmitter_1,                Axi Stream Send.  TData: 37363534  TStrb: 1111  TKeep: 1111  TID: 06  TDest: 3  TUser: C  TLast: 0  Operation# 205
%%   2160 ns    Log    PASSED    in receiver_1: Data Check,       Operation# 205  Received.  Data: 37363534  TID: 06  TDest: 3  TUser: C  TLast: 0
%%   2160 ns    Log    INFO      in transmitter_1,                Axi Stream Send.  TData: 3B3A3938  TStrb: 1111  TKeep: 1111  TID: 06  TDest: 3  TUser: C  TLast: 0  Operation# 206
%%   2170 ns    Log    PASSED    in receiver_1: Data Check,       Operation# 206  Received.  Data: 3B3A3938  TID: 06  TDest: 3  TUser: C  TLast: 0
%%   2170 ns    Log    INFO      in transmitter_1,                Axi Stream Send.  TData: 3F3E3D3C  TStrb: 1111  TKeep: 1111  TID: 06  TDest: 3  TUser: C  TLast: 0  Operation# 207
%%   2180 ns    Log    PASSED    in receiver_1: Data Check,       Operation# 207  Received.  Data: 3F3E3D3C  TID: 06  TDest: 3  TUser: C  TLast: 0
%%   2180 ns    Log    INFO      in transmitter_1,                Axi Stream Send.  TData: 43424140  TStrb: 1111  TKeep: 1111  TID: 06  TDest: 3  TUser: C  TLast: 0  Operation# 208
%%   2190 ns    Log    PASSED    in receiver_1: Data Check,       Operation# 208  Received.  Data: 43424140  TID: 06  TDest: 3  TUser: C  TLast: 0
%%   2190 ns    Log    INFO      in transmitter_1,                Axi Stream Send.  TData: 47464544  TStrb: 1111  TKeep: 1111  TID: 06  TDest: 2  TUser: D  TLast: 0  Operation# 209
%%   2200 ns    Log    PASSED    in receiver_1: Data Check,       Operation# 209  Received.  Data: 47464544  TID: 06  TDest: 2  TUser: D  TLast: 0
%%   2200 ns    Log    INFO      in transmitter_1,                Axi Stream Send.  TData: 4B4A4948  TStrb: 1111  TKeep: 1111  TID: 06  TDest: 2  TUser: D  TLast: 0  Operation# 210
%%   2210 ns    Log    PASSED    in receiver_1: Data Check,       Operation# 210  Received.  Data: 4B4A4948  TID: 06  TDest: 2  TUser: D  TLast: 0
%%   2210 ns    Log    INFO      in transmitter_1,                Axi Stream Send.  TData: 4F4E4D4C  TStrb: 1111  TKeep: 1111  TID: 06  TDest: 2  TUser: D  TLast: 0  Operation# 211
%%   2220 ns    Log    PASSED    in receiver_1: Data Check,       Operation# 211  Received.  Data: 4F4E4D4C  TID: 06  TDest: 2  TUser: D  TLast: 0
%%   2220 ns    Log    INFO      in transmitter_1,                Axi Stream Send.  TData: 53525150  TStrb: 1111  TKeep: 1111  TID: 06  TDest: 2  TUser: D  TLast: 0  Operation# 212
%%   2230 ns    Log    PASSED    in receiver_1: Data Check,       Operation# 212  Received.  Data: 53525150  TID: 06  TDest: 2  TUser: D  TLast: 0
%%   2230 ns    Log    INFO      in transmitter_1,                Axi Stream Send.  TData: 57565554  TStrb: 1111  TKeep: 1111  TID: 06  TDest: 2  TUser: D  TLast: 0  Operation# 213
%%   2240 ns    Log    PASSED    in receiver_1: Data Check,       Operation# 213  Received.  Data: 57565554  TID: 06  TDest: 2  TUser: D  TLast: 0
%%   2240 ns    Log    INFO      in transmitter_1,                Axi Stream Send.  TData: 5B5A5958  TStrb: 1111  TKeep: 1111  TID: 06  TDest: 2  TUser: D  TLast: 0  Operation# 214
%%   2250 ns    Log    PASSED    in receiver_1: Data Check,       Operation# 214  Received.  Data: 5B5A5958  TID: 06  TDest: 2  TUser: D  TLast: 0
%%   2250 ns    Log    INFO      in transmitter_1,                Axi Stream Send.  TData: 5F5E5D5C  TStrb: 1111  TKeep: 1111  TID: 06  TDest: 2  TUser: D  TLast: 0  Operation# 215
%%   2260 ns    Log    PASSED    in receiver_1: Data Check,       Operation# 215  Received.  Data: 5F5E5D5C  TID: 06  TDest: 2  TUser: D  TLast: 0
%%   2260 ns    Log    INFO      in transmitter_1,                Axi Stream Send.  TData: 63626160  TStrb: 1111  TKeep: 1111  TID: 06  TDest: 2  TUser: D  TLast: 0  Operation# 216
%%   2270 ns    Log    PASSED    in receiver_1: Data Check,       Operation# 216  Received.  Data: 63626160  TID: 06  TDest: 2  TUser: D  TLast: 0
%%   2270 ns    Log    INFO      in transmitter_1,                Axi Stream Send.  TData: 67666564  TStrb: 1111  TKeep: 1111  TID: 06  TDest: 2  TUser: D  TLast: 0  Operation# 217
%%   2280 ns    Log    PASSED    in receiver_1: Data Check,       Operation# 217  Received.  Data: 67666564  TID: 06  TDest: 2  TUser: D  TLast: 0
%%   2280 ns    Log    INFO      in transmitter_1,                Axi Stream Send.  TData: 6B6A6968  TStrb: 1111  TKeep: 1111  TID: 06  TDest: 2  TUser: D  TLast: 0  Operation# 218
%%   2290 ns    Log    PASSED    in receiver_1: Data Check,       Operation# 218  Received.  Data: 6B6A6968  TID: 06  TDest: 2  TUser: D  TLast: 0
%%   2290 ns    Log    INFO      in transmitter_1,                Axi Stream Send.  TData: 6F6E6D6C  TStrb: 1111  TKeep: 1111  TID: 06  TDest: 2  TUser: D  TLast: 0  Operation# 219
%%   2300 ns    Log    PASSED    in receiver_1: Data Check,       Operation# 219  Received.  Data: 6F6E6D6C  TID: 06  TDest: 2  TUser: D  TLast: 0
%%   2300 ns    Log    INFO      in transmitter_1,                Axi Stream Send.  TData: 73727170  TStrb: 1111  TKeep: 1111  TID: 06  TDest: 2  TUser: D  TLast: 0  Operation# 220
%%   2310 ns    Log    PASSED    in receiver_1: Data Check,       Operation# 220  Received.  Data: 73727170  TID: 06  TDest: 2  TUser: D  TLast: 0
%%   2310 ns    Log    INFO      in transmitter_1,                Axi Stream Send.  TData: 77767574  TStrb: 1111  TKeep: 1111  TID: 06  TDest: 2  TUser: D  TLast: 0  Operation# 221
%%   2320 ns    Log    PASSED    in receiver_1: Data Check,       Operation# 221  Received.  Data: 77767574  TID: 06  TDest: 2  TUser: D  TLast: 0
%%   2320 ns    Log    INFO      in transmitter_1,                Axi Stream Send.  TData: 7B7A7978  TStrb: 1111  TKeep: 1111  TID: 06  TDest: 2  TUser: D  TLast: 0  Operation# 222
%%   2330 ns    Log    PASSED    in receiver_1: Data Check,       Operation# 222  Received.  Data: 7B7A7978  TID: 06  TDest: 2  TUser: D  TLast: 0
%%   2330 ns    Log    INFO      in transmitter_1,                Axi Stream Send.  TData: 7F7E7D7C  TStrb: 1111  TKeep: 1111  TID: 06  TDest: 2  TUser: D  TLast: 0  Operation# 223
%%   2340 ns    Log    PASSED    in receiver_1: Data Check,       Operation# 223  Received.  Data: 7F7E7D7C  TID: 06  TDest: 2  TUser: D  TLast: 0
%%   2340 ns    Log    INFO      in transmitter_1,                Axi Stream Send.  TData: 83828180  TStrb: 1111  TKeep: 1111  TID: 06  TDest: 2  TUser: D  TLast: 0  Operation# 224
%%   2350 ns    Log    PASSED    in receiver_1: Data Check,       Operation# 224  Received.  Data: 83828180  TID: 06  TDest: 2  TUser: D  TLast: 0
%%   2350 ns    Log    INFO      in transmitter_1,                Axi Stream Send.  TData: 87868584  TStrb: 1111  TKeep: 1111  TID: 07  TDest: 1  TUser: E  TLast: 0  Operation# 225
%%   2360 ns    Log    PASSED    in receiver_1: Data Check,       Operation# 225  Received.  Data: 87868584  TID: 07  TDest: 1  TUser: E  TLast: 0
%%   2360 ns    Log    INFO      in transmitter_1,                Axi Stream Send.  TData: 8B8A8988  TStrb: 1111  TKeep: 1111  TID: 07  TDest: 1  TUser: E  TLast: 0  Operation# 226
%%   2370 ns    Log    PASSED    in receiver_1: Data Check,       Operation# 226  Received.  Data: 8B8A8988  TID: 07  TDest: 1  TUser: E  TLast: 0
%%   2370 ns    Log    INFO      in transmitter_1,                Axi Stream Send.  TData: 8F8E8D8C  TStrb: 1111  TKeep: 1111  TID: 07  TDest: 1  TUser: E  TLast: 0  Operation# 227
%%   2380 ns    Log    PASSED    in receiver_1: Data Check,       Operation# 227  Received.  Data: 8F8E8D8C  TID: 07  TDest: 1  TUser: E  TLast: 0
%%   2380 ns    Log    INFO      in transmitter_1,                Axi Stream Send.  TData: 93929190  TStrb: 1111  TKeep: 1111  TID: 07  TDest: 1  TUser: E  TLast: 0  Operation# 228
%%   2390 ns    Log    PASSED    in receiver_1: Data Check,       Operation# 228  Received.  Data: 93929190  TID: 07  TDest: 1  TUser: E  TLast: 0
%%   2390 ns    Log    INFO      in transmitter_1,                Axi Stream Send.  TData: 97969594  TStrb: 1111  TKeep: 1111  TID: 07  TDest: 1  TUser: E  TLast: 0  Operation# 229
%%   2400 ns    Log    PASSED    in receiver_1: Data Check,       Operation# 229  Received.  Data: 97969594  TID: 07  TDest: 1  TUser: E  TLast: 0
%%   2400 ns    Log    INFO      in transmitter_1,                Axi Stream Send.  TData: 9B9A9998  TStrb: 1111  TKeep: 1111  TID: 07  TDest: 1  TUser: E  TLast: 0  Operation# 230
%%   2410 ns    Log    PASSED    in receiver_1: Data Check,       Operation# 230  Received.  Data: 9B9A9998  TID: 07  TDest: 1  TUser: E  TLast: 0
%%   2410 ns    Log    INFO      in transmitter_1,                Axi Stream Send.  TData: 9F9E9D9C  TStrb: 1111  TKeep: 1111  TID: 07  TDest: 1  TUser: E  TLast: 0  Operation# 231
%%   2420 ns    Log    PASSED    in receiver_1: Data Check,       Operation# 231  Received.  Data: 9F9E9D9C  TID: 07  TDest: 1  TUser: E  TLast: 0
%%   2420 ns    Log    INFO      in transmitter_1,                Axi Stream Send.  TData: A3A2A1A0  TStrb: 1111  TKeep: 1111  TID: 07  TDest: 1  TUser: E  TLast: 0  Operation# 232
%%   2430 ns    Log    PASSED    in receiver_1: Data Check,       Operation# 232  Received.  Data: A3A2A1A0  TID: 07  TDest: 1  TUser: E  TLast: 0
%%   2430 ns    Log    INFO      in transmitter_1,                Axi Stream Send.  TData: A7A6A5A4  TStrb: 1111  TKeep: 1111  TID: 07  TDest: 1  TUser: E  TLast: 0  Operation# 233
%%   2440 ns    Log    PASSED    in receiver_1: Data Check,       Operation# 233  Received.  Data: A7A6A5A4  TID: 07  TDest: 1  TUser: E  TLast: 0
%%   2440 ns    Log    INFO      in transmitter_1,                Axi Stream Send.  TData: ABAAA9A8  TStrb: 1111  TKeep: 1111  TID: 07  TDest: 1  TUser: E  TLast: 0  Operation# 234
%%   2450 ns    Log    PASSED    in receiver_1: Data Check,       Operation# 234  Received.  Data: ABAAA9A8  TID: 07  TDest: 1  TUser: E  TLast: 0
%%   2450 ns    Log    INFO      in transmitter_1,                Axi Stream Send.  TData: AFAEADAC  TStrb: 1111  TKeep: 1111  TID: 07  TDest: 1  TUser: E  TLast: 0  Operation# 235
%%   2460 ns    Log    PASSED    in receiver_1: Data Check,       Operation# 235  Received.  Data: AFAEADAC  TID: 07  TDest: 1  TUser: E  TLast: 0
%%   2460 ns    Log    INFO      in transmitter_1,                Axi Stream Send.  TData: B3B2B1B0  TStrb: 1111  TKeep: 1111  TID: 07  TDest: 1  TUser: E  TLast: 0  Operation# 236
%%   2470 ns    Log    PASSED    in receiver_1: Data Check,       Operation# 236  Received.  Data: B3B2B1B0  TID: 07  TDest: 1  TUser: E  TLast: 0
%%   2470 ns    Log    INFO      in transmitter_1,                Axi Stream Send.  TData: B7B6B5B4  TStrb: 1111  TKeep: 1111  TID: 07  TDest: 1  TUser: E  TLast: 0  Operation# 237
%%   2480 ns    Log    PASSED    in receiver_1: Data Check,       Operation# 237  Received.  Data: B7B6B5B4  TID: 07  TDest: 1  TUser: E  TLast: 0
%%   2480 ns    Log    INFO      in transmitter_1,                Axi Stream Send.  TData: BBBAB9B8  TStrb: 1111  TKeep: 1111  TID: 07  TDest: 1  TUser: E  TLast: 0  Operation# 238
%%   2490 ns    Log    PASSED    in receiver_1: Data Check,       Operation# 238  Received.  Data: BBBAB9B8  TID: 07  TDest: 1  TUser: E  TLast: 0
%%   2490 ns    Log    INFO      in transmitter_1,                Axi Stream Send.  TData: BFBEBDBC  TStrb: 1111  TKeep: 1111  TID: 07  TDest: 1  TUser: E  TLast: 0  Operation# 239
%%   2500 ns    Log    PASSED    in receiver_1: Data Check,       Operation# 239  Received.  Data: BFBEBDBC  TID: 07  TDest: 1  TUser: E  TLast: 0
%%   2500 ns    Log    INFO      in transmitter_1,                Axi Stream Send.  TData: C3C2C1C0  TStrb: 1111  TKeep: 1111  TID: 07  TDest: 1  TUser: E  TLast: 0  Operation# 240
%%   2510 ns    Log    PASSED    in receiver_1: Data Check,       Operation# 240  Received.  Data: C3C2C1C0  TID: 07  TDest: 1  TUser: E  TLast: 0
%%   2510 ns    Log    INFO      in transmitter_1,                Axi Stream Send.  TData: C7C6C5C4  TStrb: 1111  TKeep: 1111  TID: 07  TDest: 0  TUser: F  TLast: 0  Operation# 241
%%   2520 ns    Log    PASSED    in receiver_1: Data Check,       Operation# 241  Received.  Data: C7C6C5C4  TID: 07  TDest: 0  TUser: F  TLast: 0
%%   2520 ns    Log    INFO      in transmitter_1,                Axi Stream Send.  TData: CBCAC9C8  TStrb: 1111  TKeep: 1111  TID: 07  TDest: 0  TUser: F  TLast: 0  Operation# 242
%%   2530 ns    Log    PASSED    in receiver_1: Data Check,       Operation# 242  Received.  Data: CBCAC9C8  TID: 07  TDest: 0  TUser: F  TLast: 0
%%   2530 ns    Log    INFO      in transmitter_1,                Axi Stream Send.  TData: CFCECDCC  TStrb: 1111  TKeep: 1111  TID: 07  TDest: 0  TUser: F  TLast: 0  Operation# 243
%%   2540 ns    Log    PASSED    in receiver_1: Data Check,       Operation# 243  Received.  Data: CFCECDCC  TID: 07  TDest: 0  TUser: F  TLast: 0
%%   2540 ns    Log    INFO      in transmitter_1,                Axi Stream Send.  TData: D3D2D1D0  TStrb: 1111  TKeep: 1111  TID: 07  TDest: 0  TUser: F  TLast: 0  Operation# 244
%%   2550 ns    Log    PASSED    in receiver_1: Data Check,       Operation# 244  Received.  Data: D3D2D1D0  TID: 07  TDest: 0  TUser: F  TLast: 0
%%   2550 ns    Log    INFO      in transmitter_1,                Axi Stream Send.  TData: D7D6D5D4  TStrb: 1111  TKeep: 1111  TID: 07  TDest: 0  TUser: F  TLast: 0  Operation# 245
%%   2560 ns    Log    PASSED    in receiver_1: Data Check,       Operation# 245  Received.  Data: D7D6D5D4  TID: 07  TDest: 0  TUser: F  TLast: 0
%%   2560 ns    Log    INFO      in transmitter_1,                Axi Stream Send.  TData: DBDAD9D8  TStrb: 1111  TKeep: 1111  TID: 07  TDest: 0  TUser: F  TLast: 0  Operation# 246
%%   2570 ns    Log    PASSED    in receiver_1: Data Check,       Operation# 246  Received.  Data: DBDAD9D8  TID: 07  TDest: 0  TUser: F  TLast: 0
%%   2570 ns    Log    INFO      in transmitter_1,                Axi Stream Send.  TData: DFDEDDDC  TStrb: 1111  TKeep: 1111  TID: 07  TDest: 0  TUser: F  TLast: 0  Operation# 247
%%   2580 ns    Log    PASSED    in receiver_1: Data Check,       Operation# 247  Received.  Data: DFDEDDDC  TID: 07  TDest: 0  TUser: F  TLast: 0
%%   2580 ns    Log    INFO      in transmitter_1,                Axi Stream Send.  TData: E3E2E1E0  TStrb: 1111  TKeep: 1111  TID: 07  TDest: 0  TUser: F  TLast: 0  Operation# 248
%%   2590 ns    Log    PASSED    in receiver_1: Data Check,       Operation# 248  Received.  Data: E3E2E1E0  TID: 07  TDest: 0  TUser: F  TLast: 0
%%   2590 ns    Log    INFO      in transmitter_1,                Axi Stream Send.  TData: E7E6E5E4  TStrb: 1111  TKeep: 1111  TID: 07  TDest: 0  TUser: F  TLast: 0  Operation# 249
%%   2600 ns    Log    PASSED    in receiver_1: Data Check,       Operation# 249  Received.  Data: E7E6E5E4  TID: 07  TDest: 0  TUser: F  TLast: 0
%%   2600 ns    Log    INFO      in transmitter_1,                Axi Stream Send.  TData: EBEAE9E8  TStrb: 1111  TKeep: 1111  TID: 07  TDest: 0  TUser: F  TLast: 0  Operation# 250
%%   2610 ns    Log    PASSED    in receiver_1: Data Check,       Operation# 250  Received.  Data: EBEAE9E8  TID: 07  TDest: 0  TUser: F  TLast: 0
%%   2610 ns    Log    INFO      in transmitter_1,                Axi Stream Send.  TData: EFEEEDEC  TStrb: 1111  TKeep: 1111  TID: 07  TDest: 0  TUser: F  TLast: 0  Operation# 251
%%   2620 ns    Log    PASSED    in receiver_1: Data Check,       Operation# 251  Received.  Data: EFEEEDEC  TID: 07  TDest: 0  TUser: F  TLast: 0
%%   2620 ns    Log    INFO      in transmitter_1,                Axi Stream Send.  TData: F3F2F1F0  TStrb: 1111  TKeep: 1111  TID: 07  TDest: 0  TUser: F  TLast: 0  Operation# 252
%%   2630 ns    Alert  ERROR     in receiver_1: Data Check,       Operation# 252  Received.  Data: F3F2F1F0  TID: 07  TDest: 0  TUser: F  TLast: 0  Expected.  Data: F3F2F1F1  TID: 07  TDest: 0  TUser: F  TLast: 0
%%   2630 ns    Log    INFO      in transmitter_1,                Axi Stream Send.  TData: F7F6F5F4  TStrb: 1111  TKeep: 1111  TID: 07  TDest: 0  TUser: F  TLast: 0  Operation# 253
%%   2640 ns    Alert  ERROR     in receiver_1: Data Check,       Operation# 253  Received.  Data: F7F6F5F4  TID: 07  TDest: 0  TUser: F  TLast: 0  Expected.  Data: F7F6F5F4  TID: 07  TDest: 0  TUser: F  TLast: 1
%%   2640 ns    Log    INFO      in transmitter_1,                Axi Stream Send.  TData: FBFAF9F8  TStrb: 1111  TKeep: 1111  TID: 07  TDest: 0  TUser: F  TLast: 0  Operation# 254
%%   2650 ns    Alert  ERROR     in receiver_1: Data Check,       Operation# 254  Received.  Data: FBFAF9F8  TID: 07  TDest: 0  TUser: F  TLast: 0  Expected.  Data: FBFAF9F8  TID: 07  TDest: 0  TUser: 0  TLast: 0
%%   2650 ns    Log    INFO      in transmitter_1,                Axi Stream Send.  TData: FFFEFDFC  TStrb: 1111  TKeep: 1111  TID: 07  TDest: 0  TUser: F  TLast: 0  Operation# 255
%%   2660 ns    Alert  ERROR     in receiver_1: Data Check,       Operation# 255  Received.  Data: FFFEFDFC  TID: 07  TDest: 0  TUser: F  TLast: 0  Expected.  Data: FFFEFDFC  TID: 07  TDest: 1  TUser: F  TLast: 0
%%   2660 ns    Log    INFO      in transmitter_1,                Axi Stream Send.  TData: 03020100  TStrb: 1111  TKeep: 1111  TID: 07  TDest: 0  TUser: F  TLast: 0  Operation# 256
%%   2670 ns    Alert  ERROR     in receiver_1: Data Check,       Operation# 256  Received.  Data: 03020100  TID: 07  TDest: 0  TUser: F  TLast: 0  Expected.  Data: 03020100  TID: 08  TDest: 0  TUser: F  TLast: 0
