%%    110 ns    Log    ALWAYS    in Default,                      Transmit 32 Bytes -- word aligned
%%    110 ns    Log    INFO      in transmitter_1,                Axi Stream Send.  TData: 00000003  TStrb: 1111  TKeep: 1111  TID: 00  TDest: 0  TUser: 0  TLast: 0  Operation# 1
%%    120 ns    Log    INFO      in transmitter_1,                Axi Stream Send.  TData: 00000004  TStrb: 1111  TKeep: 1111  TID: 00  TDest: 0  TUser: 0  TLast: 0  Operation# 2
%%    130 ns    Log    INFO      in transmitter_1,                Axi Stream Send.  TData: 00000005  TStrb: 1111  TKeep: 1111  TID: 00  TDest: 0  TUser: 0  TLast: 0  Operation# 3
%%    140 ns    Log    INFO      in transmitter_1,                Axi Stream Send.  TData: 00000006  TStrb: 1111  TKeep: 1111  TID: 00  TDest: 0  TUser: 0  TLast: 0  Operation# 4
%%    150 ns    Log    INFO      in transmitter_1,                Axi Stream Send.  TData: 00000007  TStrb: 1111  TKeep: 1111  TID: 00  TDest: 0  TUser: 0  TLast: 0  Operation# 5
%%    160 ns    Log    INFO      in transmitter_1,                Axi Stream Send.  TData: 00000008  TStrb: 1111  TKeep: 1111  TID: 00  TDest: 0  TUser: 0  TLast: 0  Operation# 6
%%    170 ns    Log    INFO      in transmitter_1,                Axi Stream Send.  TData: 00000009  TStrb: 1111  TKeep: 1111  TID: 00  TDest: 0  TUser: 0  TLast: 0  Operation# 7
%%    180 ns    Log    INFO      in transmitter_1,                Axi Stream Send.  TData: 0000000A  TStrb: 1111  TKeep: 1111  TID: 00  TDest: 0  TUser: 0  TLast: 0  Operation# 8
%%    190 ns    Log    INFO      in transmitter_1,                Axi Stream Send.  TData: 0000000B  TStrb: 1111  TKeep: 1111  TID: 00  TDest: 0  TUser: 0  TLast: 0  Operation# 9
%%    200 ns    Log    INFO      in transmitter_1,                Axi Stream Send.  TData: 0000000C  TStrb: 1111  TKeep: 1111  TID: 00  TDest: 0  TUser: 0  TLast: 0  Operation# 10
%%    210 ns    Log    INFO      in transmitter_1,                Axi Stream Send.  TData: 0000000D  TStrb: 1111  TKeep: 1111  TID: 00  TDest: 0  TUser: 0  TLast: 0  Operation# 11
%%    220 ns    Log    INFO      in transmitter_1,                Axi Stream Send.  TData: 0000000E  TStrb: 1111  TKeep: 1111  TID: 00  TDest: 0  TUser: 0  TLast: 0  Operation# 12
%%    230 ns    Log    INFO      in transmitter_1,                Axi Stream Send.  TData: 0000000F  TStrb: 1111  TKeep: 1111  TID: 00  TDest: 0  TUser: 0  TLast: 0  Operation# 13
%%    240 ns    Log    INFO      in transmitter_1,                Axi Stream Send.  TData: 00000010  TStrb: 1111  TKeep: 1111  TID: 00  TDest: 0  TUser: 0  TLast: 0  Operation# 14
%%    250 ns    Log    INFO      in transmitter_1,                Axi Stream Send.  TData: 00000011  TStrb: 1111  TKeep: 1111  TID: 00  TDest: 0  TUser: 0  TLast: 0  Operation# 15
%%    260 ns    Log    INFO      in transmitter_1,                Axi Stream Send.  TData: 00000012  TStrb: 1111  TKeep: 1111  TID: 00  TDest: 0  TUser: 0  TLast: 0  Operation# 16
%%    270 ns    Log    INFO      in transmitter_1,                Axi Stream Send.  TData: 00000013  TStrb: 1111  TKeep: 1111  TID: 00  TDest: 0  TUser: 0  TLast: 0  Operation# 17
%%    280 ns    Log    INFO      in transmitter_1,                Axi Stream Send.  TData: 00000014  TStrb: 1111  TKeep: 1111  TID: 00  TDest: 0  TUser: 0  TLast: 0  Operation# 18
%%    290 ns    Log    INFO      in transmitter_1,                Axi Stream Send.  TData: 00000015  TStrb: 1111  TKeep: 1111  TID: 00  TDest: 0  TUser: 0  TLast: 0  Operation# 19
%%    300 ns    Log    INFO      in transmitter_1,                Axi Stream Send.  TData: 00000016  TStrb: 1111  TKeep: 1111  TID: 00  TDest: 0  TUser: 0  TLast: 0  Operation# 20
%%    310 ns    Log    INFO      in transmitter_1,                Axi Stream Send.  TData: 00000017  TStrb: 1111  TKeep: 1111  TID: 00  TDest: 0  TUser: 0  TLast: 0  Operation# 21
%%    320 ns    Log    INFO      in transmitter_1,                Axi Stream Send.  TData: 00000018  TStrb: 1111  TKeep: 1111  TID: 00  TDest: 0  TUser: 0  TLast: 0  Operation# 22
%%    330 ns    Log    INFO      in transmitter_1,                Axi Stream Send.  TData: 00000019  TStrb: 1111  TKeep: 1111  TID: 00  TDest: 0  TUser: 0  TLast: 0  Operation# 23
%%    340 ns    Log    INFO      in transmitter_1,                Axi Stream Send.  TData: 0000001A  TStrb: 1111  TKeep: 1111  TID: 00  TDest: 0  TUser: 0  TLast: 0  Operation# 24
%%    350 ns    Log    INFO      in transmitter_1,                Axi Stream Send.  TData: 0000001B  TStrb: 1111  TKeep: 1111  TID: 00  TDest: 0  TUser: 0  TLast: 0  Operation# 25
%%    360 ns    Log    INFO      in transmitter_1,                Axi Stream Send.  TData: 0000001C  TStrb: 1111  TKeep: 1111  TID: 00  TDest: 0  TUser: 0  TLast: 0  Operation# 26
%%    370 ns    Log    INFO      in transmitter_1,                Axi Stream Send.  TData: 0000001D  TStrb: 1111  TKeep: 1111  TID: 00  TDest: 0  TUser: 0  TLast: 0  Operation# 27
%%    380 ns    Log    INFO      in transmitter_1,                Axi Stream Send.  TData: 0000001E  TStrb: 1111  TKeep: 1111  TID: 00  TDest: 0  TUser: 0  TLast: 0  Operation# 28
%%    390 ns    Log    INFO      in transmitter_1,                Axi Stream Send.  TData: 0000001F  TStrb: 1111  TKeep: 1111  TID: 00  TDest: 0  TUser: 0  TLast: 0  Operation# 29
%%    400 ns    Log    INFO      in transmitter_1,                Axi Stream Send.  TData: 00000020  TStrb: 1111  TKeep: 1111  TID: 00  TDest: 0  TUser: 0  TLast: 0  Operation# 30
%%    410 ns    Log    INFO      in transmitter_1,                Axi Stream Send.  TData: 00000021  TStrb: 1111  TKeep: 1111  TID: 00  TDest: 0  TUser: 0  TLast: 0  Operation# 31
%%    420 ns    Log    INFO      in transmitter_1,                Axi Stream Send.  TData: 00000022  TStrb: 1111  TKeep: 1111  TID: 00  TDest: 0  TUser: 0  TLast: 1  Operation# 32
%%    430 ns    Log    INFO      in receiver_1,                   Burst Receive.  Operation# 1  Last Data: 00000022  TID: 00  TDest: 0  TUser: 0  TLast: 1
%%    430 ns    Log    PASSED    in Default,                      Receiver: NumBytes Received Received : 32
%%    430 ns    Log    PASSED    in receiver_1: RxBurstFifo,      Received: 00000003   Item Number: 1
%%    430 ns    Log    PASSED    in receiver_1: RxBurstFifo,      Received: 00000004   Item Number: 2
%%    430 ns    Log    PASSED    in receiver_1: RxBurstFifo,      Received: 00000005   Item Number: 3
%%    430 ns    Log    PASSED    in receiver_1: RxBurstFifo,      Received: 00000006   Item Number: 4
%%    430 ns    Log    PASSED    in receiver_1: RxBurstFifo,      Received: 00000007   Item Number: 5
%%    430 ns    Log    PASSED    in receiver_1: RxBurstFifo,      Received: 00000008   Item Number: 6
%%    430 ns    Log    PASSED    in receiver_1: RxBurstFifo,      Received: 00000009   Item Number: 7
%%    430 ns    Log    PASSED    in receiver_1: RxBurstFifo,      Received: 0000000A   Item Number: 8
%%    430 ns    Log    PASSED    in receiver_1: RxBurstFifo,      Received: 0000000B   Item Number: 9
%%    430 ns    Log    PASSED    in receiver_1: RxBurstFifo,      Received: 0000000C   Item Number: 10
%%    430 ns    Log    PASSED    in receiver_1: RxBurstFifo,      Received: 0000000D   Item Number: 11
%%    430 ns    Log    PASSED    in receiver_1: RxBurstFifo,      Received: 0000000E   Item Number: 12
%%    430 ns    Log    PASSED    in receiver_1: RxBurstFifo,      Received: 0000000F   Item Number: 13
%%    430 ns    Log    PASSED    in receiver_1: RxBurstFifo,      Received: 00000010   Item Number: 14
%%    430 ns    Log    PASSED    in receiver_1: RxBurstFifo,      Received: 00000011   Item Number: 15
%%    430 ns    Log    PASSED    in receiver_1: RxBurstFifo,      Received: 00000012   Item Number: 16
%%    430 ns    Log    PASSED    in receiver_1: RxBurstFifo,      Received: 00000013   Item Number: 17
%%    430 ns    Log    PASSED    in receiver_1: RxBurstFifo,      Received: 00000014   Item Number: 18
%%    430 ns    Log    PASSED    in receiver_1: RxBurstFifo,      Received: 00000015   Item Number: 19
%%    430 ns    Log    PASSED    in receiver_1: RxBurstFifo,      Received: 00000016   Item Number: 20
%%    430 ns    Log    PASSED    in receiver_1: RxBurstFifo,      Received: 00000017   Item Number: 21
%%    430 ns    Log    PASSED    in receiver_1: RxBurstFifo,      Received: 00000018   Item Number: 22
%%    430 ns    Log    PASSED    in receiver_1: RxBurstFifo,      Received: 00000019   Item Number: 23
%%    430 ns    Log    PASSED    in receiver_1: RxBurstFifo,      Received: 0000001A   Item Number: 24
%%    430 ns    Log    PASSED    in receiver_1: RxBurstFifo,      Received: 0000001B   Item Number: 25
%%    430 ns    Log    PASSED    in receiver_1: RxBurstFifo,      Received: 0000001C   Item Number: 26
%%    430 ns    Log    PASSED    in receiver_1: RxBurstFifo,      Received: 0000001D   Item Number: 27
%%    430 ns    Log    PASSED    in receiver_1: RxBurstFifo,      Received: 0000001E   Item Number: 28
%%    430 ns    Log    PASSED    in receiver_1: RxBurstFifo,      Received: 0000001F   Item Number: 29
%%    430 ns    Log    PASSED    in receiver_1: RxBurstFifo,      Received: 00000020   Item Number: 30
%%    430 ns    Log    PASSED    in receiver_1: RxBurstFifo,      Received: 00000021   Item Number: 31
%%    430 ns    Log    PASSED    in receiver_1: RxBurstFifo,      Received: 00000022   Item Number: 32
%%    470 ns    Log    ALWAYS    in Default,                      Transmit 30 Bytes -- unaligned
%%    470 ns    Log    INFO      in transmitter_1,                Axi Stream Send.  TData: 00000001  TStrb: 1111  TKeep: 1111  TID: 00  TDest: 0  TUser: 0  TLast: 0  Operation# 33
%%    480 ns    Log    INFO      in transmitter_1,                Axi Stream Send.  TData: 00000003  TStrb: 1111  TKeep: 1111  TID: 00  TDest: 0  TUser: 0  TLast: 0  Operation# 34
%%    490 ns    Log    INFO      in transmitter_1,                Axi Stream Send.  TData: 00000005  TStrb: 1111  TKeep: 1111  TID: 00  TDest: 0  TUser: 0  TLast: 0  Operation# 35
%%    500 ns    Log    INFO      in transmitter_1,                Axi Stream Send.  TData: 00000007  TStrb: 1111  TKeep: 1111  TID: 00  TDest: 0  TUser: 0  TLast: 0  Operation# 36
%%    510 ns    Log    INFO      in transmitter_1,                Axi Stream Send.  TData: 00000009  TStrb: 1111  TKeep: 1111  TID: 00  TDest: 0  TUser: 0  TLast: 0  Operation# 37
%%    520 ns    Log    INFO      in transmitter_1,                Axi Stream Send.  TData: 0000000B  TStrb: 1111  TKeep: 1111  TID: 00  TDest: 0  TUser: 0  TLast: 0  Operation# 38
%%    530 ns    Log    INFO      in transmitter_1,                Axi Stream Send.  TData: 0000000D  TStrb: 1111  TKeep: 1111  TID: 00  TDest: 0  TUser: 0  TLast: 0  Operation# 39
%%    540 ns    Log    INFO      in transmitter_1,                Axi Stream Send.  TData: 0000000F  TStrb: 1111  TKeep: 1111  TID: 00  TDest: 0  TUser: 0  TLast: 0  Operation# 40
%%    550 ns    Log    INFO      in transmitter_1,                Axi Stream Send.  TData: 00000011  TStrb: 1111  TKeep: 1111  TID: 00  TDest: 0  TUser: 0  TLast: 0  Operation# 41
%%    560 ns    Log    INFO      in transmitter_1,                Axi Stream Send.  TData: 00000013  TStrb: 1111  TKeep: 1111  TID: 00  TDest: 0  TUser: 0  TLast: 0  Operation# 42
%%    570 ns    Log    INFO      in transmitter_1,                Axi Stream Send.  TData: 00000015  TStrb: 1111  TKeep: 1111  TID: 00  TDest: 0  TUser: 0  TLast: 0  Operation# 43
%%    580 ns    Log    INFO      in transmitter_1,                Axi Stream Send.  TData: 00000017  TStrb: 1111  TKeep: 1111  TID: 00  TDest: 0  TUser: 0  TLast: 0  Operation# 44
%%    590 ns    Log    INFO      in transmitter_1,                Axi Stream Send.  TData: 00000019  TStrb: 1111  TKeep: 1111  TID: 00  TDest: 0  TUser: 0  TLast: 0  Operation# 45
%%    600 ns    Log    INFO      in transmitter_1,                Axi Stream Send.  TData: 0000001B  TStrb: 1111  TKeep: 1111  TID: 00  TDest: 0  TUser: 0  TLast: 0  Operation# 46
%%    610 ns    Log    INFO      in transmitter_1,                Axi Stream Send.  TData: 0000001D  TStrb: 1111  TKeep: 1111  TID: 00  TDest: 0  TUser: 0  TLast: 0  Operation# 47
%%    620 ns    Log    INFO      in transmitter_1,                Axi Stream Send.  TData: 0000001F  TStrb: 1111  TKeep: 1111  TID: 00  TDest: 0  TUser: 0  TLast: 0  Operation# 48
%%    630 ns    Log    INFO      in transmitter_1,                Axi Stream Send.  TData: 00000021  TStrb: 1111  TKeep: 1111  TID: 00  TDest: 0  TUser: 0  TLast: 0  Operation# 49
%%    640 ns    Log    INFO      in transmitter_1,                Axi Stream Send.  TData: 00000023  TStrb: 1111  TKeep: 1111  TID: 00  TDest: 0  TUser: 0  TLast: 0  Operation# 50
%%    650 ns    Log    INFO      in transmitter_1,                Axi Stream Send.  TData: 00000025  TStrb: 1111  TKeep: 1111  TID: 00  TDest: 0  TUser: 0  TLast: 0  Operation# 51
%%    660 ns    Log    INFO      in transmitter_1,                Axi Stream Send.  TData: 00000027  TStrb: 1111  TKeep: 1111  TID: 00  TDest: 0  TUser: 0  TLast: 0  Operation# 52
%%    670 ns    Log    INFO      in transmitter_1,                Axi Stream Send.  TData: 00000029  TStrb: 1111  TKeep: 1111  TID: 00  TDest: 0  TUser: 0  TLast: 0  Operation# 53
%%    680 ns    Log    INFO      in transmitter_1,                Axi Stream Send.  TData: 0000002B  TStrb: 1111  TKeep: 1111  TID: 00  TDest: 0  TUser: 0  TLast: 0  Operation# 54
%%    690 ns    Log    INFO      in transmitter_1,                Axi Stream Send.  TData: 0000002D  TStrb: 1111  TKeep: 1111  TID: 00  TDest: 0  TUser: 0  TLast: 0  Operation# 55
%%    700 ns    Log    INFO      in transmitter_1,                Axi Stream Send.  TData: 0000002F  TStrb: 1111  TKeep: 1111  TID: 00  TDest: 0  TUser: 0  TLast: 0  Operation# 56
%%    710 ns    Log    INFO      in transmitter_1,                Axi Stream Send.  TData: 00000031  TStrb: 1111  TKeep: 1111  TID: 00  TDest: 0  TUser: 0  TLast: 0  Operation# 57
%%    720 ns    Log    INFO      in transmitter_1,                Axi Stream Send.  TData: 00000033  TStrb: 1111  TKeep: 1111  TID: 00  TDest: 0  TUser: 0  TLast: 0  Operation# 58
%%    730 ns    Log    INFO      in transmitter_1,                Axi Stream Send.  TData: 00000035  TStrb: 1111  TKeep: 1111  TID: 00  TDest: 0  TUser: 0  TLast: 0  Operation# 59
%%    740 ns    Log    INFO      in transmitter_1,                Axi Stream Send.  TData: 00000037  TStrb: 1111  TKeep: 1111  TID: 00  TDest: 0  TUser: 0  TLast: 0  Operation# 60
%%    750 ns    Log    INFO      in transmitter_1,                Axi Stream Send.  TData: 00000039  TStrb: 1111  TKeep: 1111  TID: 00  TDest: 0  TUser: 0  TLast: 0  Operation# 61
%%    760 ns    Log    INFO      in transmitter_1,                Axi Stream Send.  TData: 0000003B  TStrb: 1111  TKeep: 1111  TID: 00  TDest: 0  TUser: 0  TLast: 1  Operation# 62
%%    770 ns    Log    INFO      in receiver_1,                   Burst Receive.  Operation# 2  Last Data: 0000003B  TID: 00  TDest: 0  TUser: 0  TLast: 1
%%    770 ns    Log    PASSED    in Default,                      Receiver: NumBytes Received Received : 30
%%    770 ns    Log    PASSED    in receiver_1: RxBurstFifo,      Received: 00000001   Item Number: 33
%%    770 ns    Log    PASSED    in receiver_1: RxBurstFifo,      Received: 00000003   Item Number: 34
%%    770 ns    Log    PASSED    in receiver_1: RxBurstFifo,      Received: 00000005   Item Number: 35
%%    770 ns    Log    PASSED    in receiver_1: RxBurstFifo,      Received: 00000007   Item Number: 36
%%    770 ns    Log    PASSED    in receiver_1: RxBurstFifo,      Received: 00000009   Item Number: 37
%%    770 ns    Log    PASSED    in receiver_1: RxBurstFifo,      Received: 0000000B   Item Number: 38
%%    770 ns    Log    PASSED    in receiver_1: RxBurstFifo,      Received: 0000000D   Item Number: 39
%%    770 ns    Log    PASSED    in receiver_1: RxBurstFifo,      Received: 0000000F   Item Number: 40
%%    770 ns    Log    PASSED    in receiver_1: RxBurstFifo,      Received: 00000011   Item Number: 41
%%    770 ns    Log    PASSED    in receiver_1: RxBurstFifo,      Received: 00000013   Item Number: 42
%%    770 ns    Log    PASSED    in receiver_1: RxBurstFifo,      Received: 00000015   Item Number: 43
%%    770 ns    Log    PASSED    in receiver_1: RxBurstFifo,      Received: 00000017   Item Number: 44
%%    770 ns    Log    PASSED    in receiver_1: RxBurstFifo,      Received: 00000019   Item Number: 45
%%    770 ns    Log    PASSED    in receiver_1: RxBurstFifo,      Received: 0000001B   Item Number: 46
%%    770 ns    Log    PASSED    in receiver_1: RxBurstFifo,      Received: 0000001D   Item Number: 47
%%    770 ns    Log    PASSED    in receiver_1: RxBurstFifo,      Received: 0000001F   Item Number: 48
%%    770 ns    Log    PASSED    in receiver_1: RxBurstFifo,      Received: 00000021   Item Number: 49
%%    770 ns    Log    PASSED    in receiver_1: RxBurstFifo,      Received: 00000023   Item Number: 50
%%    770 ns    Log    PASSED    in receiver_1: RxBurstFifo,      Received: 00000025   Item Number: 51
%%    770 ns    Log    PASSED    in receiver_1: RxBurstFifo,      Received: 00000027   Item Number: 52
%%    770 ns    Log    PASSED    in receiver_1: RxBurstFifo,      Received: 00000029   Item Number: 53
%%    770 ns    Log    PASSED    in receiver_1: RxBurstFifo,      Received: 0000002B   Item Number: 54
%%    770 ns    Log    PASSED    in receiver_1: RxBurstFifo,      Received: 0000002D   Item Number: 55
%%    770 ns    Log    PASSED    in receiver_1: RxBurstFifo,      Received: 0000002F   Item Number: 56
%%    770 ns    Log    PASSED    in receiver_1: RxBurstFifo,      Received: 00000031   Item Number: 57
%%    770 ns    Log    PASSED    in receiver_1: RxBurstFifo,      Received: 00000033   Item Number: 58
%%    770 ns    Log    PASSED    in receiver_1: RxBurstFifo,      Received: 00000035   Item Number: 59
%%    770 ns    Log    PASSED    in receiver_1: RxBurstFifo,      Received: 00000037   Item Number: 60
%%    770 ns    Log    PASSED    in receiver_1: RxBurstFifo,      Received: 00000039   Item Number: 61
%%    770 ns    Log    PASSED    in receiver_1: RxBurstFifo,      Received: 0000003B   Item Number: 62
%%    810 ns    Log    ALWAYS    in Default,                      Transmit 34 Bytes -- unaligned
%%    810 ns    Log    INFO      in transmitter_1,                Axi Stream Send.  TData: 00000007  TStrb: 1111  TKeep: 1111  TID: 00  TDest: 0  TUser: 0  TLast: 0  Operation# 63
%%    820 ns    Log    INFO      in transmitter_1,                Axi Stream Send.  TData: D212BD36  TStrb: 1111  TKeep: 1111  TID: 00  TDest: 0  TUser: 0  TLast: 0  Operation# 64
%%    830 ns    Log    INFO      in transmitter_1,                Axi Stream Send.  TData: 57A2241D  TStrb: 1111  TKeep: 1111  TID: 00  TDest: 0  TUser: 0  TLast: 0  Operation# 65
%%    840 ns    Log    INFO      in transmitter_1,                Axi Stream Send.  TData: 69A8E241  TStrb: 1111  TKeep: 1111  TID: 00  TDest: 0  TUser: 0  TLast: 0  Operation# 66
%%    850 ns    Log    INFO      in transmitter_1,                Axi Stream Send.  TData: 5BD71872  TStrb: 1111  TKeep: 1111  TID: 00  TDest: 0  TUser: 0  TLast: 0  Operation# 67
%%    860 ns    Log    INFO      in transmitter_1,                Axi Stream Send.  TData: 63E8B2A0  TStrb: 1111  TKeep: 1111  TID: 00  TDest: 0  TUser: 0  TLast: 0  Operation# 68
%%    870 ns    Log    INFO      in transmitter_1,                Axi Stream Send.  TData: 6ECC4363  TStrb: 1111  TKeep: 1111  TID: 00  TDest: 0  TUser: 0  TLast: 0  Operation# 69
%%    880 ns    Log    INFO      in transmitter_1,                Axi Stream Send.  TData: 95D9F7AA  TStrb: 1111  TKeep: 1111  TID: 00  TDest: 0  TUser: 0  TLast: 0  Operation# 70
%%    890 ns    Log    INFO      in transmitter_1,                Axi Stream Send.  TData: 2CC54527  TStrb: 1111  TKeep: 1111  TID: 00  TDest: 0  TUser: 0  TLast: 0  Operation# 71
%%    900 ns    Log    INFO      in transmitter_1,                Axi Stream Send.  TData: 598DA423  TStrb: 1111  TKeep: 1111  TID: 00  TDest: 0  TUser: 0  TLast: 0  Operation# 72
%%    910 ns    Log    INFO      in transmitter_1,                Axi Stream Send.  TData: EDB81754  TStrb: 1111  TKeep: 1111  TID: 00  TDest: 0  TUser: 0  TLast: 0  Operation# 73
%%    920 ns    Log    INFO      in transmitter_1,                Axi Stream Send.  TData: 00CB763E  TStrb: 1111  TKeep: 1111  TID: 00  TDest: 0  TUser: 0  TLast: 0  Operation# 74
%%    930 ns    Log    INFO      in transmitter_1,                Axi Stream Send.  TData: DC0D1078  TStrb: 1111  TKeep: 1111  TID: 00  TDest: 0  TUser: 0  TLast: 0  Operation# 75
%%    940 ns    Log    INFO      in transmitter_1,                Axi Stream Send.  TData: 4FE9D7FB  TStrb: 1111  TKeep: 1111  TID: 00  TDest: 0  TUser: 0  TLast: 0  Operation# 76
%%    950 ns    Log    INFO      in transmitter_1,                Axi Stream Send.  TData: 9AC00349  TStrb: 1111  TKeep: 1111  TID: 00  TDest: 0  TUser: 0  TLast: 0  Operation# 77
%%    960 ns    Log    INFO      in transmitter_1,                Axi Stream Send.  TData: 99CF7D6B  TStrb: 1111  TKeep: 1111  TID: 00  TDest: 0  TUser: 0  TLast: 0  Operation# 78
%%    970 ns    Log    INFO      in transmitter_1,                Axi Stream Send.  TData: 6B7648E2  TStrb: 1111  TKeep: 1111  TID: 00  TDest: 0  TUser: 0  TLast: 0  Operation# 79
%%    980 ns    Log    INFO      in transmitter_1,                Axi Stream Send.  TData: C9CF8704  TStrb: 1111  TKeep: 1111  TID: 00  TDest: 0  TUser: 0  TLast: 0  Operation# 80
%%    990 ns    Log    INFO      in transmitter_1,                Axi Stream Send.  TData: 666D022B  TStrb: 1111  TKeep: 1111  TID: 00  TDest: 0  TUser: 0  TLast: 0  Operation# 81
%%   1000 ns    Log    INFO      in transmitter_1,                Axi Stream Send.  TData: 8BF72BC4  TStrb: 1111  TKeep: 1111  TID: 00  TDest: 0  TUser: 0  TLast: 0  Operation# 82
%%   1010 ns    Log    INFO      in transmitter_1,                Axi Stream Send.  TData: 42A2C67C  TStrb: 1111  TKeep: 1111  TID: 00  TDest: 0  TUser: 0  TLast: 0  Operation# 83
%%   1020 ns    Log    INFO      in transmitter_1,                Axi Stream Send.  TData: 4FE5F946  TStrb: 1111  TKeep: 1111  TID: 00  TDest: 0  TUser: 0  TLast: 0  Operation# 84
%%   1030 ns    Log    INFO      in transmitter_1,                Axi Stream Send.  TData: 8A6B08D2  TStrb: 1111  TKeep: 1111  TID: 00  TDest: 0  TUser: 0  TLast: 0  Operation# 85
%%   1040 ns    Log    INFO      in transmitter_1,                Axi Stream Send.  TData: B6AB7A63  TStrb: 1111  TKeep: 1111  TID: 00  TDest: 0  TUser: 0  TLast: 0  Operation# 86
%%   1050 ns    Log    INFO      in transmitter_1,                Axi Stream Send.  TData: E0407FC9  TStrb: 1111  TKeep: 1111  TID: 00  TDest: 0  TUser: 0  TLast: 0  Operation# 87
%%   1060 ns    Log    INFO      in transmitter_1,                Axi Stream Send.  TData: 9028653B  TStrb: 1111  TKeep: 1111  TID: 00  TDest: 0  TUser: 0  TLast: 0  Operation# 88
%%   1070 ns    Log    INFO      in transmitter_1,                Axi Stream Send.  TData: E4355C9A  TStrb: 1111  TKeep: 1111  TID: 00  TDest: 0  TUser: 0  TLast: 0  Operation# 89
%%   1080 ns    Log    INFO      in transmitter_1,                Axi Stream Send.  TData: 94068752  TStrb: 1111  TKeep: 1111  TID: 00  TDest: 0  TUser: 0  TLast: 0  Operation# 90
%%   1090 ns    Log    INFO      in transmitter_1,                Axi Stream Send.  TData: 2E3B5613  TStrb: 1111  TKeep: 1111  TID: 00  TDest: 0  TUser: 0  TLast: 0  Operation# 91
%%   1100 ns    Log    INFO      in transmitter_1,                Axi Stream Send.  TData: ABE134D3  TStrb: 1111  TKeep: 1111  TID: 00  TDest: 0  TUser: 0  TLast: 0  Operation# 92
%%   1110 ns    Log    INFO      in transmitter_1,                Axi Stream Send.  TData: 3C61861F  TStrb: 1111  TKeep: 1111  TID: 00  TDest: 0  TUser: 0  TLast: 0  Operation# 93
%%   1120 ns    Log    INFO      in transmitter_1,                Axi Stream Send.  TData: A24B239C  TStrb: 1111  TKeep: 1111  TID: 00  TDest: 0  TUser: 0  TLast: 0  Operation# 94
%%   1130 ns    Log    INFO      in transmitter_1,                Axi Stream Send.  TData: AC948192  TStrb: 1111  TKeep: 1111  TID: 00  TDest: 0  TUser: 0  TLast: 0  Operation# 95
%%   1140 ns    Log    INFO      in transmitter_1,                Axi Stream Send.  TData: FC30C515  TStrb: 1111  TKeep: 1111  TID: 00  TDest: 0  TUser: 0  TLast: 1  Operation# 96
%%   1150 ns    Log    INFO      in receiver_1,                   Burst Receive.  Operation# 3  Last Data: FC30C515  TID: 00  TDest: 0  TUser: 0  TLast: 1
%%   1150 ns    Log    ALWAYS    in Default,                      Transmit 32 Bytes. Starting with 0
%%   1150 ns    Log    PASSED    in Default,                      Receiver: NumBytes Received Received : 34
%%   1150 ns    Log    PASSED    in receiver_1: RxBurstFifo,      Received: 00000007   Item Number: 63
%%   1150 ns    Log    PASSED    in receiver_1: RxBurstFifo,      Received: D212BD36   Item Number: 64
%%   1150 ns    Log    PASSED    in receiver_1: RxBurstFifo,      Received: 57A2241D   Item Number: 65
%%   1150 ns    Log    PASSED    in receiver_1: RxBurstFifo,      Received: 69A8E241   Item Number: 66
%%   1150 ns    Log    PASSED    in receiver_1: RxBurstFifo,      Received: 5BD71872   Item Number: 67
%%   1150 ns    Log    PASSED    in receiver_1: RxBurstFifo,      Received: 63E8B2A0   Item Number: 68
%%   1150 ns    Log    PASSED    in receiver_1: RxBurstFifo,      Received: 6ECC4363   Item Number: 69
%%   1150 ns    Log    PASSED    in receiver_1: RxBurstFifo,      Received: 95D9F7AA   Item Number: 70
%%   1150 ns    Log    PASSED    in receiver_1: RxBurstFifo,      Received: 2CC54527   Item Number: 71
%%   1150 ns    Log    PASSED    in receiver_1: RxBurstFifo,      Received: 598DA423   Item Number: 72
%%   1150 ns    Log    PASSED    in receiver_1: RxBurstFifo,      Received: EDB81754   Item Number: 73
%%   1150 ns    Log    PASSED    in receiver_1: RxBurstFifo,      Received: 00CB763E   Item Number: 74
%%   1150 ns    Log    PASSED    in receiver_1: RxBurstFifo,      Received: DC0D1078   Item Number: 75
%%   1150 ns    Log    PASSED    in receiver_1: RxBurstFifo,      Received: 4FE9D7FB   Item Number: 76
%%   1150 ns    Log    PASSED    in receiver_1: RxBurstFifo,      Received: 9AC00349   Item Number: 77
%%   1150 ns    Log    PASSED    in receiver_1: RxBurstFifo,      Received: 99CF7D6B   Item Number: 78
%%   1150 ns    Log    PASSED    in receiver_1: RxBurstFifo,      Received: 6B7648E2   Item Number: 79
%%   1150 ns    Log    PASSED    in receiver_1: RxBurstFifo,      Received: C9CF8704   Item Number: 80
%%   1150 ns    Log    PASSED    in receiver_1: RxBurstFifo,      Received: 666D022B   Item Number: 81
%%   1150 ns    Log    PASSED    in receiver_1: RxBurstFifo,      Received: 8BF72BC4   Item Number: 82
%%   1150 ns    Log    PASSED    in receiver_1: RxBurstFifo,      Received: 42A2C67C   Item Number: 83
%%   1150 ns    Log    PASSED    in receiver_1: RxBurstFifo,      Received: 4FE5F946   Item Number: 84
%%   1150 ns    Log    PASSED    in receiver_1: RxBurstFifo,      Received: 8A6B08D2   Item Number: 85
%%   1150 ns    Log    PASSED    in receiver_1: RxBurstFifo,      Received: B6AB7A63   Item Number: 86
%%   1150 ns    Log    PASSED    in receiver_1: RxBurstFifo,      Received: E0407FC9   Item Number: 87
%%   1150 ns    Log    PASSED    in receiver_1: RxBurstFifo,      Received: 9028653B   Item Number: 88
%%   1150 ns    Log    PASSED    in receiver_1: RxBurstFifo,      Received: E4355C9A   Item Number: 89
%%   1150 ns    Log    PASSED    in receiver_1: RxBurstFifo,      Received: 94068752   Item Number: 90
%%   1150 ns    Log    PASSED    in receiver_1: RxBurstFifo,      Received: 2E3B5613   Item Number: 91
%%   1150 ns    Log    PASSED    in receiver_1: RxBurstFifo,      Received: ABE134D3   Item Number: 92
%%   1150 ns    Log    PASSED    in receiver_1: RxBurstFifo,      Received: 3C61861F   Item Number: 93
%%   1150 ns    Log    PASSED    in receiver_1: RxBurstFifo,      Received: A24B239C   Item Number: 94
%%   1150 ns    Log    PASSED    in receiver_1: RxBurstFifo,      Received: AC948192   Item Number: 95
%%   1150 ns    Log    PASSED    in receiver_1: RxBurstFifo,      Received: FC30C515   Item Number: 96
%%   1150 ns    Log    INFO      in transmitter_1,                Axi Stream Send.  TData: 00000000  TStrb: 1111  TKeep: 1111  TID: 00  TDest: 0  TUser: 0  TLast: 0  Operation# 97
%%   1160 ns    Log    INFO      in transmitter_1,                Axi Stream Send.  TData: 00000001  TStrb: 1111  TKeep: 1111  TID: 00  TDest: 0  TUser: 0  TLast: 0  Operation# 98
%%   1170 ns    Log    INFO      in transmitter_1,                Axi Stream Send.  TData: 00000002  TStrb: 1111  TKeep: 1111  TID: 00  TDest: 0  TUser: 0  TLast: 0  Operation# 99
%%   1180 ns    Log    INFO      in transmitter_1,                Axi Stream Send.  TData: 00000003  TStrb: 1111  TKeep: 1111  TID: 00  TDest: 0  TUser: 0  TLast: 0  Operation# 100
%%   1190 ns    Log    INFO      in transmitter_1,                Axi Stream Send.  TData: 00000004  TStrb: 1111  TKeep: 1111  TID: 00  TDest: 0  TUser: 0  TLast: 0  Operation# 101
%%   1200 ns    Log    INFO      in transmitter_1,                Axi Stream Send.  TData: 00000005  TStrb: 1111  TKeep: 1111  TID: 00  TDest: 0  TUser: 0  TLast: 0  Operation# 102
%%   1210 ns    Log    INFO      in transmitter_1,                Axi Stream Send.  TData: 00000006  TStrb: 1111  TKeep: 1111  TID: 00  TDest: 0  TUser: 0  TLast: 0  Operation# 103
%%   1220 ns    Log    INFO      in transmitter_1,                Axi Stream Send.  TData: 00000007  TStrb: 1111  TKeep: 1111  TID: 00  TDest: 0  TUser: 0  TLast: 0  Operation# 104
%%   1230 ns    Log    INFO      in transmitter_1,                Axi Stream Send.  TData: 00000008  TStrb: 1111  TKeep: 1111  TID: 00  TDest: 0  TUser: 0  TLast: 0  Operation# 105
%%   1240 ns    Log    INFO      in transmitter_1,                Axi Stream Send.  TData: 00000009  TStrb: 1111  TKeep: 1111  TID: 00  TDest: 0  TUser: 0  TLast: 0  Operation# 106
%%   1250 ns    Log    INFO      in transmitter_1,                Axi Stream Send.  TData: 0000000A  TStrb: 1111  TKeep: 1111  TID: 00  TDest: 0  TUser: 0  TLast: 0  Operation# 107
%%   1260 ns    Log    INFO      in transmitter_1,                Axi Stream Send.  TData: 0000000B  TStrb: 1111  TKeep: 1111  TID: 00  TDest: 0  TUser: 0  TLast: 0  Operation# 108
%%   1270 ns    Log    INFO      in transmitter_1,                Axi Stream Send.  TData: 0000000C  TStrb: 1111  TKeep: 1111  TID: 00  TDest: 0  TUser: 0  TLast: 0  Operation# 109
%%   1280 ns    Log    INFO      in transmitter_1,                Axi Stream Send.  TData: 0000000D  TStrb: 1111  TKeep: 1111  TID: 00  TDest: 0  TUser: 0  TLast: 0  Operation# 110
%%   1290 ns    Log    INFO      in transmitter_1,                Axi Stream Send.  TData: 0000000E  TStrb: 1111  TKeep: 1111  TID: 00  TDest: 0  TUser: 0  TLast: 0  Operation# 111
%%   1300 ns    Log    INFO      in transmitter_1,                Axi Stream Send.  TData: 0000000F  TStrb: 1111  TKeep: 1111  TID: 00  TDest: 0  TUser: 0  TLast: 0  Operation# 112
%%   1310 ns    Log    INFO      in transmitter_1,                Axi Stream Send.  TData: 00000010  TStrb: 1111  TKeep: 1111  TID: 00  TDest: 0  TUser: 0  TLast: 0  Operation# 113
%%   1320 ns    Log    INFO      in transmitter_1,                Axi Stream Send.  TData: 00000011  TStrb: 1111  TKeep: 1111  TID: 00  TDest: 0  TUser: 0  TLast: 0  Operation# 114
%%   1330 ns    Log    INFO      in transmitter_1,                Axi Stream Send.  TData: 00000012  TStrb: 1111  TKeep: 1111  TID: 00  TDest: 0  TUser: 0  TLast: 0  Operation# 115
%%   1340 ns    Log    INFO      in transmitter_1,                Axi Stream Send.  TData: 00000013  TStrb: 1111  TKeep: 1111  TID: 00  TDest: 0  TUser: 0  TLast: 0  Operation# 116
%%   1350 ns    Log    INFO      in transmitter_1,                Axi Stream Send.  TData: 00000014  TStrb: 1111  TKeep: 1111  TID: 00  TDest: 0  TUser: 0  TLast: 0  Operation# 117
%%   1360 ns    Log    INFO      in transmitter_1,                Axi Stream Send.  TData: 00000015  TStrb: 1111  TKeep: 1111  TID: 00  TDest: 0  TUser: 0  TLast: 0  Operation# 118
%%   1370 ns    Log    INFO      in transmitter_1,                Axi Stream Send.  TData: 00000016  TStrb: 1111  TKeep: 1111  TID: 00  TDest: 0  TUser: 0  TLast: 0  Operation# 119
%%   1380 ns    Log    INFO      in transmitter_1,                Axi Stream Send.  TData: 00000017  TStrb: 1111  TKeep: 1111  TID: 00  TDest: 0  TUser: 0  TLast: 0  Operation# 120
%%   1390 ns    Log    INFO      in transmitter_1,                Axi Stream Send.  TData: 00000018  TStrb: 1111  TKeep: 1111  TID: 00  TDest: 0  TUser: 0  TLast: 0  Operation# 121
%%   1400 ns    Log    INFO      in transmitter_1,                Axi Stream Send.  TData: 00000019  TStrb: 1111  TKeep: 1111  TID: 00  TDest: 0  TUser: 0  TLast: 0  Operation# 122
%%   1410 ns    Log    INFO      in transmitter_1,                Axi Stream Send.  TData: 0000001A  TStrb: 1111  TKeep: 1111  TID: 00  TDest: 0  TUser: 0  TLast: 0  Operation# 123
%%   1420 ns    Log    INFO      in transmitter_1,                Axi Stream Send.  TData: 0000001B  TStrb: 1111  TKeep: 1111  TID: 00  TDest: 0  TUser: 0  TLast: 0  Operation# 124
%%   1430 ns    Log    INFO      in transmitter_1,                Axi Stream Send.  TData: 0000001C  TStrb: 1111  TKeep: 1111  TID: 00  TDest: 0  TUser: 0  TLast: 0  Operation# 125
%%   1440 ns    Log    INFO      in transmitter_1,                Axi Stream Send.  TData: 0000001D  TStrb: 1111  TKeep: 1111  TID: 00  TDest: 0  TUser: 0  TLast: 0  Operation# 126
%%   1450 ns    Log    INFO      in transmitter_1,                Axi Stream Send.  TData: 0000001E  TStrb: 1111  TKeep: 1111  TID: 00  TDest: 0  TUser: 0  TLast: 0  Operation# 127
%%   1460 ns    Log    INFO      in transmitter_1,                Axi Stream Send.  TData: 0000001F  TStrb: 1111  TKeep: 1111  TID: 00  TDest: 0  TUser: 0  TLast: 1  Operation# 128
%%   1470 ns    Log    INFO      in receiver_1,                   Burst Receive.  Operation# 4  Last Data: 0000001F  TID: 00  TDest: 0  TUser: 0  TLast: 1
%%   1470 ns    Log    ALWAYS    in Default,                      Transmit 37 Bytes. Starting with 32
%%   1470 ns    Log    PASSED    in Default,                      Receiver: NumBytes Received Received : 32
%%   1470 ns    Log    PASSED    in receiver_1: RxBurstFifo,      Received: 00000000   Item Number: 97
%%   1470 ns    Log    PASSED    in receiver_1: RxBurstFifo,      Received: 00000001   Item Number: 98
%%   1470 ns    Log    PASSED    in receiver_1: RxBurstFifo,      Received: 00000002   Item Number: 99
%%   1470 ns    Log    PASSED    in receiver_1: RxBurstFifo,      Received: 00000003   Item Number: 100
%%   1470 ns    Log    PASSED    in receiver_1: RxBurstFifo,      Received: 00000004   Item Number: 101
%%   1470 ns    Log    PASSED    in receiver_1: RxBurstFifo,      Received: 00000005   Item Number: 102
%%   1470 ns    Log    PASSED    in receiver_1: RxBurstFifo,      Received: 00000006   Item Number: 103
%%   1470 ns    Log    PASSED    in receiver_1: RxBurstFifo,      Received: 00000007   Item Number: 104
%%   1470 ns    Log    PASSED    in receiver_1: RxBurstFifo,      Received: 00000008   Item Number: 105
%%   1470 ns    Log    PASSED    in receiver_1: RxBurstFifo,      Received: 00000009   Item Number: 106
%%   1470 ns    Log    PASSED    in receiver_1: RxBurstFifo,      Received: 0000000A   Item Number: 107
%%   1470 ns    Log    PASSED    in receiver_1: RxBurstFifo,      Received: 0000000B   Item Number: 108
%%   1470 ns    Log    PASSED    in receiver_1: RxBurstFifo,      Received: 0000000C   Item Number: 109
%%   1470 ns    Log    PASSED    in receiver_1: RxBurstFifo,      Received: 0000000D   Item Number: 110
%%   1470 ns    Log    PASSED    in receiver_1: RxBurstFifo,      Received: 0000000E   Item Number: 111
%%   1470 ns    Log    PASSED    in receiver_1: RxBurstFifo,      Received: 0000000F   Item Number: 112
%%   1470 ns    Log    PASSED    in receiver_1: RxBurstFifo,      Received: 00000010   Item Number: 113
%%   1470 ns    Log    PASSED    in receiver_1: RxBurstFifo,      Received: 00000011   Item Number: 114
%%   1470 ns    Log    PASSED    in receiver_1: RxBurstFifo,      Received: 00000012   Item Number: 115
%%   1470 ns    Log    PASSED    in receiver_1: RxBurstFifo,      Received: 00000013   Item Number: 116
%%   1470 ns    Log    PASSED    in receiver_1: RxBurstFifo,      Received: 00000014   Item Number: 117
%%   1470 ns    Log    PASSED    in receiver_1: RxBurstFifo,      Received: 00000015   Item Number: 118
%%   1470 ns    Log    PASSED    in receiver_1: RxBurstFifo,      Received: 00000016   Item Number: 119
%%   1470 ns    Log    PASSED    in receiver_1: RxBurstFifo,      Received: 00000017   Item Number: 120
%%   1470 ns    Log    PASSED    in receiver_1: RxBurstFifo,      Received: 00000018   Item Number: 121
%%   1470 ns    Log    PASSED    in receiver_1: RxBurstFifo,      Received: 00000019   Item Number: 122
%%   1470 ns    Log    PASSED    in receiver_1: RxBurstFifo,      Received: 0000001A   Item Number: 123
%%   1470 ns    Log    PASSED    in receiver_1: RxBurstFifo,      Received: 0000001B   Item Number: 124
%%   1470 ns    Log    PASSED    in receiver_1: RxBurstFifo,      Received: 0000001C   Item Number: 125
%%   1470 ns    Log    PASSED    in receiver_1: RxBurstFifo,      Received: 0000001D   Item Number: 126
%%   1470 ns    Log    PASSED    in receiver_1: RxBurstFifo,      Received: 0000001E   Item Number: 127
%%   1470 ns    Log    PASSED    in receiver_1: RxBurstFifo,      Received: 0000001F   Item Number: 128
%%   1470 ns    Log    INFO      in transmitter_1,                Axi Stream Send.  TData: 00000020  TStrb: 1111  TKeep: 1111  TID: 00  TDest: 0  TUser: 0  TLast: 0  Operation# 129
%%   1480 ns    Log    INFO      in transmitter_1,                Axi Stream Send.  TData: 00000021  TStrb: 1111  TKeep: 1111  TID: 00  TDest: 0  TUser: 0  TLast: 0  Operation# 130
%%   1490 ns    Log    INFO      in transmitter_1,                Axi Stream Send.  TData: 00000022  TStrb: 1111  TKeep: 1111  TID: 00  TDest: 0  TUser: 0  TLast: 0  Operation# 131
%%   1500 ns    Log    INFO      in transmitter_1,                Axi Stream Send.  TData: 00000023  TStrb: 1111  TKeep: 1111  TID: 00  TDest: 0  TUser: 0  TLast: 0  Operation# 132
%%   1510 ns    Log    INFO      in transmitter_1,                Axi Stream Send.  TData: 00000024  TStrb: 1111  TKeep: 1111  TID: 00  TDest: 0  TUser: 0  TLast: 0  Operation# 133
%%   1520 ns    Log    INFO      in transmitter_1,                Axi Stream Send.  TData: 00000025  TStrb: 1111  TKeep: 1111  TID: 00  TDest: 0  TUser: 0  TLast: 0  Operation# 134
%%   1530 ns    Log    INFO      in transmitter_1,                Axi Stream Send.  TData: 00000026  TStrb: 1111  TKeep: 1111  TID: 00  TDest: 0  TUser: 0  TLast: 0  Operation# 135
%%   1540 ns    Log    INFO      in transmitter_1,                Axi Stream Send.  TData: 00000027  TStrb: 1111  TKeep: 1111  TID: 00  TDest: 0  TUser: 0  TLast: 0  Operation# 136
%%   1550 ns    Log    INFO      in transmitter_1,                Axi Stream Send.  TData: 00000028  TStrb: 1111  TKeep: 1111  TID: 00  TDest: 0  TUser: 0  TLast: 0  Operation# 137
%%   1560 ns    Log    INFO      in transmitter_1,                Axi Stream Send.  TData: 00000029  TStrb: 1111  TKeep: 1111  TID: 00  TDest: 0  TUser: 0  TLast: 0  Operation# 138
%%   1570 ns    Log    INFO      in transmitter_1,                Axi Stream Send.  TData: 0000002A  TStrb: 1111  TKeep: 1111  TID: 00  TDest: 0  TUser: 0  TLast: 0  Operation# 139
%%   1580 ns    Log    INFO      in transmitter_1,                Axi Stream Send.  TData: 0000002B  TStrb: 1111  TKeep: 1111  TID: 00  TDest: 0  TUser: 0  TLast: 0  Operation# 140
%%   1590 ns    Log    INFO      in transmitter_1,                Axi Stream Send.  TData: 0000002C  TStrb: 1111  TKeep: 1111  TID: 00  TDest: 0  TUser: 0  TLast: 0  Operation# 141
%%   1600 ns    Log    INFO      in transmitter_1,                Axi Stream Send.  TData: 0000002D  TStrb: 1111  TKeep: 1111  TID: 00  TDest: 0  TUser: 0  TLast: 0  Operation# 142
%%   1610 ns    Log    INFO      in transmitter_1,                Axi Stream Send.  TData: 0000002E  TStrb: 1111  TKeep: 1111  TID: 00  TDest: 0  TUser: 0  TLast: 0  Operation# 143
%%   1620 ns    Log    INFO      in transmitter_1,                Axi Stream Send.  TData: 0000002F  TStrb: 1111  TKeep: 1111  TID: 00  TDest: 0  TUser: 0  TLast: 0  Operation# 144
%%   1630 ns    Log    INFO      in transmitter_1,                Axi Stream Send.  TData: 00000030  TStrb: 1111  TKeep: 1111  TID: 00  TDest: 0  TUser: 0  TLast: 0  Operation# 145
%%   1640 ns    Log    INFO      in transmitter_1,                Axi Stream Send.  TData: 00000031  TStrb: 1111  TKeep: 1111  TID: 00  TDest: 0  TUser: 0  TLast: 0  Operation# 146
%%   1650 ns    Log    INFO      in transmitter_1,                Axi Stream Send.  TData: 00000032  TStrb: 1111  TKeep: 1111  TID: 00  TDest: 0  TUser: 0  TLast: 0  Operation# 147
%%   1660 ns    Log    INFO      in transmitter_1,                Axi Stream Send.  TData: 00000033  TStrb: 1111  TKeep: 1111  TID: 00  TDest: 0  TUser: 0  TLast: 0  Operation# 148
%%   1670 ns    Log    INFO      in transmitter_1,                Axi Stream Send.  TData: 00000034  TStrb: 1111  TKeep: 1111  TID: 00  TDest: 0  TUser: 0  TLast: 0  Operation# 149
%%   1680 ns    Log    INFO      in transmitter_1,                Axi Stream Send.  TData: 00000035  TStrb: 1111  TKeep: 1111  TID: 00  TDest: 0  TUser: 0  TLast: 0  Operation# 150
%%   1690 ns    Log    INFO      in transmitter_1,                Axi Stream Send.  TData: 00000036  TStrb: 1111  TKeep: 1111  TID: 00  TDest: 0  TUser: 0  TLast: 0  Operation# 151
%%   1700 ns    Log    INFO      in transmitter_1,                Axi Stream Send.  TData: 00000037  TStrb: 1111  TKeep: 1111  TID: 00  TDest: 0  TUser: 0  TLast: 0  Operation# 152
%%   1710 ns    Log    INFO      in transmitter_1,                Axi Stream Send.  TData: 00000038  TStrb: 1111  TKeep: 1111  TID: 00  TDest: 0  TUser: 0  TLast: 0  Operation# 153
%%   1720 ns    Log    INFO      in transmitter_1,                Axi Stream Send.  TData: 00000039  TStrb: 1111  TKeep: 1111  TID: 00  TDest: 0  TUser: 0  TLast: 0  Operation# 154
%%   1730 ns    Log    INFO      in transmitter_1,                Axi Stream Send.  TData: 0000003A  TStrb: 1111  TKeep: 1111  TID: 00  TDest: 0  TUser: 0  TLast: 0  Operation# 155
%%   1740 ns    Log    INFO      in transmitter_1,                Axi Stream Send.  TData: 0000003B  TStrb: 1111  TKeep: 1111  TID: 00  TDest: 0  TUser: 0  TLast: 0  Operation# 156
%%   1750 ns    Log    INFO      in transmitter_1,                Axi Stream Send.  TData: 0000003C  TStrb: 1111  TKeep: 1111  TID: 00  TDest: 0  TUser: 0  TLast: 0  Operation# 157
%%   1760 ns    Log    INFO      in transmitter_1,                Axi Stream Send.  TData: 0000003D  TStrb: 1111  TKeep: 1111  TID: 00  TDest: 0  TUser: 0  TLast: 0  Operation# 158
%%   1770 ns    Log    INFO      in transmitter_1,                Axi Stream Send.  TData: 0000003E  TStrb: 1111  TKeep: 1111  TID: 00  TDest: 0  TUser: 0  TLast: 0  Operation# 159
%%   1780 ns    Log    INFO      in transmitter_1,                Axi Stream Send.  TData: 0000003F  TStrb: 1111  TKeep: 1111  TID: 00  TDest: 0  TUser: 0  TLast: 0  Operation# 160
%%   1790 ns    Log    INFO      in transmitter_1,                Axi Stream Send.  TData: 00000040  TStrb: 1111  TKeep: 1111  TID: 00  TDest: 0  TUser: 0  TLast: 0  Operation# 161
%%   1800 ns    Log    INFO      in transmitter_1,                Axi Stream Send.  TData: 00000041  TStrb: 1111  TKeep: 1111  TID: 00  TDest: 0  TUser: 0  TLast: 0  Operation# 162
%%   1810 ns    Log    INFO      in transmitter_1,                Axi Stream Send.  TData: 00000042  TStrb: 1111  TKeep: 1111  TID: 00  TDest: 0  TUser: 0  TLast: 0  Operation# 163
%%   1820 ns    Log    INFO      in transmitter_1,                Axi Stream Send.  TData: 00000043  TStrb: 1111  TKeep: 1111  TID: 00  TDest: 0  TUser: 0  TLast: 0  Operation# 164
%%   1830 ns    Log    INFO      in transmitter_1,                Axi Stream Send.  TData: 00000044  TStrb: 1111  TKeep: 1111  TID: 00  TDest: 0  TUser: 0  TLast: 1  Operation# 165
%%   1840 ns    Log    INFO      in receiver_1,                   Burst Receive.  Operation# 5  Last Data: 00000044  TID: 00  TDest: 0  TUser: 0  TLast: 1
%%   1840 ns    Log    ALWAYS    in Default,                      Transmit 42 Bytes. Starting with 64
%%   1840 ns    Log    PASSED    in Default,                      Receiver: NumBytes Received Received : 37
%%   1840 ns    Log    PASSED    in receiver_1: RxBurstFifo,      Received: 00000020   Item Number: 129
%%   1840 ns    Log    PASSED    in receiver_1: RxBurstFifo,      Received: 00000021   Item Number: 130
%%   1840 ns    Log    PASSED    in receiver_1: RxBurstFifo,      Received: 00000022   Item Number: 131
%%   1840 ns    Log    PASSED    in receiver_1: RxBurstFifo,      Received: 00000023   Item Number: 132
%%   1840 ns    Log    PASSED    in receiver_1: RxBurstFifo,      Received: 00000024   Item Number: 133
%%   1840 ns    Log    PASSED    in receiver_1: RxBurstFifo,      Received: 00000025   Item Number: 134
%%   1840 ns    Log    PASSED    in receiver_1: RxBurstFifo,      Received: 00000026   Item Number: 135
%%   1840 ns    Log    PASSED    in receiver_1: RxBurstFifo,      Received: 00000027   Item Number: 136
%%   1840 ns    Log    PASSED    in receiver_1: RxBurstFifo,      Received: 00000028   Item Number: 137
%%   1840 ns    Log    PASSED    in receiver_1: RxBurstFifo,      Received: 00000029   Item Number: 138
%%   1840 ns    Log    PASSED    in receiver_1: RxBurstFifo,      Received: 0000002A   Item Number: 139
%%   1840 ns    Log    PASSED    in receiver_1: RxBurstFifo,      Received: 0000002B   Item Number: 140
%%   1840 ns    Log    PASSED    in receiver_1: RxBurstFifo,      Received: 0000002C   Item Number: 141
%%   1840 ns    Log    PASSED    in receiver_1: RxBurstFifo,      Received: 0000002D   Item Number: 142
%%   1840 ns    Log    PASSED    in receiver_1: RxBurstFifo,      Received: 0000002E   Item Number: 143
%%   1840 ns    Log    PASSED    in receiver_1: RxBurstFifo,      Received: 0000002F   Item Number: 144
%%   1840 ns    Log    PASSED    in receiver_1: RxBurstFifo,      Received: 00000030   Item Number: 145
%%   1840 ns    Log    PASSED    in receiver_1: RxBurstFifo,      Received: 00000031   Item Number: 146
%%   1840 ns    Log    PASSED    in receiver_1: RxBurstFifo,      Received: 00000032   Item Number: 147
%%   1840 ns    Log    PASSED    in receiver_1: RxBurstFifo,      Received: 00000033   Item Number: 148
%%   1840 ns    Log    PASSED    in receiver_1: RxBurstFifo,      Received: 00000034   Item Number: 149
%%   1840 ns    Log    PASSED    in receiver_1: RxBurstFifo,      Received: 00000035   Item Number: 150
%%   1840 ns    Log    PASSED    in receiver_1: RxBurstFifo,      Received: 00000036   Item Number: 151
%%   1840 ns    Log    PASSED    in receiver_1: RxBurstFifo,      Received: 00000037   Item Number: 152
%%   1840 ns    Log    PASSED    in receiver_1: RxBurstFifo,      Received: 00000038   Item Number: 153
%%   1840 ns    Log    PASSED    in receiver_1: RxBurstFifo,      Received: 00000039   Item Number: 154
%%   1840 ns    Log    PASSED    in receiver_1: RxBurstFifo,      Received: 0000003A   Item Number: 155
%%   1840 ns    Log    PASSED    in receiver_1: RxBurstFifo,      Received: 0000003B   Item Number: 156
%%   1840 ns    Log    PASSED    in receiver_1: RxBurstFifo,      Received: 0000003C   Item Number: 157
%%   1840 ns    Log    PASSED    in receiver_1: RxBurstFifo,      Received: 0000003D   Item Number: 158
%%   1840 ns    Log    PASSED    in receiver_1: RxBurstFifo,      Received: 0000003E   Item Number: 159
%%   1840 ns    Log    PASSED    in receiver_1: RxBurstFifo,      Received: 0000003F   Item Number: 160
%%   1840 ns    Log    PASSED    in receiver_1: RxBurstFifo,      Received: 00000040   Item Number: 161
%%   1840 ns    Log    PASSED    in receiver_1: RxBurstFifo,      Received: 00000041   Item Number: 162
%%   1840 ns    Log    PASSED    in receiver_1: RxBurstFifo,      Received: 00000042   Item Number: 163
%%   1840 ns    Log    PASSED    in receiver_1: RxBurstFifo,      Received: 00000043   Item Number: 164
%%   1840 ns    Log    PASSED    in receiver_1: RxBurstFifo,      Received: 00000044   Item Number: 165
%%   1840 ns    Log    INFO      in transmitter_1,                Axi Stream Send.  TData: 00000040  TStrb: 1111  TKeep: 1111  TID: 00  TDest: 0  TUser: 0  TLast: 0  Operation# 166
%%   1850 ns    Log    INFO      in transmitter_1,                Axi Stream Send.  TData: 00000041  TStrb: 1111  TKeep: 1111  TID: 00  TDest: 0  TUser: 0  TLast: 0  Operation# 167
%%   1860 ns    Log    INFO      in transmitter_1,                Axi Stream Send.  TData: 00000042  TStrb: 1111  TKeep: 1111  TID: 00  TDest: 0  TUser: 0  TLast: 0  Operation# 168
%%   1870 ns    Log    INFO      in transmitter_1,                Axi Stream Send.  TData: 00000043  TStrb: 1111  TKeep: 1111  TID: 00  TDest: 0  TUser: 0  TLast: 0  Operation# 169
%%   1880 ns    Log    INFO      in transmitter_1,                Axi Stream Send.  TData: 00000044  TStrb: 1111  TKeep: 1111  TID: 00  TDest: 0  TUser: 0  TLast: 0  Operation# 170
%%   1890 ns    Log    INFO      in transmitter_1,                Axi Stream Send.  TData: 00000045  TStrb: 1111  TKeep: 1111  TID: 00  TDest: 0  TUser: 0  TLast: 0  Operation# 171
%%   1900 ns    Log    INFO      in transmitter_1,                Axi Stream Send.  TData: 00000046  TStrb: 1111  TKeep: 1111  TID: 00  TDest: 0  TUser: 0  TLast: 0  Operation# 172
%%   1910 ns    Log    INFO      in transmitter_1,                Axi Stream Send.  TData: 00000047  TStrb: 1111  TKeep: 1111  TID: 00  TDest: 0  TUser: 0  TLast: 0  Operation# 173
%%   1920 ns    Log    INFO      in transmitter_1,                Axi Stream Send.  TData: 00000048  TStrb: 1111  TKeep: 1111  TID: 00  TDest: 0  TUser: 0  TLast: 0  Operation# 174
%%   1930 ns    Log    INFO      in transmitter_1,                Axi Stream Send.  TData: 00000049  TStrb: 1111  TKeep: 1111  TID: 00  TDest: 0  TUser: 0  TLast: 0  Operation# 175
%%   1940 ns    Log    INFO      in transmitter_1,                Axi Stream Send.  TData: 0000004A  TStrb: 1111  TKeep: 1111  TID: 00  TDest: 0  TUser: 0  TLast: 0  Operation# 176
%%   1950 ns    Log    INFO      in transmitter_1,                Axi Stream Send.  TData: 0000004B  TStrb: 1111  TKeep: 1111  TID: 00  TDest: 0  TUser: 0  TLast: 0  Operation# 177
%%   1960 ns    Log    INFO      in transmitter_1,                Axi Stream Send.  TData: 0000004C  TStrb: 1111  TKeep: 1111  TID: 00  TDest: 0  TUser: 0  TLast: 0  Operation# 178
%%   1970 ns    Log    INFO      in transmitter_1,                Axi Stream Send.  TData: 0000004D  TStrb: 1111  TKeep: 1111  TID: 00  TDest: 0  TUser: 0  TLast: 0  Operation# 179
%%   1980 ns    Log    INFO      in transmitter_1,                Axi Stream Send.  TData: 0000004E  TStrb: 1111  TKeep: 1111  TID: 00  TDest: 0  TUser: 0  TLast: 0  Operation# 180
%%   1990 ns    Log    INFO      in transmitter_1,                Axi Stream Send.  TData: 0000004F  TStrb: 1111  TKeep: 1111  TID: 00  TDest: 0  TUser: 0  TLast: 0  Operation# 181
%%   2000 ns    Log    INFO      in transmitter_1,                Axi Stream Send.  TData: 00000050  TStrb: 1111  TKeep: 1111  TID: 00  TDest: 0  TUser: 0  TLast: 0  Operation# 182
%%   2010 ns    Log    INFO      in transmitter_1,                Axi Stream Send.  TData: 00000051  TStrb: 1111  TKeep: 1111  TID: 00  TDest: 0  TUser: 0  TLast: 0  Operation# 183
%%   2020 ns    Log    INFO      in transmitter_1,                Axi Stream Send.  TData: 00000052  TStrb: 1111  TKeep: 1111  TID: 00  TDest: 0  TUser: 0  TLast: 0  Operation# 184
%%   2030 ns    Log    INFO      in transmitter_1,                Axi Stream Send.  TData: 00000053  TStrb: 1111  TKeep: 1111  TID: 00  TDest: 0  TUser: 0  TLast: 0  Operation# 185
%%   2040 ns    Log    INFO      in transmitter_1,                Axi Stream Send.  TData: 00000054  TStrb: 1111  TKeep: 1111  TID: 00  TDest: 0  TUser: 0  TLast: 0  Operation# 186
%%   2050 ns    Log    INFO      in transmitter_1,                Axi Stream Send.  TData: 00000055  TStrb: 1111  TKeep: 1111  TID: 00  TDest: 0  TUser: 0  TLast: 0  Operation# 187
%%   2060 ns    Log    INFO      in transmitter_1,                Axi Stream Send.  TData: 00000056  TStrb: 1111  TKeep: 1111  TID: 00  TDest: 0  TUser: 0  TLast: 0  Operation# 188
%%   2070 ns    Log    INFO      in transmitter_1,                Axi Stream Send.  TData: 00000057  TStrb: 1111  TKeep: 1111  TID: 00  TDest: 0  TUser: 0  TLast: 0  Operation# 189
%%   2080 ns    Log    INFO      in transmitter_1,                Axi Stream Send.  TData: 00000058  TStrb: 1111  TKeep: 1111  TID: 00  TDest: 0  TUser: 0  TLast: 0  Operation# 190
%%   2090 ns    Log    INFO      in transmitter_1,                Axi Stream Send.  TData: 00000059  TStrb: 1111  TKeep: 1111  TID: 00  TDest: 0  TUser: 0  TLast: 0  Operation# 191
%%   2100 ns    Log    INFO      in transmitter_1,                Axi Stream Send.  TData: 0000005A  TStrb: 1111  TKeep: 1111  TID: 00  TDest: 0  TUser: 0  TLast: 0  Operation# 192
%%   2110 ns    Log    INFO      in transmitter_1,                Axi Stream Send.  TData: 0000005B  TStrb: 1111  TKeep: 1111  TID: 00  TDest: 0  TUser: 0  TLast: 0  Operation# 193
%%   2120 ns    Log    INFO      in transmitter_1,                Axi Stream Send.  TData: 0000005C  TStrb: 1111  TKeep: 1111  TID: 00  TDest: 0  TUser: 0  TLast: 0  Operation# 194
%%   2130 ns    Log    INFO      in transmitter_1,                Axi Stream Send.  TData: 0000005D  TStrb: 1111  TKeep: 1111  TID: 00  TDest: 0  TUser: 0  TLast: 0  Operation# 195
%%   2140 ns    Log    INFO      in transmitter_1,                Axi Stream Send.  TData: 0000005E  TStrb: 1111  TKeep: 1111  TID: 00  TDest: 0  TUser: 0  TLast: 0  Operation# 196
%%   2150 ns    Log    INFO      in transmitter_1,                Axi Stream Send.  TData: 0000005F  TStrb: 1111  TKeep: 1111  TID: 00  TDest: 0  TUser: 0  TLast: 0  Operation# 197
%%   2160 ns    Log    INFO      in transmitter_1,                Axi Stream Send.  TData: 00000060  TStrb: 1111  TKeep: 1111  TID: 00  TDest: 0  TUser: 0  TLast: 0  Operation# 198
%%   2170 ns    Log    INFO      in transmitter_1,                Axi Stream Send.  TData: 00000061  TStrb: 1111  TKeep: 1111  TID: 00  TDest: 0  TUser: 0  TLast: 0  Operation# 199
%%   2180 ns    Log    INFO      in transmitter_1,                Axi Stream Send.  TData: 00000062  TStrb: 1111  TKeep: 1111  TID: 00  TDest: 0  TUser: 0  TLast: 0  Operation# 200
%%   2190 ns    Log    INFO      in transmitter_1,                Axi Stream Send.  TData: 00000063  TStrb: 1111  TKeep: 1111  TID: 00  TDest: 0  TUser: 0  TLast: 0  Operation# 201
%%   2200 ns    Log    INFO      in transmitter_1,                Axi Stream Send.  TData: 00000064  TStrb: 1111  TKeep: 1111  TID: 00  TDest: 0  TUser: 0  TLast: 0  Operation# 202
%%   2210 ns    Log    INFO      in transmitter_1,                Axi Stream Send.  TData: 00000065  TStrb: 1111  TKeep: 1111  TID: 00  TDest: 0  TUser: 0  TLast: 0  Operation# 203
%%   2220 ns    Log    INFO      in transmitter_1,                Axi Stream Send.  TData: 00000066  TStrb: 1111  TKeep: 1111  TID: 00  TDest: 0  TUser: 0  TLast: 0  Operation# 204
%%   2230 ns    Log    INFO      in transmitter_1,                Axi Stream Send.  TData: 00000067  TStrb: 1111  TKeep: 1111  TID: 00  TDest: 0  TUser: 0  TLast: 0  Operation# 205
%%   2240 ns    Log    INFO      in transmitter_1,                Axi Stream Send.  TData: 00000068  TStrb: 1111  TKeep: 1111  TID: 00  TDest: 0  TUser: 0  TLast: 0  Operation# 206
%%   2250 ns    Log    INFO      in transmitter_1,                Axi Stream Send.  TData: 00000069  TStrb: 1111  TKeep: 1111  TID: 00  TDest: 0  TUser: 0  TLast: 1  Operation# 207
%%   2260 ns    Log    INFO      in receiver_1,                   Burst Receive.  Operation# 6  Last Data: 00000069  TID: 00  TDest: 0  TUser: 0  TLast: 1
%%   2260 ns    Log    ALWAYS    in Default,                      Transmit 47 Bytes. Starting with 96
%%   2260 ns    Log    PASSED    in Default,                      Receiver: NumBytes Received Received : 42
%%   2260 ns    Log    PASSED    in receiver_1: RxBurstFifo,      Received: 00000040   Item Number: 166
%%   2260 ns    Log    PASSED    in receiver_1: RxBurstFifo,      Received: 00000041   Item Number: 167
%%   2260 ns    Log    PASSED    in receiver_1: RxBurstFifo,      Received: 00000042   Item Number: 168
%%   2260 ns    Log    PASSED    in receiver_1: RxBurstFifo,      Received: 00000043   Item Number: 169
%%   2260 ns    Log    PASSED    in receiver_1: RxBurstFifo,      Received: 00000044   Item Number: 170
%%   2260 ns    Log    PASSED    in receiver_1: RxBurstFifo,      Received: 00000045   Item Number: 171
%%   2260 ns    Log    PASSED    in receiver_1: RxBurstFifo,      Received: 00000046   Item Number: 172
%%   2260 ns    Log    PASSED    in receiver_1: RxBurstFifo,      Received: 00000047   Item Number: 173
%%   2260 ns    Log    PASSED    in receiver_1: RxBurstFifo,      Received: 00000048   Item Number: 174
%%   2260 ns    Log    PASSED    in receiver_1: RxBurstFifo,      Received: 00000049   Item Number: 175
%%   2260 ns    Log    PASSED    in receiver_1: RxBurstFifo,      Received: 0000004A   Item Number: 176
%%   2260 ns    Log    PASSED    in receiver_1: RxBurstFifo,      Received: 0000004B   Item Number: 177
%%   2260 ns    Log    PASSED    in receiver_1: RxBurstFifo,      Received: 0000004C   Item Number: 178
%%   2260 ns    Log    PASSED    in receiver_1: RxBurstFifo,      Received: 0000004D   Item Number: 179
%%   2260 ns    Log    PASSED    in receiver_1: RxBurstFifo,      Received: 0000004E   Item Number: 180
%%   2260 ns    Log    PASSED    in receiver_1: RxBurstFifo,      Received: 0000004F   Item Number: 181
%%   2260 ns    Log    PASSED    in receiver_1: RxBurstFifo,      Received: 00000050   Item Number: 182
%%   2260 ns    Log    PASSED    in receiver_1: RxBurstFifo,      Received: 00000051   Item Number: 183
%%   2260 ns    Log    PASSED    in receiver_1: RxBurstFifo,      Received: 00000052   Item Number: 184
%%   2260 ns    Log    PASSED    in receiver_1: RxBurstFifo,      Received: 00000053   Item Number: 185
%%   2260 ns    Log    PASSED    in receiver_1: RxBurstFifo,      Received: 00000054   Item Number: 186
%%   2260 ns    Log    PASSED    in receiver_1: RxBurstFifo,      Received: 00000055   Item Number: 187
%%   2260 ns    Log    PASSED    in receiver_1: RxBurstFifo,      Received: 00000056   Item Number: 188
%%   2260 ns    Log    PASSED    in receiver_1: RxBurstFifo,      Received: 00000057   Item Number: 189
%%   2260 ns    Log    PASSED    in receiver_1: RxBurstFifo,      Received: 00000058   Item Number: 190
%%   2260 ns    Log    PASSED    in receiver_1: RxBurstFifo,      Received: 00000059   Item Number: 191
%%   2260 ns    Log    PASSED    in receiver_1: RxBurstFifo,      Received: 0000005A   Item Number: 192
%%   2260 ns    Log    PASSED    in receiver_1: RxBurstFifo,      Received: 0000005B   Item Number: 193
%%   2260 ns    Log    PASSED    in receiver_1: RxBurstFifo,      Received: 0000005C   Item Number: 194
%%   2260 ns    Log    PASSED    in receiver_1: RxBurstFifo,      Received: 0000005D   Item Number: 195
%%   2260 ns    Log    PASSED    in receiver_1: RxBurstFifo,      Received: 0000005E   Item Number: 196
%%   2260 ns    Log    PASSED    in receiver_1: RxBurstFifo,      Received: 0000005F   Item Number: 197
%%   2260 ns    Log    PASSED    in receiver_1: RxBurstFifo,      Received: 00000060   Item Number: 198
%%   2260 ns    Log    PASSED    in receiver_1: RxBurstFifo,      Received: 00000061   Item Number: 199
%%   2260 ns    Log    PASSED    in receiver_1: RxBurstFifo,      Received: 00000062   Item Number: 200
%%   2260 ns    Log    PASSED    in receiver_1: RxBurstFifo,      Received: 00000063   Item Number: 201
%%   2260 ns    Log    PASSED    in receiver_1: RxBurstFifo,      Received: 00000064   Item Number: 202
%%   2260 ns    Log    PASSED    in receiver_1: RxBurstFifo,      Received: 00000065   Item Number: 203
%%   2260 ns    Log    PASSED    in receiver_1: RxBurstFifo,      Received: 00000066   Item Number: 204
%%   2260 ns    Log    PASSED    in receiver_1: RxBurstFifo,      Received: 00000067   Item Number: 205
%%   2260 ns    Log    PASSED    in receiver_1: RxBurstFifo,      Received: 00000068   Item Number: 206
%%   2260 ns    Log    PASSED    in receiver_1: RxBurstFifo,      Received: 00000069   Item Number: 207
%%   2260 ns    Log    INFO      in transmitter_1,                Axi Stream Send.  TData: 00000060  TStrb: 1111  TKeep: 1111  TID: 00  TDest: 0  TUser: 0  TLast: 0  Operation# 208
%%   2270 ns    Log    INFO      in transmitter_1,                Axi Stream Send.  TData: 00000061  TStrb: 1111  TKeep: 1111  TID: 00  TDest: 0  TUser: 0  TLast: 0  Operation# 209
%%   2280 ns    Log    INFO      in transmitter_1,                Axi Stream Send.  TData: 00000062  TStrb: 1111  TKeep: 1111  TID: 00  TDest: 0  TUser: 0  TLast: 0  Operation# 210
%%   2290 ns    Log    INFO      in transmitter_1,                Axi Stream Send.  TData: 00000063  TStrb: 1111  TKeep: 1111  TID: 00  TDest: 0  TUser: 0  TLast: 0  Operation# 211
%%   2300 ns    Log    INFO      in transmitter_1,                Axi Stream Send.  TData: 00000064  TStrb: 1111  TKeep: 1111  TID: 00  TDest: 0  TUser: 0  TLast: 0  Operation# 212
%%   2310 ns    Log    INFO      in transmitter_1,                Axi Stream Send.  TData: 00000065  TStrb: 1111  TKeep: 1111  TID: 00  TDest: 0  TUser: 0  TLast: 0  Operation# 213
%%   2320 ns    Log    INFO      in transmitter_1,                Axi Stream Send.  TData: 00000066  TStrb: 1111  TKeep: 1111  TID: 00  TDest: 0  TUser: 0  TLast: 0  Operation# 214
%%   2330 ns    Log    INFO      in transmitter_1,                Axi Stream Send.  TData: 00000067  TStrb: 1111  TKeep: 1111  TID: 00  TDest: 0  TUser: 0  TLast: 0  Operation# 215
%%   2340 ns    Log    INFO      in transmitter_1,                Axi Stream Send.  TData: 00000068  TStrb: 1111  TKeep: 1111  TID: 00  TDest: 0  TUser: 0  TLast: 0  Operation# 216
%%   2350 ns    Log    INFO      in transmitter_1,                Axi Stream Send.  TData: 00000069  TStrb: 1111  TKeep: 1111  TID: 00  TDest: 0  TUser: 0  TLast: 0  Operation# 217
%%   2360 ns    Log    INFO      in transmitter_1,                Axi Stream Send.  TData: 0000006A  TStrb: 1111  TKeep: 1111  TID: 00  TDest: 0  TUser: 0  TLast: 0  Operation# 218
%%   2370 ns    Log    INFO      in transmitter_1,                Axi Stream Send.  TData: 0000006B  TStrb: 1111  TKeep: 1111  TID: 00  TDest: 0  TUser: 0  TLast: 0  Operation# 219
%%   2380 ns    Log    INFO      in transmitter_1,                Axi Stream Send.  TData: 0000006C  TStrb: 1111  TKeep: 1111  TID: 00  TDest: 0  TUser: 0  TLast: 0  Operation# 220
%%   2390 ns    Log    INFO      in transmitter_1,                Axi Stream Send.  TData: 0000006D  TStrb: 1111  TKeep: 1111  TID: 00  TDest: 0  TUser: 0  TLast: 0  Operation# 221
%%   2400 ns    Log    INFO      in transmitter_1,                Axi Stream Send.  TData: 0000006E  TStrb: 1111  TKeep: 1111  TID: 00  TDest: 0  TUser: 0  TLast: 0  Operation# 222
%%   2410 ns    Log    INFO      in transmitter_1,                Axi Stream Send.  TData: 0000006F  TStrb: 1111  TKeep: 1111  TID: 00  TDest: 0  TUser: 0  TLast: 0  Operation# 223
%%   2420 ns    Log    INFO      in transmitter_1,                Axi Stream Send.  TData: 00000070  TStrb: 1111  TKeep: 1111  TID: 00  TDest: 0  TUser: 0  TLast: 0  Operation# 224
%%   2430 ns    Log    INFO      in transmitter_1,                Axi Stream Send.  TData: 00000071  TStrb: 1111  TKeep: 1111  TID: 00  TDest: 0  TUser: 0  TLast: 0  Operation# 225
%%   2440 ns    Log    INFO      in transmitter_1,                Axi Stream Send.  TData: 00000072  TStrb: 1111  TKeep: 1111  TID: 00  TDest: 0  TUser: 0  TLast: 0  Operation# 226
%%   2450 ns    Log    INFO      in transmitter_1,                Axi Stream Send.  TData: 00000073  TStrb: 1111  TKeep: 1111  TID: 00  TDest: 0  TUser: 0  TLast: 0  Operation# 227
%%   2460 ns    Log    INFO      in transmitter_1,                Axi Stream Send.  TData: 00000074  TStrb: 1111  TKeep: 1111  TID: 00  TDest: 0  TUser: 0  TLast: 0  Operation# 228
%%   2470 ns    Log    INFO      in transmitter_1,                Axi Stream Send.  TData: 00000075  TStrb: 1111  TKeep: 1111  TID: 00  TDest: 0  TUser: 0  TLast: 0  Operation# 229
%%   2480 ns    Log    INFO      in transmitter_1,                Axi Stream Send.  TData: 00000076  TStrb: 1111  TKeep: 1111  TID: 00  TDest: 0  TUser: 0  TLast: 0  Operation# 230
%%   2490 ns    Log    INFO      in transmitter_1,                Axi Stream Send.  TData: 00000077  TStrb: 1111  TKeep: 1111  TID: 00  TDest: 0  TUser: 0  TLast: 0  Operation# 231
%%   2500 ns    Log    INFO      in transmitter_1,                Axi Stream Send.  TData: 00000078  TStrb: 1111  TKeep: 1111  TID: 00  TDest: 0  TUser: 0  TLast: 0  Operation# 232
%%   2510 ns    Log    INFO      in transmitter_1,                Axi Stream Send.  TData: 00000079  TStrb: 1111  TKeep: 1111  TID: 00  TDest: 0  TUser: 0  TLast: 0  Operation# 233
%%   2520 ns    Log    INFO      in transmitter_1,                Axi Stream Send.  TData: 0000007A  TStrb: 1111  TKeep: 1111  TID: 00  TDest: 0  TUser: 0  TLast: 0  Operation# 234
%%   2530 ns    Log    INFO      in transmitter_1,                Axi Stream Send.  TData: 0000007B  TStrb: 1111  TKeep: 1111  TID: 00  TDest: 0  TUser: 0  TLast: 0  Operation# 235
%%   2540 ns    Log    INFO      in transmitter_1,                Axi Stream Send.  TData: 0000007C  TStrb: 1111  TKeep: 1111  TID: 00  TDest: 0  TUser: 0  TLast: 0  Operation# 236
%%   2550 ns    Log    INFO      in transmitter_1,                Axi Stream Send.  TData: 0000007D  TStrb: 1111  TKeep: 1111  TID: 00  TDest: 0  TUser: 0  TLast: 0  Operation# 237
%%   2560 ns    Log    INFO      in transmitter_1,                Axi Stream Send.  TData: 0000007E  TStrb: 1111  TKeep: 1111  TID: 00  TDest: 0  TUser: 0  TLast: 0  Operation# 238
%%   2570 ns    Log    INFO      in transmitter_1,                Axi Stream Send.  TData: 0000007F  TStrb: 1111  TKeep: 1111  TID: 00  TDest: 0  TUser: 0  TLast: 0  Operation# 239
%%   2580 ns    Log    INFO      in transmitter_1,                Axi Stream Send.  TData: 00000080  TStrb: 1111  TKeep: 1111  TID: 00  TDest: 0  TUser: 0  TLast: 0  Operation# 240
%%   2590 ns    Log    INFO      in transmitter_1,                Axi Stream Send.  TData: 00000081  TStrb: 1111  TKeep: 1111  TID: 00  TDest: 0  TUser: 0  TLast: 0  Operation# 241
%%   2600 ns    Log    INFO      in transmitter_1,                Axi Stream Send.  TData: 00000082  TStrb: 1111  TKeep: 1111  TID: 00  TDest: 0  TUser: 0  TLast: 0  Operation# 242
%%   2610 ns    Log    INFO      in transmitter_1,                Axi Stream Send.  TData: 00000083  TStrb: 1111  TKeep: 1111  TID: 00  TDest: 0  TUser: 0  TLast: 0  Operation# 243
%%   2620 ns    Log    INFO      in transmitter_1,                Axi Stream Send.  TData: 00000084  TStrb: 1111  TKeep: 1111  TID: 00  TDest: 0  TUser: 0  TLast: 0  Operation# 244
%%   2630 ns    Log    INFO      in transmitter_1,                Axi Stream Send.  TData: 00000085  TStrb: 1111  TKeep: 1111  TID: 00  TDest: 0  TUser: 0  TLast: 0  Operation# 245
%%   2640 ns    Log    INFO      in transmitter_1,                Axi Stream Send.  TData: 00000086  TStrb: 1111  TKeep: 1111  TID: 00  TDest: 0  TUser: 0  TLast: 0  Operation# 246
%%   2650 ns    Log    INFO      in transmitter_1,                Axi Stream Send.  TData: 00000087  TStrb: 1111  TKeep: 1111  TID: 00  TDest: 0  TUser: 0  TLast: 0  Operation# 247
%%   2660 ns    Log    INFO      in transmitter_1,                Axi Stream Send.  TData: 00000088  TStrb: 1111  TKeep: 1111  TID: 00  TDest: 0  TUser: 0  TLast: 0  Operation# 248
%%   2670 ns    Log    INFO      in transmitter_1,                Axi Stream Send.  TData: 00000089  TStrb: 1111  TKeep: 1111  TID: 00  TDest: 0  TUser: 0  TLast: 0  Operation# 249
%%   2680 ns    Log    INFO      in transmitter_1,                Axi Stream Send.  TData: 0000008A  TStrb: 1111  TKeep: 1111  TID: 00  TDest: 0  TUser: 0  TLast: 0  Operation# 250
%%   2690 ns    Log    INFO      in transmitter_1,                Axi Stream Send.  TData: 0000008B  TStrb: 1111  TKeep: 1111  TID: 00  TDest: 0  TUser: 0  TLast: 0  Operation# 251
%%   2700 ns    Log    INFO      in transmitter_1,                Axi Stream Send.  TData: 0000008C  TStrb: 1111  TKeep: 1111  TID: 00  TDest: 0  TUser: 0  TLast: 0  Operation# 252
%%   2710 ns    Log    INFO      in transmitter_1,                Axi Stream Send.  TData: 0000008D  TStrb: 1111  TKeep: 1111  TID: 00  TDest: 0  TUser: 0  TLast: 0  Operation# 253
%%   2720 ns    Log    INFO      in transmitter_1,                Axi Stream Send.  TData: 0000008E  TStrb: 1111  TKeep: 1111  TID: 00  TDest: 0  TUser: 0  TLast: 1  Operation# 254
%%   2730 ns    Log    INFO      in receiver_1,                   Burst Receive.  Operation# 7  Last Data: 0000008E  TID: 00  TDest: 0  TUser: 0  TLast: 1
%%   2730 ns    Log    ALWAYS    in Default,                      Transmit 52 Bytes. Starting with 128
%%   2730 ns    Log    PASSED    in Default,                      Receiver: NumBytes Received Received : 47
%%   2730 ns    Log    PASSED    in receiver_1: RxBurstFifo,      Received: 00000060   Item Number: 208
%%   2730 ns    Log    PASSED    in receiver_1: RxBurstFifo,      Received: 00000061   Item Number: 209
%%   2730 ns    Log    PASSED    in receiver_1: RxBurstFifo,      Received: 00000062   Item Number: 210
%%   2730 ns    Log    PASSED    in receiver_1: RxBurstFifo,      Received: 00000063   Item Number: 211
%%   2730 ns    Log    PASSED    in receiver_1: RxBurstFifo,      Received: 00000064   Item Number: 212
%%   2730 ns    Log    PASSED    in receiver_1: RxBurstFifo,      Received: 00000065   Item Number: 213
%%   2730 ns    Log    PASSED    in receiver_1: RxBurstFifo,      Received: 00000066   Item Number: 214
%%   2730 ns    Log    PASSED    in receiver_1: RxBurstFifo,      Received: 00000067   Item Number: 215
%%   2730 ns    Log    PASSED    in receiver_1: RxBurstFifo,      Received: 00000068   Item Number: 216
%%   2730 ns    Log    PASSED    in receiver_1: RxBurstFifo,      Received: 00000069   Item Number: 217
%%   2730 ns    Log    PASSED    in receiver_1: RxBurstFifo,      Received: 0000006A   Item Number: 218
%%   2730 ns    Log    PASSED    in receiver_1: RxBurstFifo,      Received: 0000006B   Item Number: 219
%%   2730 ns    Log    PASSED    in receiver_1: RxBurstFifo,      Received: 0000006C   Item Number: 220
%%   2730 ns    Log    PASSED    in receiver_1: RxBurstFifo,      Received: 0000006D   Item Number: 221
%%   2730 ns    Log    PASSED    in receiver_1: RxBurstFifo,      Received: 0000006E   Item Number: 222
%%   2730 ns    Log    PASSED    in receiver_1: RxBurstFifo,      Received: 0000006F   Item Number: 223
%%   2730 ns    Log    PASSED    in receiver_1: RxBurstFifo,      Received: 00000070   Item Number: 224
%%   2730 ns    Log    PASSED    in receiver_1: RxBurstFifo,      Received: 00000071   Item Number: 225
%%   2730 ns    Log    PASSED    in receiver_1: RxBurstFifo,      Received: 00000072   Item Number: 226
%%   2730 ns    Log    PASSED    in receiver_1: RxBurstFifo,      Received: 00000073   Item Number: 227
%%   2730 ns    Log    PASSED    in receiver_1: RxBurstFifo,      Received: 00000074   Item Number: 228
%%   2730 ns    Log    PASSED    in receiver_1: RxBurstFifo,      Received: 00000075   Item Number: 229
%%   2730 ns    Log    PASSED    in receiver_1: RxBurstFifo,      Received: 00000076   Item Number: 230
%%   2730 ns    Log    PASSED    in receiver_1: RxBurstFifo,      Received: 00000077   Item Number: 231
%%   2730 ns    Log    PASSED    in receiver_1: RxBurstFifo,      Received: 00000078   Item Number: 232
%%   2730 ns    Log    PASSED    in receiver_1: RxBurstFifo,      Received: 00000079   Item Number: 233
%%   2730 ns    Log    PASSED    in receiver_1: RxBurstFifo,      Received: 0000007A   Item Number: 234
%%   2730 ns    Log    PASSED    in receiver_1: RxBurstFifo,      Received: 0000007B   Item Number: 235
%%   2730 ns    Log    PASSED    in receiver_1: RxBurstFifo,      Received: 0000007C   Item Number: 236
%%   2730 ns    Log    PASSED    in receiver_1: RxBurstFifo,      Received: 0000007D   Item Number: 237
%%   2730 ns    Log    PASSED    in receiver_1: RxBurstFifo,      Received: 0000007E   Item Number: 238
%%   2730 ns    Log    PASSED    in receiver_1: RxBurstFifo,      Received: 0000007F   Item Number: 239
%%   2730 ns    Log    PASSED    in receiver_1: RxBurstFifo,      Received: 00000080   Item Number: 240
%%   2730 ns    Log    PASSED    in receiver_1: RxBurstFifo,      Received: 00000081   Item Number: 241
%%   2730 ns    Log    PASSED    in receiver_1: RxBurstFifo,      Received: 00000082   Item Number: 242
%%   2730 ns    Log    PASSED    in receiver_1: RxBurstFifo,      Received: 00000083   Item Number: 243
%%   2730 ns    Log    PASSED    in receiver_1: RxBurstFifo,      Received: 00000084   Item Number: 244
%%   2730 ns    Log    PASSED    in receiver_1: RxBurstFifo,      Received: 00000085   Item Number: 245
%%   2730 ns    Log    PASSED    in receiver_1: RxBurstFifo,      Received: 00000086   Item Number: 246
%%   2730 ns    Log    PASSED    in receiver_1: RxBurstFifo,      Received: 00000087   Item Number: 247
%%   2730 ns    Log    PASSED    in receiver_1: RxBurstFifo,      Received: 00000088   Item Number: 248
%%   2730 ns    Log    PASSED    in receiver_1: RxBurstFifo,      Received: 00000089   Item Number: 249
%%   2730 ns    Log    PASSED    in receiver_1: RxBurstFifo,      Received: 0000008A   Item Number: 250
%%   2730 ns    Log    PASSED    in receiver_1: RxBurstFifo,      Received: 0000008B   Item Number: 251
%%   2730 ns    Log    PASSED    in receiver_1: RxBurstFifo,      Received: 0000008C   Item Number: 252
%%   2730 ns    Log    PASSED    in receiver_1: RxBurstFifo,      Received: 0000008D   Item Number: 253
%%   2730 ns    Log    PASSED    in receiver_1: RxBurstFifo,      Received: 0000008E   Item Number: 254
%%   2730 ns    Log    INFO      in transmitter_1,                Axi Stream Send.  TData: 00000080  TStrb: 1111  TKeep: 1111  TID: 00  TDest: 0  TUser: 0  TLast: 0  Operation# 255
%%   2740 ns    Log    INFO      in transmitter_1,                Axi Stream Send.  TData: 00000081  TStrb: 1111  TKeep: 1111  TID: 00  TDest: 0  TUser: 0  TLast: 0  Operation# 256
%%   2750 ns    Log    INFO      in transmitter_1,                Axi Stream Send.  TData: 00000082  TStrb: 1111  TKeep: 1111  TID: 00  TDest: 0  TUser: 0  TLast: 0  Operation# 257
%%   2760 ns    Log    INFO      in transmitter_1,                Axi Stream Send.  TData: 00000083  TStrb: 1111  TKeep: 1111  TID: 00  TDest: 0  TUser: 0  TLast: 0  Operation# 258
%%   2770 ns    Log    INFO      in transmitter_1,                Axi Stream Send.  TData: 00000084  TStrb: 1111  TKeep: 1111  TID: 00  TDest: 0  TUser: 0  TLast: 0  Operation# 259
%%   2780 ns    Log    INFO      in transmitter_1,                Axi Stream Send.  TData: 00000085  TStrb: 1111  TKeep: 1111  TID: 00  TDest: 0  TUser: 0  TLast: 0  Operation# 260
%%   2790 ns    Log    INFO      in transmitter_1,                Axi Stream Send.  TData: 00000086  TStrb: 1111  TKeep: 1111  TID: 00  TDest: 0  TUser: 0  TLast: 0  Operation# 261
%%   2800 ns    Log    INFO      in transmitter_1,                Axi Stream Send.  TData: 00000087  TStrb: 1111  TKeep: 1111  TID: 00  TDest: 0  TUser: 0  TLast: 0  Operation# 262
%%   2810 ns    Log    INFO      in transmitter_1,                Axi Stream Send.  TData: 00000088  TStrb: 1111  TKeep: 1111  TID: 00  TDest: 0  TUser: 0  TLast: 0  Operation# 263
%%   2820 ns    Log    INFO      in transmitter_1,                Axi Stream Send.  TData: 00000089  TStrb: 1111  TKeep: 1111  TID: 00  TDest: 0  TUser: 0  TLast: 0  Operation# 264
%%   2830 ns    Log    INFO      in transmitter_1,                Axi Stream Send.  TData: 0000008A  TStrb: 1111  TKeep: 1111  TID: 00  TDest: 0  TUser: 0  TLast: 0  Operation# 265
%%   2840 ns    Log    INFO      in transmitter_1,                Axi Stream Send.  TData: 0000008B  TStrb: 1111  TKeep: 1111  TID: 00  TDest: 0  TUser: 0  TLast: 0  Operation# 266
%%   2850 ns    Log    INFO      in transmitter_1,                Axi Stream Send.  TData: 0000008C  TStrb: 1111  TKeep: 1111  TID: 00  TDest: 0  TUser: 0  TLast: 0  Operation# 267
%%   2860 ns    Log    INFO      in transmitter_1,                Axi Stream Send.  TData: 0000008D  TStrb: 1111  TKeep: 1111  TID: 00  TDest: 0  TUser: 0  TLast: 0  Operation# 268
%%   2870 ns    Log    INFO      in transmitter_1,                Axi Stream Send.  TData: 0000008E  TStrb: 1111  TKeep: 1111  TID: 00  TDest: 0  TUser: 0  TLast: 0  Operation# 269
%%   2880 ns    Log    INFO      in transmitter_1,                Axi Stream Send.  TData: 0000008F  TStrb: 1111  TKeep: 1111  TID: 00  TDest: 0  TUser: 0  TLast: 0  Operation# 270
%%   2890 ns    Log    INFO      in transmitter_1,                Axi Stream Send.  TData: 00000090  TStrb: 1111  TKeep: 1111  TID: 00  TDest: 0  TUser: 0  TLast: 0  Operation# 271
%%   2900 ns    Log    INFO      in transmitter_1,                Axi Stream Send.  TData: 00000091  TStrb: 1111  TKeep: 1111  TID: 00  TDest: 0  TUser: 0  TLast: 0  Operation# 272
%%   2910 ns    Log    INFO      in transmitter_1,                Axi Stream Send.  TData: 00000092  TStrb: 1111  TKeep: 1111  TID: 00  TDest: 0  TUser: 0  TLast: 0  Operation# 273
%%   2920 ns    Log    INFO      in transmitter_1,                Axi Stream Send.  TData: 00000093  TStrb: 1111  TKeep: 1111  TID: 00  TDest: 0  TUser: 0  TLast: 0  Operation# 274
%%   2930 ns    Log    INFO      in transmitter_1,                Axi Stream Send.  TData: 00000094  TStrb: 1111  TKeep: 1111  TID: 00  TDest: 0  TUser: 0  TLast: 0  Operation# 275
%%   2940 ns    Log    INFO      in transmitter_1,                Axi Stream Send.  TData: 00000095  TStrb: 1111  TKeep: 1111  TID: 00  TDest: 0  TUser: 0  TLast: 0  Operation# 276
%%   2950 ns    Log    INFO      in transmitter_1,                Axi Stream Send.  TData: 00000096  TStrb: 1111  TKeep: 1111  TID: 00  TDest: 0  TUser: 0  TLast: 0  Operation# 277
%%   2960 ns    Log    INFO      in transmitter_1,                Axi Stream Send.  TData: 00000097  TStrb: 1111  TKeep: 1111  TID: 00  TDest: 0  TUser: 0  TLast: 0  Operation# 278
%%   2970 ns    Log    INFO      in transmitter_1,                Axi Stream Send.  TData: 00000098  TStrb: 1111  TKeep: 1111  TID: 00  TDest: 0  TUser: 0  TLast: 0  Operation# 279
%%   2980 ns    Log    INFO      in transmitter_1,                Axi Stream Send.  TData: 00000099  TStrb: 1111  TKeep: 1111  TID: 00  TDest: 0  TUser: 0  TLast: 0  Operation# 280
%%   2990 ns    Log    INFO      in transmitter_1,                Axi Stream Send.  TData: 0000009A  TStrb: 1111  TKeep: 1111  TID: 00  TDest: 0  TUser: 0  TLast: 0  Operation# 281
%%   3000 ns    Log    INFO      in transmitter_1,                Axi Stream Send.  TData: 0000009B  TStrb: 1111  TKeep: 1111  TID: 00  TDest: 0  TUser: 0  TLast: 0  Operation# 282
%%   3010 ns    Log    INFO      in transmitter_1,                Axi Stream Send.  TData: 0000009C  TStrb: 1111  TKeep: 1111  TID: 00  TDest: 0  TUser: 0  TLast: 0  Operation# 283
%%   3020 ns    Log    INFO      in transmitter_1,                Axi Stream Send.  TData: 0000009D  TStrb: 1111  TKeep: 1111  TID: 00  TDest: 0  TUser: 0  TLast: 0  Operation# 284
%%   3030 ns    Log    INFO      in transmitter_1,                Axi Stream Send.  TData: 0000009E  TStrb: 1111  TKeep: 1111  TID: 00  TDest: 0  TUser: 0  TLast: 0  Operation# 285
%%   3040 ns    Log    INFO      in transmitter_1,                Axi Stream Send.  TData: 0000009F  TStrb: 1111  TKeep: 1111  TID: 00  TDest: 0  TUser: 0  TLast: 0  Operation# 286
%%   3050 ns    Log    INFO      in transmitter_1,                Axi Stream Send.  TData: 000000A0  TStrb: 1111  TKeep: 1111  TID: 00  TDest: 0  TUser: 0  TLast: 0  Operation# 287
%%   3060 ns    Log    INFO      in transmitter_1,                Axi Stream Send.  TData: 000000A1  TStrb: 1111  TKeep: 1111  TID: 00  TDest: 0  TUser: 0  TLast: 0  Operation# 288
%%   3070 ns    Log    INFO      in transmitter_1,                Axi Stream Send.  TData: 000000A2  TStrb: 1111  TKeep: 1111  TID: 00  TDest: 0  TUser: 0  TLast: 0  Operation# 289
%%   3080 ns    Log    INFO      in transmitter_1,                Axi Stream Send.  TData: 000000A3  TStrb: 1111  TKeep: 1111  TID: 00  TDest: 0  TUser: 0  TLast: 0  Operation# 290
%%   3090 ns    Log    INFO      in transmitter_1,                Axi Stream Send.  TData: 000000A4  TStrb: 1111  TKeep: 1111  TID: 00  TDest: 0  TUser: 0  TLast: 0  Operation# 291
%%   3100 ns    Log    INFO      in transmitter_1,                Axi Stream Send.  TData: 000000A5  TStrb: 1111  TKeep: 1111  TID: 00  TDest: 0  TUser: 0  TLast: 0  Operation# 292
%%   3110 ns    Log    INFO      in transmitter_1,                Axi Stream Send.  TData: 000000A6  TStrb: 1111  TKeep: 1111  TID: 00  TDest: 0  TUser: 0  TLast: 0  Operation# 293
%%   3120 ns    Log    INFO      in transmitter_1,                Axi Stream Send.  TData: 000000A7  TStrb: 1111  TKeep: 1111  TID: 00  TDest: 0  TUser: 0  TLast: 0  Operation# 294
%%   3130 ns    Log    INFO      in transmitter_1,                Axi Stream Send.  TData: 000000A8  TStrb: 1111  TKeep: 1111  TID: 00  TDest: 0  TUser: 0  TLast: 0  Operation# 295
%%   3140 ns    Log    INFO      in transmitter_1,                Axi Stream Send.  TData: 000000A9  TStrb: 1111  TKeep: 1111  TID: 00  TDest: 0  TUser: 0  TLast: 0  Operation# 296
%%   3150 ns    Log    INFO      in transmitter_1,                Axi Stream Send.  TData: 000000AA  TStrb: 1111  TKeep: 1111  TID: 00  TDest: 0  TUser: 0  TLast: 0  Operation# 297
%%   3160 ns    Log    INFO      in transmitter_1,                Axi Stream Send.  TData: 000000AB  TStrb: 1111  TKeep: 1111  TID: 00  TDest: 0  TUser: 0  TLast: 0  Operation# 298
%%   3170 ns    Log    INFO      in transmitter_1,                Axi Stream Send.  TData: 000000AC  TStrb: 1111  TKeep: 1111  TID: 00  TDest: 0  TUser: 0  TLast: 0  Operation# 299
%%   3180 ns    Log    INFO      in transmitter_1,                Axi Stream Send.  TData: 000000AD  TStrb: 1111  TKeep: 1111  TID: 00  TDest: 0  TUser: 0  TLast: 0  Operation# 300
%%   3190 ns    Log    INFO      in transmitter_1,                Axi Stream Send.  TData: 000000AE  TStrb: 1111  TKeep: 1111  TID: 00  TDest: 0  TUser: 0  TLast: 0  Operation# 301
%%   3200 ns    Log    INFO      in transmitter_1,                Axi Stream Send.  TData: 000000AF  TStrb: 1111  TKeep: 1111  TID: 00  TDest: 0  TUser: 0  TLast: 0  Operation# 302
%%   3210 ns    Log    INFO      in transmitter_1,                Axi Stream Send.  TData: 000000B0  TStrb: 1111  TKeep: 1111  TID: 00  TDest: 0  TUser: 0  TLast: 0  Operation# 303
%%   3220 ns    Log    INFO      in transmitter_1,                Axi Stream Send.  TData: 000000B1  TStrb: 1111  TKeep: 1111  TID: 00  TDest: 0  TUser: 0  TLast: 0  Operation# 304
%%   3230 ns    Log    INFO      in transmitter_1,                Axi Stream Send.  TData: 000000B2  TStrb: 1111  TKeep: 1111  TID: 00  TDest: 0  TUser: 0  TLast: 0  Operation# 305
%%   3240 ns    Log    INFO      in transmitter_1,                Axi Stream Send.  TData: 000000B3  TStrb: 1111  TKeep: 1111  TID: 00  TDest: 0  TUser: 0  TLast: 1  Operation# 306
%%   3250 ns    Log    INFO      in receiver_1,                   Burst Receive.  Operation# 8  Last Data: 000000B3  TID: 00  TDest: 0  TUser: 0  TLast: 1
%%   3250 ns    Log    ALWAYS    in Default,                      Transmit 57 Bytes. Starting with 160
%%   3250 ns    Log    PASSED    in Default,                      Receiver: NumBytes Received Received : 52
%%   3250 ns    Log    PASSED    in receiver_1: RxBurstFifo,      Received: 00000080   Item Number: 255
%%   3250 ns    Log    PASSED    in receiver_1: RxBurstFifo,      Received: 00000081   Item Number: 256
%%   3250 ns    Log    PASSED    in receiver_1: RxBurstFifo,      Received: 00000082   Item Number: 257
%%   3250 ns    Log    PASSED    in receiver_1: RxBurstFifo,      Received: 00000083   Item Number: 258
%%   3250 ns    Log    PASSED    in receiver_1: RxBurstFifo,      Received: 00000084   Item Number: 259
%%   3250 ns    Log    PASSED    in receiver_1: RxBurstFifo,      Received: 00000085   Item Number: 260
%%   3250 ns    Log    PASSED    in receiver_1: RxBurstFifo,      Received: 00000086   Item Number: 261
%%   3250 ns    Log    PASSED    in receiver_1: RxBurstFifo,      Received: 00000087   Item Number: 262
%%   3250 ns    Log    PASSED    in receiver_1: RxBurstFifo,      Received: 00000088   Item Number: 263
%%   3250 ns    Log    PASSED    in receiver_1: RxBurstFifo,      Received: 00000089   Item Number: 264
%%   3250 ns    Log    PASSED    in receiver_1: RxBurstFifo,      Received: 0000008A   Item Number: 265
%%   3250 ns    Log    PASSED    in receiver_1: RxBurstFifo,      Received: 0000008B   Item Number: 266
%%   3250 ns    Log    PASSED    in receiver_1: RxBurstFifo,      Received: 0000008C   Item Number: 267
%%   3250 ns    Log    PASSED    in receiver_1: RxBurstFifo,      Received: 0000008D   Item Number: 268
%%   3250 ns    Log    PASSED    in receiver_1: RxBurstFifo,      Received: 0000008E   Item Number: 269
%%   3250 ns    Log    PASSED    in receiver_1: RxBurstFifo,      Received: 0000008F   Item Number: 270
%%   3250 ns    Log    PASSED    in receiver_1: RxBurstFifo,      Received: 00000090   Item Number: 271
%%   3250 ns    Log    PASSED    in receiver_1: RxBurstFifo,      Received: 00000091   Item Number: 272
%%   3250 ns    Log    PASSED    in receiver_1: RxBurstFifo,      Received: 00000092   Item Number: 273
%%   3250 ns    Log    PASSED    in receiver_1: RxBurstFifo,      Received: 00000093   Item Number: 274
%%   3250 ns    Log    PASSED    in receiver_1: RxBurstFifo,      Received: 00000094   Item Number: 275
%%   3250 ns    Log    PASSED    in receiver_1: RxBurstFifo,      Received: 00000095   Item Number: 276
%%   3250 ns    Log    PASSED    in receiver_1: RxBurstFifo,      Received: 00000096   Item Number: 277
%%   3250 ns    Log    PASSED    in receiver_1: RxBurstFifo,      Received: 00000097   Item Number: 278
%%   3250 ns    Log    PASSED    in receiver_1: RxBurstFifo,      Received: 00000098   Item Number: 279
%%   3250 ns    Log    PASSED    in receiver_1: RxBurstFifo,      Received: 00000099   Item Number: 280
%%   3250 ns    Log    PASSED    in receiver_1: RxBurstFifo,      Received: 0000009A   Item Number: 281
%%   3250 ns    Log    PASSED    in receiver_1: RxBurstFifo,      Received: 0000009B   Item Number: 282
%%   3250 ns    Log    PASSED    in receiver_1: RxBurstFifo,      Received: 0000009C   Item Number: 283
%%   3250 ns    Log    PASSED    in receiver_1: RxBurstFifo,      Received: 0000009D   Item Number: 284
%%   3250 ns    Log    PASSED    in receiver_1: RxBurstFifo,      Received: 0000009E   Item Number: 285
%%   3250 ns    Log    PASSED    in receiver_1: RxBurstFifo,      Received: 0000009F   Item Number: 286
%%   3250 ns    Log    PASSED    in receiver_1: RxBurstFifo,      Received: 000000A0   Item Number: 287
%%   3250 ns    Log    PASSED    in receiver_1: RxBurstFifo,      Received: 000000A1   Item Number: 288
%%   3250 ns    Log    PASSED    in receiver_1: RxBurstFifo,      Received: 000000A2   Item Number: 289
%%   3250 ns    Log    PASSED    in receiver_1: RxBurstFifo,      Received: 000000A3   Item Number: 290
%%   3250 ns    Log    PASSED    in receiver_1: RxBurstFifo,      Received: 000000A4   Item Number: 291
%%   3250 ns    Log    PASSED    in receiver_1: RxBurstFifo,      Received: 000000A5   Item Number: 292
%%   3250 ns    Log    PASSED    in receiver_1: RxBurstFifo,      Received: 000000A6   Item Number: 293
%%   3250 ns    Log    PASSED    in receiver_1: RxBurstFifo,      Received: 000000A7   Item Number: 294
%%   3250 ns    Log    PASSED    in receiver_1: RxBurstFifo,      Received: 000000A8   Item Number: 295
%%   3250 ns    Log    PASSED    in receiver_1: RxBurstFifo,      Received: 000000A9   Item Number: 296
%%   3250 ns    Log    PASSED    in receiver_1: RxBurstFifo,      Received: 000000AA   Item Number: 297
%%   3250 ns    Log    PASSED    in receiver_1: RxBurstFifo,      Received: 000000AB   Item Number: 298
%%   3250 ns    Log    PASSED    in receiver_1: RxBurstFifo,      Received: 000000AC   Item Number: 299
%%   3250 ns    Log    PASSED    in receiver_1: RxBurstFifo,      Received: 000000AD   Item Number: 300
%%   3250 ns    Log    PASSED    in receiver_1: RxBurstFifo,      Received: 000000AE   Item Number: 301
%%   3250 ns    Log    PASSED    in receiver_1: RxBurstFifo,      Received: 000000AF   Item Number: 302
%%   3250 ns    Log    PASSED    in receiver_1: RxBurstFifo,      Received: 000000B0   Item Number: 303
%%   3250 ns    Log    PASSED    in receiver_1: RxBurstFifo,      Received: 000000B1   Item Number: 304
%%   3250 ns    Log    PASSED    in receiver_1: RxBurstFifo,      Received: 000000B2   Item Number: 305
%%   3250 ns    Log    PASSED    in receiver_1: RxBurstFifo,      Received: 000000B3   Item Number: 306
%%   3250 ns    Log    INFO      in transmitter_1,                Axi Stream Send.  TData: 000000A0  TStrb: 1111  TKeep: 1111  TID: 00  TDest: 0  TUser: 0  TLast: 0  Operation# 307
%%   3260 ns    Log    INFO      in transmitter_1,                Axi Stream Send.  TData: 000000A1  TStrb: 1111  TKeep: 1111  TID: 00  TDest: 0  TUser: 0  TLast: 0  Operation# 308
%%   3270 ns    Log    INFO      in transmitter_1,                Axi Stream Send.  TData: 000000A2  TStrb: 1111  TKeep: 1111  TID: 00  TDest: 0  TUser: 0  TLast: 0  Operation# 309
%%   3280 ns    Log    INFO      in transmitter_1,                Axi Stream Send.  TData: 000000A3  TStrb: 1111  TKeep: 1111  TID: 00  TDest: 0  TUser: 0  TLast: 0  Operation# 310
%%   3290 ns    Log    INFO      in transmitter_1,                Axi Stream Send.  TData: 000000A4  TStrb: 1111  TKeep: 1111  TID: 00  TDest: 0  TUser: 0  TLast: 0  Operation# 311
%%   3300 ns    Log    INFO      in transmitter_1,                Axi Stream Send.  TData: 000000A5  TStrb: 1111  TKeep: 1111  TID: 00  TDest: 0  TUser: 0  TLast: 0  Operation# 312
%%   3310 ns    Log    INFO      in transmitter_1,                Axi Stream Send.  TData: 000000A6  TStrb: 1111  TKeep: 1111  TID: 00  TDest: 0  TUser: 0  TLast: 0  Operation# 313
%%   3320 ns    Log    INFO      in transmitter_1,                Axi Stream Send.  TData: 000000A7  TStrb: 1111  TKeep: 1111  TID: 00  TDest: 0  TUser: 0  TLast: 0  Operation# 314
%%   3330 ns    Log    INFO      in transmitter_1,                Axi Stream Send.  TData: 000000A8  TStrb: 1111  TKeep: 1111  TID: 00  TDest: 0  TUser: 0  TLast: 0  Operation# 315
%%   3340 ns    Log    INFO      in transmitter_1,                Axi Stream Send.  TData: 000000A9  TStrb: 1111  TKeep: 1111  TID: 00  TDest: 0  TUser: 0  TLast: 0  Operation# 316
%%   3350 ns    Log    INFO      in transmitter_1,                Axi Stream Send.  TData: 000000AA  TStrb: 1111  TKeep: 1111  TID: 00  TDest: 0  TUser: 0  TLast: 0  Operation# 317
%%   3360 ns    Log    INFO      in transmitter_1,                Axi Stream Send.  TData: 000000AB  TStrb: 1111  TKeep: 1111  TID: 00  TDest: 0  TUser: 0  TLast: 0  Operation# 318
%%   3370 ns    Log    INFO      in transmitter_1,                Axi Stream Send.  TData: 000000AC  TStrb: 1111  TKeep: 1111  TID: 00  TDest: 0  TUser: 0  TLast: 0  Operation# 319
%%   3380 ns    Log    INFO      in transmitter_1,                Axi Stream Send.  TData: 000000AD  TStrb: 1111  TKeep: 1111  TID: 00  TDest: 0  TUser: 0  TLast: 0  Operation# 320
%%   3390 ns    Log    INFO      in transmitter_1,                Axi Stream Send.  TData: 000000AE  TStrb: 1111  TKeep: 1111  TID: 00  TDest: 0  TUser: 0  TLast: 0  Operation# 321
%%   3400 ns    Log    INFO      in transmitter_1,                Axi Stream Send.  TData: 000000AF  TStrb: 1111  TKeep: 1111  TID: 00  TDest: 0  TUser: 0  TLast: 0  Operation# 322
%%   3410 ns    Log    INFO      in transmitter_1,                Axi Stream Send.  TData: 000000B0  TStrb: 1111  TKeep: 1111  TID: 00  TDest: 0  TUser: 0  TLast: 0  Operation# 323
%%   3420 ns    Log    INFO      in transmitter_1,                Axi Stream Send.  TData: 000000B1  TStrb: 1111  TKeep: 1111  TID: 00  TDest: 0  TUser: 0  TLast: 0  Operation# 324
%%   3430 ns    Log    INFO      in transmitter_1,                Axi Stream Send.  TData: 000000B2  TStrb: 1111  TKeep: 1111  TID: 00  TDest: 0  TUser: 0  TLast: 0  Operation# 325
%%   3440 ns    Log    INFO      in transmitter_1,                Axi Stream Send.  TData: 000000B3  TStrb: 1111  TKeep: 1111  TID: 00  TDest: 0  TUser: 0  TLast: 0  Operation# 326
%%   3450 ns    Log    INFO      in transmitter_1,                Axi Stream Send.  TData: 000000B4  TStrb: 1111  TKeep: 1111  TID: 00  TDest: 0  TUser: 0  TLast: 0  Operation# 327
%%   3460 ns    Log    INFO      in transmitter_1,                Axi Stream Send.  TData: 000000B5  TStrb: 1111  TKeep: 1111  TID: 00  TDest: 0  TUser: 0  TLast: 0  Operation# 328
%%   3470 ns    Log    INFO      in transmitter_1,                Axi Stream Send.  TData: 000000B6  TStrb: 1111  TKeep: 1111  TID: 00  TDest: 0  TUser: 0  TLast: 0  Operation# 329
%%   3480 ns    Log    INFO      in transmitter_1,                Axi Stream Send.  TData: 000000B7  TStrb: 1111  TKeep: 1111  TID: 00  TDest: 0  TUser: 0  TLast: 0  Operation# 330
%%   3490 ns    Log    INFO      in transmitter_1,                Axi Stream Send.  TData: 000000B8  TStrb: 1111  TKeep: 1111  TID: 00  TDest: 0  TUser: 0  TLast: 0  Operation# 331
%%   3500 ns    Log    INFO      in transmitter_1,                Axi Stream Send.  TData: 000000B9  TStrb: 1111  TKeep: 1111  TID: 00  TDest: 0  TUser: 0  TLast: 0  Operation# 332
%%   3510 ns    Log    INFO      in transmitter_1,                Axi Stream Send.  TData: 000000BA  TStrb: 1111  TKeep: 1111  TID: 00  TDest: 0  TUser: 0  TLast: 0  Operation# 333
%%   3520 ns    Log    INFO      in transmitter_1,                Axi Stream Send.  TData: 000000BB  TStrb: 1111  TKeep: 1111  TID: 00  TDest: 0  TUser: 0  TLast: 0  Operation# 334
%%   3530 ns    Log    INFO      in transmitter_1,                Axi Stream Send.  TData: 000000BC  TStrb: 1111  TKeep: 1111  TID: 00  TDest: 0  TUser: 0  TLast: 0  Operation# 335
%%   3540 ns    Log    INFO      in transmitter_1,                Axi Stream Send.  TData: 000000BD  TStrb: 1111  TKeep: 1111  TID: 00  TDest: 0  TUser: 0  TLast: 0  Operation# 336
%%   3550 ns    Log    INFO      in transmitter_1,                Axi Stream Send.  TData: 000000BE  TStrb: 1111  TKeep: 1111  TID: 00  TDest: 0  TUser: 0  TLast: 0  Operation# 337
%%   3560 ns    Log    INFO      in transmitter_1,                Axi Stream Send.  TData: 000000BF  TStrb: 1111  TKeep: 1111  TID: 00  TDest: 0  TUser: 0  TLast: 0  Operation# 338
%%   3570 ns    Log    INFO      in transmitter_1,                Axi Stream Send.  TData: 000000C0  TStrb: 1111  TKeep: 1111  TID: 00  TDest: 0  TUser: 0  TLast: 0  Operation# 339
%%   3580 ns    Log    INFO      in transmitter_1,                Axi Stream Send.  TData: 000000C1  TStrb: 1111  TKeep: 1111  TID: 00  TDest: 0  TUser: 0  TLast: 0  Operation# 340
%%   3590 ns    Log    INFO      in transmitter_1,                Axi Stream Send.  TData: 000000C2  TStrb: 1111  TKeep: 1111  TID: 00  TDest: 0  TUser: 0  TLast: 0  Operation# 341
%%   3600 ns    Log    INFO      in transmitter_1,                Axi Stream Send.  TData: 000000C3  TStrb: 1111  TKeep: 1111  TID: 00  TDest: 0  TUser: 0  TLast: 0  Operation# 342
%%   3610 ns    Log    INFO      in transmitter_1,                Axi Stream Send.  TData: 000000C4  TStrb: 1111  TKeep: 1111  TID: 00  TDest: 0  TUser: 0  TLast: 0  Operation# 343
%%   3620 ns    Log    INFO      in transmitter_1,                Axi Stream Send.  TData: 000000C5  TStrb: 1111  TKeep: 1111  TID: 00  TDest: 0  TUser: 0  TLast: 0  Operation# 344
%%   3630 ns    Log    INFO      in transmitter_1,                Axi Stream Send.  TData: 000000C6  TStrb: 1111  TKeep: 1111  TID: 00  TDest: 0  TUser: 0  TLast: 0  Operation# 345
%%   3640 ns    Log    INFO      in transmitter_1,                Axi Stream Send.  TData: 000000C7  TStrb: 1111  TKeep: 1111  TID: 00  TDest: 0  TUser: 0  TLast: 0  Operation# 346
%%   3650 ns    Log    INFO      in transmitter_1,                Axi Stream Send.  TData: 000000C8  TStrb: 1111  TKeep: 1111  TID: 00  TDest: 0  TUser: 0  TLast: 0  Operation# 347
%%   3660 ns    Log    INFO      in transmitter_1,                Axi Stream Send.  TData: 000000C9  TStrb: 1111  TKeep: 1111  TID: 00  TDest: 0  TUser: 0  TLast: 0  Operation# 348
%%   3670 ns    Log    INFO      in transmitter_1,                Axi Stream Send.  TData: 000000CA  TStrb: 1111  TKeep: 1111  TID: 00  TDest: 0  TUser: 0  TLast: 0  Operation# 349
%%   3680 ns    Log    INFO      in transmitter_1,                Axi Stream Send.  TData: 000000CB  TStrb: 1111  TKeep: 1111  TID: 00  TDest: 0  TUser: 0  TLast: 0  Operation# 350
%%   3690 ns    Log    INFO      in transmitter_1,                Axi Stream Send.  TData: 000000CC  TStrb: 1111  TKeep: 1111  TID: 00  TDest: 0  TUser: 0  TLast: 0  Operation# 351
%%   3700 ns    Log    INFO      in transmitter_1,                Axi Stream Send.  TData: 000000CD  TStrb: 1111  TKeep: 1111  TID: 00  TDest: 0  TUser: 0  TLast: 0  Operation# 352
%%   3710 ns    Log    INFO      in transmitter_1,                Axi Stream Send.  TData: 000000CE  TStrb: 1111  TKeep: 1111  TID: 00  TDest: 0  TUser: 0  TLast: 0  Operation# 353
%%   3720 ns    Log    INFO      in transmitter_1,                Axi Stream Send.  TData: 000000CF  TStrb: 1111  TKeep: 1111  TID: 00  TDest: 0  TUser: 0  TLast: 0  Operation# 354
%%   3730 ns    Log    INFO      in transmitter_1,                Axi Stream Send.  TData: 000000D0  TStrb: 1111  TKeep: 1111  TID: 00  TDest: 0  TUser: 0  TLast: 0  Operation# 355
%%   3740 ns    Log    INFO      in transmitter_1,                Axi Stream Send.  TData: 000000D1  TStrb: 1111  TKeep: 1111  TID: 00  TDest: 0  TUser: 0  TLast: 0  Operation# 356
%%   3750 ns    Log    INFO      in transmitter_1,                Axi Stream Send.  TData: 000000D2  TStrb: 1111  TKeep: 1111  TID: 00  TDest: 0  TUser: 0  TLast: 0  Operation# 357
%%   3760 ns    Log    INFO      in transmitter_1,                Axi Stream Send.  TData: 000000D3  TStrb: 1111  TKeep: 1111  TID: 00  TDest: 0  TUser: 0  TLast: 0  Operation# 358
%%   3770 ns    Log    INFO      in transmitter_1,                Axi Stream Send.  TData: 000000D4  TStrb: 1111  TKeep: 1111  TID: 00  TDest: 0  TUser: 0  TLast: 0  Operation# 359
%%   3780 ns    Log    INFO      in transmitter_1,                Axi Stream Send.  TData: 000000D5  TStrb: 1111  TKeep: 1111  TID: 00  TDest: 0  TUser: 0  TLast: 0  Operation# 360
%%   3790 ns    Log    INFO      in transmitter_1,                Axi Stream Send.  TData: 000000D6  TStrb: 1111  TKeep: 1111  TID: 00  TDest: 0  TUser: 0  TLast: 0  Operation# 361
