%%         110.0 ns  Log    ALWAYS  in Default,                      Transmit 16 bytes.  Cover Random
%%         110.0 ns  Log    INFO    in transmitter_1,                Axi Stream Send.  TData: 63200124  TStrb: 1111  TKeep: 1111  TID: 01  TDest: 2  TUser: 3  TLast: 0  Operation# 1
%%         120.0 ns  Log    INFO    in transmitter_1,                Axi Stream Send.  TData: 05022122  TStrb: 1111  TKeep: 1111  TID: 01  TDest: 2  TUser: 3  TLast: 0  Operation# 2
%%         130.0 ns  Log    INFO    in transmitter_1,                Axi Stream Send.  TData: 41072646  TStrb: 1111  TKeep: 1111  TID: 01  TDest: 2  TUser: 3  TLast: 0  Operation# 3
%%         140.0 ns  Log    INFO    in transmitter_1,                Axi Stream Send.  TData: 00276162  TStrb: 1111  TKeep: 1111  TID: 01  TDest: 2  TUser: 3  TLast: 1  Operation# 4
%%         150.0 ns  Log    ALWAYS  in Default,                      Transmit 14 bytes.
%%         150.0 ns  Log    INFO    in transmitter_1,                Axi Stream Send.  TData: 04230664  TStrb: 1111  TKeep: 1111  TID: 02  TDest: 3  TUser: 4  TLast: 0  Operation# 5
%%         150.0 ns  Log    PASSED  in receiver_1: RxBurstFifo,      Received: 24   Item Number: 1
%%         150.0 ns  Log    PASSED  in receiver_1: RxBurstFifo,      Received: 01   Item Number: 2
%%         150.0 ns  Log    PASSED  in receiver_1: RxBurstFifo,      Received: 20   Item Number: 3
%%         150.0 ns  Log    PASSED  in receiver_1: RxBurstFifo,      Received: 63   Item Number: 4
%%         150.0 ns  Log    PASSED  in receiver_1: RxBurstFifo,      Received: 22   Item Number: 5
%%         150.0 ns  Log    PASSED  in receiver_1: RxBurstFifo,      Received: 21   Item Number: 6
%%         150.0 ns  Log    PASSED  in receiver_1: RxBurstFifo,      Received: 02   Item Number: 7
%%         150.0 ns  Log    PASSED  in receiver_1: RxBurstFifo,      Received: 05   Item Number: 8
%%         150.0 ns  Log    PASSED  in receiver_1: RxBurstFifo,      Received: 46   Item Number: 9
%%         150.0 ns  Log    PASSED  in receiver_1: RxBurstFifo,      Received: 26   Item Number: 10
%%         150.0 ns  Log    PASSED  in receiver_1: RxBurstFifo,      Received: 07   Item Number: 11
%%         150.0 ns  Log    PASSED  in receiver_1: RxBurstFifo,      Received: 41   Item Number: 12
%%         150.0 ns  Log    PASSED  in receiver_1: RxBurstFifo,      Received: 62   Item Number: 13
%%         150.0 ns  Log    PASSED  in receiver_1: RxBurstFifo,      Received: 61   Item Number: 14
%%         150.0 ns  Log    PASSED  in receiver_1: RxBurstFifo,      Received: 27   Item Number: 15
%%         150.0 ns  Log    PASSED  in receiver_1: RxBurstFifo,      Received: 00   Item Number: 16
%%         150.0 ns  Log    INFO    in receiver_1,                   Burst Check.  Operation# 1  Last Data: 00276162  TID: 01  TDest: 2  TUser: 3  TLast: 1
%%         150.0 ns  Log    PASSED  in receiver_1,                   Burst Check WordCount Received : 16
%%         150.0 ns  Log    PASSED  in receiver_1,                   ID Received : 01
%%         150.0 ns  Log    PASSED  in receiver_1,                   DEST Received : 2
%%         150.0 ns  Log    PASSED  in receiver_1,                   USER Received : 3
%%         150.0 ns  Log    PASSED  in receiver_1,                   Last Received : 1
%%         150.0 ns  Log    ALWAYS  in Default,                      Transmit 17 bytes.
%%         150.0 ns  Log    PASSED  in Default,                      TryCount 12
%%         160.0 ns  Log    INFO    in transmitter_1,                Axi Stream Send.  TData: 67604742  TStrb: 1111  TKeep: 1111  TID: 02  TDest: 3  TUser: 4  TLast: 0  Operation# 6
%%         170.0 ns  Log    INFO    in transmitter_1,                Axi Stream Send.  TData: 45034465  TStrb: 1111  TKeep: 1111  TID: 02  TDest: 3  TUser: 4  TLast: 0  Operation# 7
%%         180.0 ns  Log    INFO    in transmitter_1,                Axi Stream Send.  TData: XXXX4366  TStrb: 0011  TKeep: 0011  TID: 02  TDest: 3  TUser: 4  TLast: 1  Operation# 8
%%         190.0 ns  Log    INFO    in transmitter_1,                Axi Stream Send.  TData: 67234025  TStrb: 1111  TKeep: 1111  TID: 03  TDest: 4  TUser: 5  TLast: 0  Operation# 9
%%         190.0 ns  Log    PASSED  in receiver_1: RxBurstFifo,      Received: 64   Item Number: 17
%%         190.0 ns  Log    PASSED  in receiver_1: RxBurstFifo,      Received: 06   Item Number: 18
%%         190.0 ns  Log    PASSED  in receiver_1: RxBurstFifo,      Received: 23   Item Number: 19
%%         190.0 ns  Log    PASSED  in receiver_1: RxBurstFifo,      Received: 04   Item Number: 20
%%         190.0 ns  Log    PASSED  in receiver_1: RxBurstFifo,      Received: 42   Item Number: 21
%%         190.0 ns  Log    PASSED  in receiver_1: RxBurstFifo,      Received: 47   Item Number: 22
%%         190.0 ns  Log    PASSED  in receiver_1: RxBurstFifo,      Received: 60   Item Number: 23
%%         190.0 ns  Log    PASSED  in receiver_1: RxBurstFifo,      Received: 67   Item Number: 24
%%         190.0 ns  Log    PASSED  in receiver_1: RxBurstFifo,      Received: 65   Item Number: 25
%%         190.0 ns  Log    PASSED  in receiver_1: RxBurstFifo,      Received: 44   Item Number: 26
%%         190.0 ns  Log    PASSED  in receiver_1: RxBurstFifo,      Received: 03   Item Number: 27
%%         190.0 ns  Log    PASSED  in receiver_1: RxBurstFifo,      Received: 45   Item Number: 28
%%         190.0 ns  Log    PASSED  in receiver_1: RxBurstFifo,      Received: 66   Item Number: 29
%%         190.0 ns  Log    PASSED  in receiver_1: RxBurstFifo,      Received: 43   Item Number: 30
%%         190.0 ns  Log    INFO    in receiver_1,                   Burst Check.  Operation# 2  Last Data: ----4366  TID: 02  TDest: 3  TUser: 4  TLast: 1
%%         190.0 ns  Log    PASSED  in receiver_1,                   Burst Check WordCount Received : 14
%%         190.0 ns  Log    PASSED  in receiver_1,                   ID Received : 02
%%         190.0 ns  Log    PASSED  in receiver_1,                   DEST Received : 3
%%         190.0 ns  Log    PASSED  in receiver_1,                   USER Received : 4
%%         190.0 ns  Log    PASSED  in receiver_1,                   Last Received : 1
%%         190.0 ns  Log    PASSED  in Default,                      TryCount 4
%%         200.0 ns  Log    INFO    in transmitter_1,                Axi Stream Send.  TData: 20454520  TStrb: 1111  TKeep: 1111  TID: 03  TDest: 4  TUser: 5  TLast: 0  Operation# 10
%%         210.0 ns  Log    INFO    in transmitter_1,                Axi Stream Send.  TData: 21464527  TStrb: 1111  TKeep: 1111  TID: 03  TDest: 4  TUser: 5  TLast: 0  Operation# 11
%%         220.0 ns  Log    INFO    in transmitter_1,                Axi Stream Send.  TData: 63036107  TStrb: 1111  TKeep: 1111  TID: 03  TDest: 4  TUser: 5  TLast: 0  Operation# 12
%%         220.0 ns  Log    ALWAYS  in Default,                      Transmit 13 bytes.
%%         230.0 ns  Log    INFO    in transmitter_1,                Axi Stream Send.  TData: XXXXXX47  TStrb: 0001  TKeep: 0001  TID: 03  TDest: 4  TUser: 5  TLast: 1  Operation# 13
%%         240.0 ns  Log    INFO    in transmitter_1,                Axi Stream Send.  TData: 24036224  TStrb: 1111  TKeep: 1111  TID: 04  TDest: 5  TUser: 6  TLast: 0  Operation# 14
%%         250.0 ns  Log    INFO    in transmitter_1,                Axi Stream Send.  TData: 02412044  TStrb: 1111  TKeep: 1111  TID: 04  TDest: 5  TUser: 6  TLast: 0  Operation# 15
%%         260.0 ns  Log    INFO    in transmitter_1,                Axi Stream Send.  TData: 63604604  TStrb: 1111  TKeep: 1111  TID: 04  TDest: 5  TUser: 6  TLast: 0  Operation# 16
%%         260.0 ns  Log    PASSED  in receiver_1: RxBurstFifo,      Received: 25   Item Number: 31
%%         260.0 ns  Log    PASSED  in receiver_1: RxBurstFifo,      Received: 40   Item Number: 32
%%         260.0 ns  Log    PASSED  in receiver_1: RxBurstFifo,      Received: 23   Item Number: 33
%%         260.0 ns  Log    PASSED  in receiver_1: RxBurstFifo,      Received: 67   Item Number: 34
%%         260.0 ns  Log    PASSED  in receiver_1: RxBurstFifo,      Received: 20   Item Number: 35
%%         260.0 ns  Log    PASSED  in receiver_1: RxBurstFifo,      Received: 45   Item Number: 36
%%         260.0 ns  Log    PASSED  in receiver_1: RxBurstFifo,      Received: 45   Item Number: 37
%%         260.0 ns  Log    PASSED  in receiver_1: RxBurstFifo,      Received: 20   Item Number: 38
%%         260.0 ns  Log    PASSED  in receiver_1: RxBurstFifo,      Received: 27   Item Number: 39
%%         260.0 ns  Log    PASSED  in receiver_1: RxBurstFifo,      Received: 45   Item Number: 40
%%         260.0 ns  Log    PASSED  in receiver_1: RxBurstFifo,      Received: 46   Item Number: 41
%%         260.0 ns  Log    PASSED  in receiver_1: RxBurstFifo,      Received: 21   Item Number: 42
%%         260.0 ns  Log    PASSED  in receiver_1: RxBurstFifo,      Received: 07   Item Number: 43
%%         260.0 ns  Log    PASSED  in receiver_1: RxBurstFifo,      Received: 61   Item Number: 44
%%         260.0 ns  Log    PASSED  in receiver_1: RxBurstFifo,      Received: 03   Item Number: 45
%%         260.0 ns  Log    PASSED  in receiver_1: RxBurstFifo,      Received: 63   Item Number: 46
%%         260.0 ns  Log    PASSED  in receiver_1: RxBurstFifo,      Received: 47   Item Number: 47
%%         260.0 ns  Log    INFO    in receiver_1,                   Burst Check.  Operation# 3  Last Data: ------47  TID: 03  TDest: 4  TUser: 5  TLast: 1
%%         260.0 ns  Log    PASSED  in receiver_1,                   Burst Check WordCount Received : 17
%%         260.0 ns  Log    PASSED  in receiver_1,                   ID Received : 03
%%         260.0 ns  Log    PASSED  in receiver_1,                   DEST Received : 4
%%         260.0 ns  Log    PASSED  in receiver_1,                   USER Received : 5
%%         260.0 ns  Log    PASSED  in receiver_1,                   Last Received : 1
TryCount 0
%%         270.0 ns  Log    INFO    in transmitter_1,                Axi Stream Send.  TData: XXXXXX42  TStrb: 0001  TKeep: 0001  TID: 04  TDest: 5  TUser: 6  TLast: 1  Operation# 17
%%         280.0 ns  Log    PASSED  in receiver_1: RxBurstFifo,      Received: 24   Item Number: 48
%%         280.0 ns  Log    PASSED  in receiver_1: RxBurstFifo,      Received: 62   Item Number: 49
%%         280.0 ns  Log    PASSED  in receiver_1: RxBurstFifo,      Received: 03   Item Number: 50
%%         280.0 ns  Log    PASSED  in receiver_1: RxBurstFifo,      Received: 24   Item Number: 51
%%         280.0 ns  Log    PASSED  in receiver_1: RxBurstFifo,      Received: 44   Item Number: 52
%%         280.0 ns  Log    PASSED  in receiver_1: RxBurstFifo,      Received: 20   Item Number: 53
%%         280.0 ns  Log    PASSED  in receiver_1: RxBurstFifo,      Received: 41   Item Number: 54
%%         280.0 ns  Log    PASSED  in receiver_1: RxBurstFifo,      Received: 02   Item Number: 55
%%         280.0 ns  Log    PASSED  in receiver_1: RxBurstFifo,      Received: 04   Item Number: 56
%%         280.0 ns  Log    PASSED  in receiver_1: RxBurstFifo,      Received: 46   Item Number: 57
%%         280.0 ns  Log    PASSED  in receiver_1: RxBurstFifo,      Received: 60   Item Number: 58
%%         280.0 ns  Log    PASSED  in receiver_1: RxBurstFifo,      Received: 63   Item Number: 59
%%         280.0 ns  Log    PASSED  in receiver_1: RxBurstFifo,      Received: 42   Item Number: 60
%%         280.0 ns  Log    INFO    in receiver_1,                   Burst Check.  Operation# 4  Last Data: ------42  TID: 04  TDest: 5  TUser: 6  TLast: 1
%%         280.0 ns  Log    PASSED  in receiver_1,                   Burst Check WordCount Received : 13
%%         280.0 ns  Log    PASSED  in receiver_1,                   ID Received : 04
%%         280.0 ns  Log    PASSED  in receiver_1,                   DEST Received : 5
%%         280.0 ns  Log    PASSED  in receiver_1,                   USER Received : 6
%%         280.0 ns  Log    PASSED  in receiver_1,                   Last Received : 1
%%         280.0 ns  Log    PASSED  in Default,                      TryCount 2
