%%    110 ns    Log    INFO      in transmitter_1,                Axi Stream Send.  TData: 00000000  TStrb: 1111  TKeep: 1111  TID: 03  TDest: 2  TUser: 0  TLast: 0  Operation# 1
%%    120 ns    Log    INFO      in transmitter_1,                Axi Stream Send.  TData: 00000001  TStrb: 1111  TKeep: 1111  TID: 03  TDest: 2  TUser: 1  TLast: 0  Operation# 2
%%    130 ns    Log    INFO      in transmitter_1,                Axi Stream Send.  TData: 00000002  TStrb: 1111  TKeep: 1111  TID: 03  TDest: 2  TUser: 2  TLast: 0  Operation# 3
%%    140 ns    Log    INFO      in transmitter_1,                Axi Stream Send.  TData: 00000003  TStrb: 1111  TKeep: 1111  TID: 03  TDest: 2  TUser: 3  TLast: 0  Operation# 4
%%    150 ns    Log    INFO      in transmitter_1,                Axi Stream Send.  TData: 00000004  TStrb: 1111  TKeep: 1111  TID: 03  TDest: 2  TUser: 4  TLast: 0  Operation# 5
%%    160 ns    Log    INFO      in transmitter_1,                Axi Stream Send.  TData: 00000005  TStrb: 1111  TKeep: 1111  TID: 03  TDest: 2  TUser: 5  TLast: 0  Operation# 6
%%    170 ns    Log    INFO      in transmitter_1,                Axi Stream Send.  TData: 00000006  TStrb: 1111  TKeep: 1111  TID: 03  TDest: 2  TUser: 6  TLast: 0  Operation# 7
%%    180 ns    Log    INFO      in transmitter_1,                Axi Stream Send.  TData: 00000007  TStrb: 1111  TKeep: 1111  TID: 03  TDest: 2  TUser: 7  TLast: 0  Operation# 8
%%    190 ns    Log    INFO      in transmitter_1,                Axi Stream Send.  TData: 00000008  TStrb: 1111  TKeep: 1111  TID: 03  TDest: 2  TUser: 8  TLast: 0  Operation# 9
%%    200 ns    Log    INFO      in transmitter_1,                Axi Stream Send.  TData: 00000009  TStrb: 1111  TKeep: 1111  TID: 03  TDest: 2  TUser: 9  TLast: 0  Operation# 10
%%    210 ns    Log    INFO      in transmitter_1,                Axi Stream Send.  TData: 0000000A  TStrb: 1111  TKeep: 1111  TID: 03  TDest: 2  TUser: A  TLast: 0  Operation# 11
%%    220 ns    Log    INFO      in transmitter_1,                Axi Stream Send.  TData: 0000000B  TStrb: 1111  TKeep: 1111  TID: 03  TDest: 2  TUser: B  TLast: 0  Operation# 12
%%    230 ns    Log    INFO      in transmitter_1,                Axi Stream Send.  TData: 0000000C  TStrb: 1111  TKeep: 1111  TID: 03  TDest: 2  TUser: C  TLast: 0  Operation# 13
%%    240 ns    Log    INFO      in transmitter_1,                Axi Stream Send.  TData: 0000000D  TStrb: 1111  TKeep: 1111  TID: 03  TDest: 2  TUser: D  TLast: 0  Operation# 14
%%    250 ns    Log    INFO      in transmitter_1,                Axi Stream Send.  TData: 0000000E  TStrb: 1111  TKeep: 1111  TID: 03  TDest: 2  TUser: E  TLast: 0  Operation# 15
%%    260 ns    Log    INFO      in transmitter_1,                Axi Stream Send.  TData: 0000000F  TStrb: 1111  TKeep: 1111  TID: 03  TDest: 2  TUser: F  TLast: 0  Operation# 16
%%    270 ns    Log    INFO      in transmitter_1,                Axi Stream Send.  TData: 00000010  TStrb: 1111  TKeep: 1111  TID: 03  TDest: 2  TUser: 0  TLast: 0  Operation# 17
%%    280 ns    Log    INFO      in transmitter_1,                Axi Stream Send.  TData: 00000011  TStrb: 1111  TKeep: 1111  TID: 03  TDest: 2  TUser: 1  TLast: 0  Operation# 18
%%    290 ns    Log    INFO      in transmitter_1,                Axi Stream Send.  TData: 00000012  TStrb: 1111  TKeep: 1111  TID: 03  TDest: 2  TUser: 2  TLast: 0  Operation# 19
%%    300 ns    Log    INFO      in transmitter_1,                Axi Stream Send.  TData: 00000013  TStrb: 1111  TKeep: 1111  TID: 03  TDest: 2  TUser: 3  TLast: 0  Operation# 20
%%    310 ns    Log    INFO      in transmitter_1,                Axi Stream Send.  TData: 00000014  TStrb: 1111  TKeep: 1111  TID: 03  TDest: 2  TUser: 4  TLast: 0  Operation# 21
%%    320 ns    Log    INFO      in transmitter_1,                Axi Stream Send.  TData: 00000015  TStrb: 1111  TKeep: 1111  TID: 03  TDest: 2  TUser: 5  TLast: 0  Operation# 22
%%    330 ns    Log    INFO      in transmitter_1,                Axi Stream Send.  TData: 00000016  TStrb: 1111  TKeep: 1111  TID: 03  TDest: 2  TUser: 6  TLast: 0  Operation# 23
%%    340 ns    Log    INFO      in transmitter_1,                Axi Stream Send.  TData: 00000017  TStrb: 1111  TKeep: 1111  TID: 03  TDest: 2  TUser: 7  TLast: 0  Operation# 24
%%    350 ns    Log    INFO      in transmitter_1,                Axi Stream Send.  TData: 00000018  TStrb: 1111  TKeep: 1111  TID: 03  TDest: 2  TUser: 8  TLast: 0  Operation# 25
%%    360 ns    Log    INFO      in transmitter_1,                Axi Stream Send.  TData: 00000019  TStrb: 1111  TKeep: 1111  TID: 03  TDest: 2  TUser: 9  TLast: 0  Operation# 26
%%    370 ns    Log    INFO      in transmitter_1,                Axi Stream Send.  TData: 0000001A  TStrb: 1111  TKeep: 1111  TID: 03  TDest: 2  TUser: A  TLast: 0  Operation# 27
%%    380 ns    Log    INFO      in transmitter_1,                Axi Stream Send.  TData: 0000001B  TStrb: 1111  TKeep: 1111  TID: 03  TDest: 2  TUser: B  TLast: 0  Operation# 28
%%    390 ns    Log    INFO      in transmitter_1,                Axi Stream Send.  TData: 0000001C  TStrb: 1111  TKeep: 1111  TID: 03  TDest: 2  TUser: C  TLast: 0  Operation# 29
%%    400 ns    Log    INFO      in transmitter_1,                Axi Stream Send.  TData: 0000001D  TStrb: 1111  TKeep: 1111  TID: 03  TDest: 2  TUser: D  TLast: 0  Operation# 30
%%    410 ns    Log    INFO      in transmitter_1,                Axi Stream Send.  TData: 0000001E  TStrb: 1111  TKeep: 1111  TID: 03  TDest: 2  TUser: E  TLast: 0  Operation# 31
%%    420 ns    Log    INFO      in transmitter_1,                Axi Stream Send.  TData: 0000001F  TStrb: 1111  TKeep: 1111  TID: 03  TDest: 2  TUser: F  TLast: 1  Operation# 32
%%    430 ns    Log    PASSED    in receiver_1: RxBurstFifo,      Data Received : 00000000
%%    430 ns    Log    PASSED    in receiver_1: RxBurstFifo,      User Received : 0
%%    430 ns    Log    PASSED    in receiver_1: RxBurstFifo,      Data Received : 00000001
%%    430 ns    Log    PASSED    in receiver_1: RxBurstFifo,      User Received : 1
%%    430 ns    Log    PASSED    in receiver_1: RxBurstFifo,      Data Received : 00000002
%%    430 ns    Log    PASSED    in receiver_1: RxBurstFifo,      User Received : 2
%%    430 ns    Log    PASSED    in receiver_1: RxBurstFifo,      Data Received : 00000003
%%    430 ns    Log    PASSED    in receiver_1: RxBurstFifo,      User Received : 3
%%    430 ns    Log    PASSED    in receiver_1: RxBurstFifo,      Data Received : 00000004
%%    430 ns    Log    PASSED    in receiver_1: RxBurstFifo,      User Received : 4
%%    430 ns    Log    PASSED    in receiver_1: RxBurstFifo,      Data Received : 00000005
%%    430 ns    Log    PASSED    in receiver_1: RxBurstFifo,      User Received : 5
%%    430 ns    Log    PASSED    in receiver_1: RxBurstFifo,      Data Received : 00000006
%%    430 ns    Log    PASSED    in receiver_1: RxBurstFifo,      User Received : 6
%%    430 ns    Log    PASSED    in receiver_1: RxBurstFifo,      Data Received : 00000007
%%    430 ns    Log    PASSED    in receiver_1: RxBurstFifo,      User Received : 7
%%    430 ns    Log    PASSED    in receiver_1: RxBurstFifo,      Data Received : 00000008
%%    430 ns    Log    PASSED    in receiver_1: RxBurstFifo,      User Received : 8
%%    430 ns    Log    PASSED    in receiver_1: RxBurstFifo,      Data Received : 00000009
%%    430 ns    Log    PASSED    in receiver_1: RxBurstFifo,      User Received : 9
%%    430 ns    Log    PASSED    in receiver_1: RxBurstFifo,      Data Received : 0000000A
%%    430 ns    Log    PASSED    in receiver_1: RxBurstFifo,      User Received : A
%%    430 ns    Log    PASSED    in receiver_1: RxBurstFifo,      Data Received : 0000000B
%%    430 ns    Log    PASSED    in receiver_1: RxBurstFifo,      User Received : B
%%    430 ns    Log    PASSED    in receiver_1: RxBurstFifo,      Data Received : 0000000C
%%    430 ns    Log    PASSED    in receiver_1: RxBurstFifo,      User Received : C
%%    430 ns    Log    PASSED    in receiver_1: RxBurstFifo,      Data Received : 0000000D
%%    430 ns    Log    PASSED    in receiver_1: RxBurstFifo,      User Received : D
%%    430 ns    Log    PASSED    in receiver_1: RxBurstFifo,      Data Received : 0000000E
%%    430 ns    Log    PASSED    in receiver_1: RxBurstFifo,      User Received : E
%%    430 ns    Log    PASSED    in receiver_1: RxBurstFifo,      Data Received : 0000000F
%%    430 ns    Log    PASSED    in receiver_1: RxBurstFifo,      User Received : F
%%    430 ns    Log    PASSED    in receiver_1: RxBurstFifo,      Data Received : 00000010
%%    430 ns    Log    PASSED    in receiver_1: RxBurstFifo,      User Received : 0
%%    430 ns    Log    PASSED    in receiver_1: RxBurstFifo,      Data Received : 00000011
%%    430 ns    Log    PASSED    in receiver_1: RxBurstFifo,      User Received : 1
%%    430 ns    Log    PASSED    in receiver_1: RxBurstFifo,      Data Received : 00000012
%%    430 ns    Log    PASSED    in receiver_1: RxBurstFifo,      User Received : 2
%%    430 ns    Log    PASSED    in receiver_1: RxBurstFifo,      Data Received : 00000013
%%    430 ns    Log    PASSED    in receiver_1: RxBurstFifo,      User Received : 3
%%    430 ns    Log    PASSED    in receiver_1: RxBurstFifo,      Data Received : 00000014
%%    430 ns    Log    PASSED    in receiver_1: RxBurstFifo,      User Received : 4
%%    430 ns    Log    PASSED    in receiver_1: RxBurstFifo,      Data Received : 00000015
%%    430 ns    Log    PASSED    in receiver_1: RxBurstFifo,      User Received : 5
%%    430 ns    Log    PASSED    in receiver_1: RxBurstFifo,      Data Received : 00000016
%%    430 ns    Log    PASSED    in receiver_1: RxBurstFifo,      User Received : 6
%%    430 ns    Log    PASSED    in receiver_1: RxBurstFifo,      Data Received : 00000017
%%    430 ns    Log    PASSED    in receiver_1: RxBurstFifo,      User Received : 7
%%    430 ns    Log    PASSED    in receiver_1: RxBurstFifo,      Data Received : 00000018
%%    430 ns    Log    PASSED    in receiver_1: RxBurstFifo,      User Received : 8
%%    430 ns    Log    PASSED    in receiver_1: RxBurstFifo,      Data Received : 00000019
%%    430 ns    Log    PASSED    in receiver_1: RxBurstFifo,      User Received : 9
%%    430 ns    Log    PASSED    in receiver_1: RxBurstFifo,      Data Received : 0000001A
%%    430 ns    Log    PASSED    in receiver_1: RxBurstFifo,      User Received : A
%%    430 ns    Log    PASSED    in receiver_1: RxBurstFifo,      Data Received : 0000001B
%%    430 ns    Log    PASSED    in receiver_1: RxBurstFifo,      User Received : B
%%    430 ns    Log    PASSED    in receiver_1: RxBurstFifo,      Data Received : 0000001C
%%    430 ns    Log    PASSED    in receiver_1: RxBurstFifo,      User Received : C
%%    430 ns    Log    PASSED    in receiver_1: RxBurstFifo,      Data Received : 0000001D
%%    430 ns    Log    PASSED    in receiver_1: RxBurstFifo,      User Received : D
%%    430 ns    Log    PASSED    in receiver_1: RxBurstFifo,      Data Received : 0000001E
%%    430 ns    Log    PASSED    in receiver_1: RxBurstFifo,      User Received : E
%%    430 ns    Log    PASSED    in receiver_1: RxBurstFifo,      Data Received : 0000001F
%%    430 ns    Log    PASSED    in receiver_1: RxBurstFifo,      User Received : F
%%    430 ns    Log    INFO      in receiver_1,                   Burst Check.  Operation# 1  Last Data: 0000001F  TID: 03  TDest: 2  TUser: F  TLast: 1
%%    430 ns    Log    PASSED    in receiver_1,                   Burst Check WordCount Received : 32
%%    430 ns    Log    PASSED    in receiver_1,                   ID Received : 03
%%    430 ns    Log    PASSED    in receiver_1,                   DEST Received : 2
%%    430 ns    Log    PASSED    in receiver_1,                   Last Received : 1
%%    430 ns    Log    INFO      in transmitter_1,                Axi Stream Send.  TData: 00000020  TStrb: 1111  TKeep: 1111  TID: 03  TDest: 2  TUser: 0  TLast: 0  Operation# 33
%%    440 ns    Log    INFO      in transmitter_1,                Axi Stream Send.  TData: 00000021  TStrb: 1111  TKeep: 1111  TID: 03  TDest: 2  TUser: 1  TLast: 0  Operation# 34
%%    450 ns    Log    INFO      in transmitter_1,                Axi Stream Send.  TData: 00000022  TStrb: 1111  TKeep: 1111  TID: 03  TDest: 2  TUser: 2  TLast: 0  Operation# 35
%%    460 ns    Log    INFO      in transmitter_1,                Axi Stream Send.  TData: 00000023  TStrb: 1111  TKeep: 1111  TID: 03  TDest: 2  TUser: 3  TLast: 0  Operation# 36
%%    470 ns    Log    INFO      in transmitter_1,                Axi Stream Send.  TData: 00000024  TStrb: 1111  TKeep: 1111  TID: 03  TDest: 2  TUser: 4  TLast: 0  Operation# 37
%%    480 ns    Log    INFO      in transmitter_1,                Axi Stream Send.  TData: 00000025  TStrb: 1111  TKeep: 1111  TID: 03  TDest: 2  TUser: 5  TLast: 0  Operation# 38
%%    490 ns    Log    INFO      in transmitter_1,                Axi Stream Send.  TData: 00000026  TStrb: 1111  TKeep: 1111  TID: 03  TDest: 2  TUser: 6  TLast: 0  Operation# 39
%%    500 ns    Log    INFO      in transmitter_1,                Axi Stream Send.  TData: 00000027  TStrb: 1111  TKeep: 1111  TID: 03  TDest: 2  TUser: 7  TLast: 0  Operation# 40
%%    510 ns    Log    INFO      in transmitter_1,                Axi Stream Send.  TData: 00000028  TStrb: 1111  TKeep: 1111  TID: 03  TDest: 2  TUser: 8  TLast: 0  Operation# 41
%%    520 ns    Log    INFO      in transmitter_1,                Axi Stream Send.  TData: 00000029  TStrb: 1111  TKeep: 1111  TID: 03  TDest: 2  TUser: 9  TLast: 0  Operation# 42
%%    530 ns    Log    INFO      in transmitter_1,                Axi Stream Send.  TData: 0000002A  TStrb: 1111  TKeep: 1111  TID: 03  TDest: 2  TUser: A  TLast: 0  Operation# 43
%%    540 ns    Log    INFO      in transmitter_1,                Axi Stream Send.  TData: 0000002B  TStrb: 1111  TKeep: 1111  TID: 03  TDest: 2  TUser: B  TLast: 0  Operation# 44
%%    550 ns    Log    INFO      in transmitter_1,                Axi Stream Send.  TData: 0000002C  TStrb: 1111  TKeep: 1111  TID: 03  TDest: 2  TUser: C  TLast: 0  Operation# 45
%%    560 ns    Log    INFO      in transmitter_1,                Axi Stream Send.  TData: 0000002D  TStrb: 1111  TKeep: 1111  TID: 03  TDest: 2  TUser: D  TLast: 0  Operation# 46
%%    570 ns    Log    INFO      in transmitter_1,                Axi Stream Send.  TData: 0000002E  TStrb: 1111  TKeep: 1111  TID: 03  TDest: 2  TUser: E  TLast: 0  Operation# 47
%%    580 ns    Log    INFO      in transmitter_1,                Axi Stream Send.  TData: 0000002F  TStrb: 1111  TKeep: 1111  TID: 03  TDest: 2  TUser: F  TLast: 0  Operation# 48
%%    590 ns    Log    INFO      in transmitter_1,                Axi Stream Send.  TData: 00000030  TStrb: 1111  TKeep: 1111  TID: 03  TDest: 2  TUser: 0  TLast: 0  Operation# 49
%%    600 ns    Log    INFO      in transmitter_1,                Axi Stream Send.  TData: 00000031  TStrb: 1111  TKeep: 1111  TID: 03  TDest: 2  TUser: 1  TLast: 0  Operation# 50
%%    610 ns    Log    INFO      in transmitter_1,                Axi Stream Send.  TData: 00000032  TStrb: 1111  TKeep: 1111  TID: 03  TDest: 2  TUser: 2  TLast: 0  Operation# 51
%%    620 ns    Log    INFO      in transmitter_1,                Axi Stream Send.  TData: 00000033  TStrb: 1111  TKeep: 1111  TID: 03  TDest: 2  TUser: 3  TLast: 0  Operation# 52
%%    630 ns    Log    INFO      in transmitter_1,                Axi Stream Send.  TData: 00000034  TStrb: 1111  TKeep: 1111  TID: 03  TDest: 2  TUser: 4  TLast: 0  Operation# 53
%%    640 ns    Log    INFO      in transmitter_1,                Axi Stream Send.  TData: 00000035  TStrb: 1111  TKeep: 1111  TID: 03  TDest: 2  TUser: 5  TLast: 0  Operation# 54
%%    650 ns    Log    INFO      in transmitter_1,                Axi Stream Send.  TData: 00000036  TStrb: 1111  TKeep: 1111  TID: 03  TDest: 2  TUser: 6  TLast: 0  Operation# 55
%%    660 ns    Log    INFO      in transmitter_1,                Axi Stream Send.  TData: 00000037  TStrb: 1111  TKeep: 1111  TID: 03  TDest: 2  TUser: 7  TLast: 0  Operation# 56
%%    670 ns    Log    INFO      in transmitter_1,                Axi Stream Send.  TData: 00000038  TStrb: 1111  TKeep: 1111  TID: 03  TDest: 2  TUser: 8  TLast: 0  Operation# 57
%%    680 ns    Log    INFO      in transmitter_1,                Axi Stream Send.  TData: 00000039  TStrb: 1111  TKeep: 1111  TID: 03  TDest: 2  TUser: 9  TLast: 0  Operation# 58
%%    690 ns    Log    INFO      in transmitter_1,                Axi Stream Send.  TData: 0000003A  TStrb: 1111  TKeep: 1111  TID: 03  TDest: 2  TUser: A  TLast: 0  Operation# 59
%%    700 ns    Log    INFO      in transmitter_1,                Axi Stream Send.  TData: 0000003B  TStrb: 1111  TKeep: 1111  TID: 03  TDest: 2  TUser: B  TLast: 0  Operation# 60
%%    710 ns    Log    INFO      in transmitter_1,                Axi Stream Send.  TData: 0000003C  TStrb: 1111  TKeep: 1111  TID: 03  TDest: 2  TUser: C  TLast: 0  Operation# 61
%%    720 ns    Log    INFO      in transmitter_1,                Axi Stream Send.  TData: 0000003D  TStrb: 1111  TKeep: 1111  TID: 03  TDest: 2  TUser: D  TLast: 0  Operation# 62
%%    730 ns    Log    INFO      in transmitter_1,                Axi Stream Send.  TData: 0000003E  TStrb: 1111  TKeep: 1111  TID: 03  TDest: 2  TUser: E  TLast: 0  Operation# 63
%%    740 ns    Log    INFO      in transmitter_1,                Axi Stream Send.  TData: 0000003F  TStrb: 1111  TKeep: 1111  TID: 03  TDest: 2  TUser: F  TLast: 1  Operation# 64
%%    750 ns    Log    PASSED    in receiver_1: RxBurstFifo,      Data Received : 00000020
%%    750 ns    Log    PASSED    in receiver_1: RxBurstFifo,      User Received : 0
%%    750 ns    Log    PASSED    in receiver_1: RxBurstFifo,      Data Received : 00000021
%%    750 ns    Log    PASSED    in receiver_1: RxBurstFifo,      User Received : 1
%%    750 ns    Log    PASSED    in receiver_1: RxBurstFifo,      Data Received : 00000022
%%    750 ns    Log    PASSED    in receiver_1: RxBurstFifo,      User Received : 2
%%    750 ns    Log    PASSED    in receiver_1: RxBurstFifo,      Data Received : 00000023
%%    750 ns    Log    PASSED    in receiver_1: RxBurstFifo,      User Received : 3
%%    750 ns    Log    PASSED    in receiver_1: RxBurstFifo,      Data Received : 00000024
%%    750 ns    Log    PASSED    in receiver_1: RxBurstFifo,      User Received : 4
%%    750 ns    Log    PASSED    in receiver_1: RxBurstFifo,      Data Received : 00000025
%%    750 ns    Log    PASSED    in receiver_1: RxBurstFifo,      User Received : 5
%%    750 ns    Log    PASSED    in receiver_1: RxBurstFifo,      Data Received : 00000026
%%    750 ns    Log    PASSED    in receiver_1: RxBurstFifo,      User Received : 6
%%    750 ns    Log    PASSED    in receiver_1: RxBurstFifo,      Data Received : 00000027
%%    750 ns    Log    PASSED    in receiver_1: RxBurstFifo,      User Received : 7
%%    750 ns    Log    PASSED    in receiver_1: RxBurstFifo,      Data Received : 00000028
%%    750 ns    Log    PASSED    in receiver_1: RxBurstFifo,      User Received : 8
%%    750 ns    Log    PASSED    in receiver_1: RxBurstFifo,      Data Received : 00000029
%%    750 ns    Log    PASSED    in receiver_1: RxBurstFifo,      User Received : 9
%%    750 ns    Log    PASSED    in receiver_1: RxBurstFifo,      Data Received : 0000002A
%%    750 ns    Log    PASSED    in receiver_1: RxBurstFifo,      User Received : A
%%    750 ns    Log    PASSED    in receiver_1: RxBurstFifo,      Data Received : 0000002B
%%    750 ns    Log    PASSED    in receiver_1: RxBurstFifo,      User Received : B
%%    750 ns    Log    PASSED    in receiver_1: RxBurstFifo,      Data Received : 0000002C
%%    750 ns    Log    PASSED    in receiver_1: RxBurstFifo,      User Received : C
%%    750 ns    Log    PASSED    in receiver_1: RxBurstFifo,      Data Received : 0000002D
%%    750 ns    Log    PASSED    in receiver_1: RxBurstFifo,      User Received : D
%%    750 ns    Log    PASSED    in receiver_1: RxBurstFifo,      Data Received : 0000002E
%%    750 ns    Log    PASSED    in receiver_1: RxBurstFifo,      User Received : E
%%    750 ns    Log    PASSED    in receiver_1: RxBurstFifo,      Data Received : 0000002F
%%    750 ns    Log    PASSED    in receiver_1: RxBurstFifo,      User Received : F
%%    750 ns    Log    PASSED    in receiver_1: RxBurstFifo,      Data Received : 00000030
%%    750 ns    Log    PASSED    in receiver_1: RxBurstFifo,      User Received : 0
%%    750 ns    Log    PASSED    in receiver_1: RxBurstFifo,      Data Received : 00000031
%%    750 ns    Log    PASSED    in receiver_1: RxBurstFifo,      User Received : 1
%%    750 ns    Log    PASSED    in receiver_1: RxBurstFifo,      Data Received : 00000032
%%    750 ns    Log    PASSED    in receiver_1: RxBurstFifo,      User Received : 2
%%    750 ns    Log    PASSED    in receiver_1: RxBurstFifo,      Data Received : 00000033
%%    750 ns    Log    PASSED    in receiver_1: RxBurstFifo,      User Received : 3
%%    750 ns    Log    PASSED    in receiver_1: RxBurstFifo,      Data Received : 00000034
%%    750 ns    Log    PASSED    in receiver_1: RxBurstFifo,      User Received : 4
%%    750 ns    Log    PASSED    in receiver_1: RxBurstFifo,      Data Received : 00000035
%%    750 ns    Log    PASSED    in receiver_1: RxBurstFifo,      User Received : 5
%%    750 ns    Log    PASSED    in receiver_1: RxBurstFifo,      Data Received : 00000036
%%    750 ns    Log    PASSED    in receiver_1: RxBurstFifo,      User Received : 6
%%    750 ns    Log    PASSED    in receiver_1: RxBurstFifo,      Data Received : 00000037
%%    750 ns    Log    PASSED    in receiver_1: RxBurstFifo,      User Received : 7
%%    750 ns    Log    PASSED    in receiver_1: RxBurstFifo,      Data Received : 00000038
%%    750 ns    Log    PASSED    in receiver_1: RxBurstFifo,      User Received : 8
%%    750 ns    Log    PASSED    in receiver_1: RxBurstFifo,      Data Received : 00000039
%%    750 ns    Log    PASSED    in receiver_1: RxBurstFifo,      User Received : 9
%%    750 ns    Log    PASSED    in receiver_1: RxBurstFifo,      Data Received : 0000003A
%%    750 ns    Log    PASSED    in receiver_1: RxBurstFifo,      User Received : A
%%    750 ns    Log    PASSED    in receiver_1: RxBurstFifo,      Data Received : 0000003B
%%    750 ns    Log    PASSED    in receiver_1: RxBurstFifo,      User Received : B
%%    750 ns    Log    PASSED    in receiver_1: RxBurstFifo,      Data Received : 0000003C
%%    750 ns    Log    PASSED    in receiver_1: RxBurstFifo,      User Received : C
%%    750 ns    Log    PASSED    in receiver_1: RxBurstFifo,      Data Received : 0000003D
%%    750 ns    Log    PASSED    in receiver_1: RxBurstFifo,      User Received : D
%%    750 ns    Log    PASSED    in receiver_1: RxBurstFifo,      Data Received : 0000003E
%%    750 ns    Log    PASSED    in receiver_1: RxBurstFifo,      User Received : E
%%    750 ns    Log    PASSED    in receiver_1: RxBurstFifo,      Data Received : 0000003F
%%    750 ns    Log    PASSED    in receiver_1: RxBurstFifo,      User Received : F
%%    750 ns    Log    INFO      in receiver_1,                   Burst Check.  Operation# 2  Last Data: 0000003F  TID: 03  TDest: 2  TUser: F  TLast: 1
%%    750 ns    Log    PASSED    in receiver_1,                   Burst Check WordCount Received : 32
%%    750 ns    Log    PASSED    in receiver_1,                   ID Received : 03
%%    750 ns    Log    PASSED    in receiver_1,                   DEST Received : 2
%%    750 ns    Log    PASSED    in receiver_1,                   Last Received : 1
%%    750 ns    Log    INFO      in transmitter_1,                Axi Stream Send.  TData: 00000040  TStrb: 1111  TKeep: 1111  TID: 03  TDest: 6  TUser: 0  TLast: 0  Operation# 65
%%    760 ns    Log    INFO      in transmitter_1,                Axi Stream Send.  TData: 00000041  TStrb: 1111  TKeep: 1111  TID: 03  TDest: 6  TUser: 1  TLast: 0  Operation# 66
%%    770 ns    Log    INFO      in transmitter_1,                Axi Stream Send.  TData: 00000042  TStrb: 1111  TKeep: 1111  TID: 03  TDest: 6  TUser: 2  TLast: 0  Operation# 67
%%    780 ns    Log    INFO      in transmitter_1,                Axi Stream Send.  TData: 00000043  TStrb: 1111  TKeep: 1111  TID: 03  TDest: 6  TUser: 3  TLast: 0  Operation# 68
%%    790 ns    Log    INFO      in transmitter_1,                Axi Stream Send.  TData: 00000044  TStrb: 1111  TKeep: 1111  TID: 03  TDest: 6  TUser: 4  TLast: 0  Operation# 69
%%    800 ns    Log    INFO      in transmitter_1,                Axi Stream Send.  TData: 00000045  TStrb: 1111  TKeep: 1111  TID: 03  TDest: 6  TUser: 5  TLast: 0  Operation# 70
%%    810 ns    Log    INFO      in transmitter_1,                Axi Stream Send.  TData: 00000046  TStrb: 1111  TKeep: 1111  TID: 03  TDest: 6  TUser: 6  TLast: 0  Operation# 71
%%    820 ns    Log    INFO      in transmitter_1,                Axi Stream Send.  TData: 00000047  TStrb: 1111  TKeep: 1111  TID: 03  TDest: 6  TUser: 7  TLast: 0  Operation# 72
%%    830 ns    Log    INFO      in transmitter_1,                Axi Stream Send.  TData: 00000048  TStrb: 1111  TKeep: 1111  TID: 03  TDest: 6  TUser: 8  TLast: 0  Operation# 73
%%    840 ns    Log    INFO      in transmitter_1,                Axi Stream Send.  TData: 00000049  TStrb: 1111  TKeep: 1111  TID: 03  TDest: 6  TUser: 9  TLast: 0  Operation# 74
%%    850 ns    Log    INFO      in transmitter_1,                Axi Stream Send.  TData: 0000004A  TStrb: 1111  TKeep: 1111  TID: 03  TDest: 6  TUser: A  TLast: 0  Operation# 75
%%    860 ns    Log    INFO      in transmitter_1,                Axi Stream Send.  TData: 0000004B  TStrb: 1111  TKeep: 1111  TID: 03  TDest: 6  TUser: B  TLast: 0  Operation# 76
%%    870 ns    Log    INFO      in transmitter_1,                Axi Stream Send.  TData: 0000004C  TStrb: 1111  TKeep: 1111  TID: 03  TDest: 6  TUser: C  TLast: 0  Operation# 77
%%    880 ns    Log    INFO      in transmitter_1,                Axi Stream Send.  TData: 0000004D  TStrb: 1111  TKeep: 1111  TID: 03  TDest: 6  TUser: D  TLast: 0  Operation# 78
%%    890 ns    Log    INFO      in transmitter_1,                Axi Stream Send.  TData: 0000004E  TStrb: 1111  TKeep: 1111  TID: 03  TDest: 6  TUser: E  TLast: 0  Operation# 79
%%    900 ns    Log    INFO      in transmitter_1,                Axi Stream Send.  TData: 0000004F  TStrb: 1111  TKeep: 1111  TID: 03  TDest: 6  TUser: F  TLast: 0  Operation# 80
%%    910 ns    Log    INFO      in transmitter_1,                Axi Stream Send.  TData: 00000050  TStrb: 1111  TKeep: 1111  TID: 03  TDest: 6  TUser: 0  TLast: 0  Operation# 81
%%    920 ns    Log    INFO      in transmitter_1,                Axi Stream Send.  TData: 00000051  TStrb: 1111  TKeep: 1111  TID: 03  TDest: 6  TUser: 1  TLast: 0  Operation# 82
%%    930 ns    Log    INFO      in transmitter_1,                Axi Stream Send.  TData: 00000052  TStrb: 1111  TKeep: 1111  TID: 03  TDest: 6  TUser: 2  TLast: 0  Operation# 83
%%    940 ns    Log    INFO      in transmitter_1,                Axi Stream Send.  TData: 00000053  TStrb: 1111  TKeep: 1111  TID: 03  TDest: 6  TUser: 3  TLast: 0  Operation# 84
%%    950 ns    Log    INFO      in transmitter_1,                Axi Stream Send.  TData: 00000054  TStrb: 1111  TKeep: 1111  TID: 03  TDest: 6  TUser: 4  TLast: 0  Operation# 85
%%    960 ns    Log    INFO      in transmitter_1,                Axi Stream Send.  TData: 00000055  TStrb: 1111  TKeep: 1111  TID: 03  TDest: 6  TUser: 5  TLast: 0  Operation# 86
%%    970 ns    Log    INFO      in transmitter_1,                Axi Stream Send.  TData: 00000056  TStrb: 1111  TKeep: 1111  TID: 03  TDest: 6  TUser: 6  TLast: 0  Operation# 87
%%    980 ns    Log    INFO      in transmitter_1,                Axi Stream Send.  TData: 00000057  TStrb: 1111  TKeep: 1111  TID: 03  TDest: 6  TUser: 7  TLast: 0  Operation# 88
%%    990 ns    Log    INFO      in transmitter_1,                Axi Stream Send.  TData: 00000058  TStrb: 1111  TKeep: 1111  TID: 03  TDest: 6  TUser: 8  TLast: 0  Operation# 89
%%   1000 ns    Log    INFO      in transmitter_1,                Axi Stream Send.  TData: 00000059  TStrb: 1111  TKeep: 1111  TID: 03  TDest: 6  TUser: 9  TLast: 0  Operation# 90
%%   1010 ns    Log    INFO      in transmitter_1,                Axi Stream Send.  TData: 0000005A  TStrb: 1111  TKeep: 1111  TID: 03  TDest: 6  TUser: A  TLast: 0  Operation# 91
%%   1020 ns    Log    INFO      in transmitter_1,                Axi Stream Send.  TData: 0000005B  TStrb: 1111  TKeep: 1111  TID: 03  TDest: 6  TUser: B  TLast: 0  Operation# 92
%%   1030 ns    Log    INFO      in transmitter_1,                Axi Stream Send.  TData: 0000005C  TStrb: 1111  TKeep: 1111  TID: 03  TDest: 6  TUser: C  TLast: 0  Operation# 93
%%   1040 ns    Log    INFO      in transmitter_1,                Axi Stream Send.  TData: 0000005D  TStrb: 1111  TKeep: 1111  TID: 03  TDest: 6  TUser: D  TLast: 0  Operation# 94
%%   1050 ns    Log    INFO      in transmitter_1,                Axi Stream Send.  TData: 0000005E  TStrb: 1111  TKeep: 1111  TID: 03  TDest: 6  TUser: E  TLast: 0  Operation# 95
%%   1060 ns    Log    INFO      in transmitter_1,                Axi Stream Send.  TData: 0000005F  TStrb: 1111  TKeep: 1111  TID: 03  TDest: 6  TUser: F  TLast: 1  Operation# 96
%%   1070 ns    Log    PASSED    in receiver_1: RxBurstFifo,      Data Received : 00000040
%%   1070 ns    Log    PASSED    in receiver_1: RxBurstFifo,      User Received : 0
%%   1070 ns    Log    PASSED    in receiver_1: RxBurstFifo,      Data Received : 00000041
%%   1070 ns    Log    PASSED    in receiver_1: RxBurstFifo,      User Received : 1
%%   1070 ns    Log    PASSED    in receiver_1: RxBurstFifo,      Data Received : 00000042
%%   1070 ns    Log    PASSED    in receiver_1: RxBurstFifo,      User Received : 2
%%   1070 ns    Log    PASSED    in receiver_1: RxBurstFifo,      Data Received : 00000043
%%   1070 ns    Log    PASSED    in receiver_1: RxBurstFifo,      User Received : 3
%%   1070 ns    Log    PASSED    in receiver_1: RxBurstFifo,      Data Received : 00000044
%%   1070 ns    Log    PASSED    in receiver_1: RxBurstFifo,      User Received : 4
%%   1070 ns    Log    PASSED    in receiver_1: RxBurstFifo,      Data Received : 00000045
%%   1070 ns    Log    PASSED    in receiver_1: RxBurstFifo,      User Received : 5
%%   1070 ns    Log    PASSED    in receiver_1: RxBurstFifo,      Data Received : 00000046
%%   1070 ns    Log    PASSED    in receiver_1: RxBurstFifo,      User Received : 6
%%   1070 ns    Log    PASSED    in receiver_1: RxBurstFifo,      Data Received : 00000047
%%   1070 ns    Log    PASSED    in receiver_1: RxBurstFifo,      User Received : 7
%%   1070 ns    Log    PASSED    in receiver_1: RxBurstFifo,      Data Received : 00000048
%%   1070 ns    Log    PASSED    in receiver_1: RxBurstFifo,      User Received : 8
%%   1070 ns    Log    PASSED    in receiver_1: RxBurstFifo,      Data Received : 00000049
%%   1070 ns    Log    PASSED    in receiver_1: RxBurstFifo,      User Received : 9
%%   1070 ns    Log    PASSED    in receiver_1: RxBurstFifo,      Data Received : 0000004A
%%   1070 ns    Log    PASSED    in receiver_1: RxBurstFifo,      User Received : A
%%   1070 ns    Log    PASSED    in receiver_1: RxBurstFifo,      Data Received : 0000004B
%%   1070 ns    Log    PASSED    in receiver_1: RxBurstFifo,      User Received : B
%%   1070 ns    Log    PASSED    in receiver_1: RxBurstFifo,      Data Received : 0000004C
%%   1070 ns    Log    PASSED    in receiver_1: RxBurstFifo,      User Received : C
%%   1070 ns    Log    PASSED    in receiver_1: RxBurstFifo,      Data Received : 0000004D
%%   1070 ns    Log    PASSED    in receiver_1: RxBurstFifo,      User Received : D
%%   1070 ns    Log    PASSED    in receiver_1: RxBurstFifo,      Data Received : 0000004E
%%   1070 ns    Log    PASSED    in receiver_1: RxBurstFifo,      User Received : E
%%   1070 ns    Log    PASSED    in receiver_1: RxBurstFifo,      Data Received : 0000004F
%%   1070 ns    Log    PASSED    in receiver_1: RxBurstFifo,      User Received : F
%%   1070 ns    Log    PASSED    in receiver_1: RxBurstFifo,      Data Received : 00000050
%%   1070 ns    Log    PASSED    in receiver_1: RxBurstFifo,      User Received : 0
%%   1070 ns    Log    PASSED    in receiver_1: RxBurstFifo,      Data Received : 00000051
%%   1070 ns    Log    PASSED    in receiver_1: RxBurstFifo,      User Received : 1
%%   1070 ns    Log    PASSED    in receiver_1: RxBurstFifo,      Data Received : 00000052
%%   1070 ns    Log    PASSED    in receiver_1: RxBurstFifo,      User Received : 2
%%   1070 ns    Log    PASSED    in receiver_1: RxBurstFifo,      Data Received : 00000053
%%   1070 ns    Log    PASSED    in receiver_1: RxBurstFifo,      User Received : 3
%%   1070 ns    Log    PASSED    in receiver_1: RxBurstFifo,      Data Received : 00000054
%%   1070 ns    Log    PASSED    in receiver_1: RxBurstFifo,      User Received : 4
%%   1070 ns    Log    PASSED    in receiver_1: RxBurstFifo,      Data Received : 00000055
%%   1070 ns    Log    PASSED    in receiver_1: RxBurstFifo,      User Received : 5
%%   1070 ns    Log    PASSED    in receiver_1: RxBurstFifo,      Data Received : 00000056
%%   1070 ns    Log    PASSED    in receiver_1: RxBurstFifo,      User Received : 6
%%   1070 ns    Log    PASSED    in receiver_1: RxBurstFifo,      Data Received : 00000057
%%   1070 ns    Log    PASSED    in receiver_1: RxBurstFifo,      User Received : 7
%%   1070 ns    Log    PASSED    in receiver_1: RxBurstFifo,      Data Received : 00000058
%%   1070 ns    Log    PASSED    in receiver_1: RxBurstFifo,      User Received : 8
%%   1070 ns    Log    PASSED    in receiver_1: RxBurstFifo,      Data Received : 00000059
%%   1070 ns    Log    PASSED    in receiver_1: RxBurstFifo,      User Received : 9
%%   1070 ns    Log    PASSED    in receiver_1: RxBurstFifo,      Data Received : 0000005A
%%   1070 ns    Log    PASSED    in receiver_1: RxBurstFifo,      User Received : A
%%   1070 ns    Log    PASSED    in receiver_1: RxBurstFifo,      Data Received : 0000005B
%%   1070 ns    Log    PASSED    in receiver_1: RxBurstFifo,      User Received : B
%%   1070 ns    Log    PASSED    in receiver_1: RxBurstFifo,      Data Received : 0000005C
%%   1070 ns    Log    PASSED    in receiver_1: RxBurstFifo,      User Received : C
%%   1070 ns    Log    PASSED    in receiver_1: RxBurstFifo,      Data Received : 0000005D
%%   1070 ns    Log    PASSED    in receiver_1: RxBurstFifo,      User Received : D
%%   1070 ns    Log    PASSED    in receiver_1: RxBurstFifo,      Data Received : 0000005E
%%   1070 ns    Log    PASSED    in receiver_1: RxBurstFifo,      User Received : E
%%   1070 ns    Log    PASSED    in receiver_1: RxBurstFifo,      Data Received : 0000005F
%%   1070 ns    Log    PASSED    in receiver_1: RxBurstFifo,      User Received : F
%%   1070 ns    Log    INFO      in receiver_1,                   Burst Check.  Operation# 3  Last Data: 0000005F  TID: 03  TDest: 6  TUser: F  TLast: 1
%%   1070 ns    Log    PASSED    in receiver_1,                   Burst Check WordCount Received : 32
%%   1070 ns    Log    PASSED    in receiver_1,                   ID Received : 03
%%   1070 ns    Log    PASSED    in receiver_1,                   DEST Received : 6
%%   1070 ns    Log    PASSED    in receiver_1,                   Last Received : 1
%%   1070 ns    Log    INFO      in transmitter_1,                Axi Stream Send.  TData: 00000060  TStrb: 1111  TKeep: 1111  TID: 07  TDest: 6  TUser: 0  TLast: 0  Operation# 97
%%   1080 ns    Log    INFO      in transmitter_1,                Axi Stream Send.  TData: 00000061  TStrb: 1111  TKeep: 1111  TID: 07  TDest: 6  TUser: 1  TLast: 0  Operation# 98
%%   1090 ns    Log    INFO      in transmitter_1,                Axi Stream Send.  TData: 00000062  TStrb: 1111  TKeep: 1111  TID: 07  TDest: 6  TUser: 2  TLast: 0  Operation# 99
%%   1100 ns    Log    INFO      in transmitter_1,                Axi Stream Send.  TData: 00000063  TStrb: 1111  TKeep: 1111  TID: 07  TDest: 6  TUser: 3  TLast: 0  Operation# 100
%%   1110 ns    Log    INFO      in transmitter_1,                Axi Stream Send.  TData: 00000064  TStrb: 1111  TKeep: 1111  TID: 07  TDest: 6  TUser: 4  TLast: 0  Operation# 101
%%   1120 ns    Log    INFO      in transmitter_1,                Axi Stream Send.  TData: 00000065  TStrb: 1111  TKeep: 1111  TID: 07  TDest: 6  TUser: 5  TLast: 0  Operation# 102
%%   1130 ns    Log    INFO      in transmitter_1,                Axi Stream Send.  TData: 00000066  TStrb: 1111  TKeep: 1111  TID: 07  TDest: 6  TUser: 6  TLast: 0  Operation# 103
%%   1140 ns    Log    INFO      in transmitter_1,                Axi Stream Send.  TData: 00000067  TStrb: 1111  TKeep: 1111  TID: 07  TDest: 6  TUser: 7  TLast: 0  Operation# 104
%%   1150 ns    Log    INFO      in transmitter_1,                Axi Stream Send.  TData: 00000068  TStrb: 1111  TKeep: 1111  TID: 07  TDest: 6  TUser: 8  TLast: 0  Operation# 105
%%   1160 ns    Log    INFO      in transmitter_1,                Axi Stream Send.  TData: 00000069  TStrb: 1111  TKeep: 1111  TID: 07  TDest: 6  TUser: 9  TLast: 0  Operation# 106
%%   1170 ns    Log    INFO      in transmitter_1,                Axi Stream Send.  TData: 0000006A  TStrb: 1111  TKeep: 1111  TID: 07  TDest: 6  TUser: A  TLast: 0  Operation# 107
%%   1180 ns    Log    INFO      in transmitter_1,                Axi Stream Send.  TData: 0000006B  TStrb: 1111  TKeep: 1111  TID: 07  TDest: 6  TUser: B  TLast: 0  Operation# 108
%%   1190 ns    Log    INFO      in transmitter_1,                Axi Stream Send.  TData: 0000006C  TStrb: 1111  TKeep: 1111  TID: 07  TDest: 6  TUser: C  TLast: 0  Operation# 109
%%   1200 ns    Log    INFO      in transmitter_1,                Axi Stream Send.  TData: 0000006D  TStrb: 1111  TKeep: 1111  TID: 07  TDest: 6  TUser: D  TLast: 0  Operation# 110
%%   1210 ns    Log    INFO      in transmitter_1,                Axi Stream Send.  TData: 0000006E  TStrb: 1111  TKeep: 1111  TID: 07  TDest: 6  TUser: E  TLast: 0  Operation# 111
%%   1220 ns    Log    INFO      in transmitter_1,                Axi Stream Send.  TData: 0000006F  TStrb: 1111  TKeep: 1111  TID: 07  TDest: 6  TUser: F  TLast: 0  Operation# 112
%%   1230 ns    Log    INFO      in transmitter_1,                Axi Stream Send.  TData: 00000070  TStrb: 1111  TKeep: 1111  TID: 07  TDest: 6  TUser: 0  TLast: 0  Operation# 113
%%   1240 ns    Log    INFO      in transmitter_1,                Axi Stream Send.  TData: 00000071  TStrb: 1111  TKeep: 1111  TID: 07  TDest: 6  TUser: 1  TLast: 0  Operation# 114
%%   1250 ns    Log    INFO      in transmitter_1,                Axi Stream Send.  TData: 00000072  TStrb: 1111  TKeep: 1111  TID: 07  TDest: 6  TUser: 2  TLast: 0  Operation# 115
%%   1260 ns    Log    INFO      in transmitter_1,                Axi Stream Send.  TData: 00000073  TStrb: 1111  TKeep: 1111  TID: 07  TDest: 6  TUser: 3  TLast: 0  Operation# 116
%%   1270 ns    Log    INFO      in transmitter_1,                Axi Stream Send.  TData: 00000074  TStrb: 1111  TKeep: 1111  TID: 07  TDest: 6  TUser: 4  TLast: 0  Operation# 117
%%   1280 ns    Log    INFO      in transmitter_1,                Axi Stream Send.  TData: 00000075  TStrb: 1111  TKeep: 1111  TID: 07  TDest: 6  TUser: 5  TLast: 0  Operation# 118
%%   1290 ns    Log    INFO      in transmitter_1,                Axi Stream Send.  TData: 00000076  TStrb: 1111  TKeep: 1111  TID: 07  TDest: 6  TUser: 6  TLast: 0  Operation# 119
%%   1300 ns    Log    INFO      in transmitter_1,                Axi Stream Send.  TData: 00000077  TStrb: 1111  TKeep: 1111  TID: 07  TDest: 6  TUser: 7  TLast: 0  Operation# 120
%%   1310 ns    Log    INFO      in transmitter_1,                Axi Stream Send.  TData: 00000078  TStrb: 1111  TKeep: 1111  TID: 07  TDest: 6  TUser: 8  TLast: 0  Operation# 121
%%   1320 ns    Log    INFO      in transmitter_1,                Axi Stream Send.  TData: 00000079  TStrb: 1111  TKeep: 1111  TID: 07  TDest: 6  TUser: 9  TLast: 0  Operation# 122
%%   1330 ns    Log    INFO      in transmitter_1,                Axi Stream Send.  TData: 0000007A  TStrb: 1111  TKeep: 1111  TID: 07  TDest: 6  TUser: A  TLast: 0  Operation# 123
%%   1340 ns    Log    INFO      in transmitter_1,                Axi Stream Send.  TData: 0000007B  TStrb: 1111  TKeep: 1111  TID: 07  TDest: 6  TUser: B  TLast: 0  Operation# 124
%%   1350 ns    Log    INFO      in transmitter_1,                Axi Stream Send.  TData: 0000007C  TStrb: 1111  TKeep: 1111  TID: 07  TDest: 6  TUser: C  TLast: 0  Operation# 125
%%   1360 ns    Log    INFO      in transmitter_1,                Axi Stream Send.  TData: 0000007D  TStrb: 1111  TKeep: 1111  TID: 07  TDest: 6  TUser: D  TLast: 0  Operation# 126
%%   1370 ns    Log    INFO      in transmitter_1,                Axi Stream Send.  TData: 0000007E  TStrb: 1111  TKeep: 1111  TID: 07  TDest: 6  TUser: E  TLast: 0  Operation# 127
%%   1380 ns    Log    INFO      in transmitter_1,                Axi Stream Send.  TData: 0000007F  TStrb: 1111  TKeep: 1111  TID: 07  TDest: 6  TUser: F  TLast: 1  Operation# 128
%%   1390 ns    Log    PASSED    in receiver_1: RxBurstFifo,      Data Received : 00000060
%%   1390 ns    Log    PASSED    in receiver_1: RxBurstFifo,      User Received : 0
%%   1390 ns    Log    PASSED    in receiver_1: RxBurstFifo,      Data Received : 00000061
%%   1390 ns    Log    PASSED    in receiver_1: RxBurstFifo,      User Received : 1
%%   1390 ns    Log    PASSED    in receiver_1: RxBurstFifo,      Data Received : 00000062
%%   1390 ns    Log    PASSED    in receiver_1: RxBurstFifo,      User Received : 2
%%   1390 ns    Log    PASSED    in receiver_1: RxBurstFifo,      Data Received : 00000063
%%   1390 ns    Log    PASSED    in receiver_1: RxBurstFifo,      User Received : 3
%%   1390 ns    Log    PASSED    in receiver_1: RxBurstFifo,      Data Received : 00000064
%%   1390 ns    Log    PASSED    in receiver_1: RxBurstFifo,      User Received : 4
%%   1390 ns    Log    PASSED    in receiver_1: RxBurstFifo,      Data Received : 00000065
%%   1390 ns    Log    PASSED    in receiver_1: RxBurstFifo,      User Received : 5
%%   1390 ns    Log    PASSED    in receiver_1: RxBurstFifo,      Data Received : 00000066
%%   1390 ns    Log    PASSED    in receiver_1: RxBurstFifo,      User Received : 6
%%   1390 ns    Log    PASSED    in receiver_1: RxBurstFifo,      Data Received : 00000067
%%   1390 ns    Log    PASSED    in receiver_1: RxBurstFifo,      User Received : 7
%%   1390 ns    Log    PASSED    in receiver_1: RxBurstFifo,      Data Received : 00000068
%%   1390 ns    Log    PASSED    in receiver_1: RxBurstFifo,      User Received : 8
%%   1390 ns    Log    PASSED    in receiver_1: RxBurstFifo,      Data Received : 00000069
%%   1390 ns    Log    PASSED    in receiver_1: RxBurstFifo,      User Received : 9
%%   1390 ns    Log    PASSED    in receiver_1: RxBurstFifo,      Data Received : 0000006A
%%   1390 ns    Log    PASSED    in receiver_1: RxBurstFifo,      User Received : A
%%   1390 ns    Log    PASSED    in receiver_1: RxBurstFifo,      Data Received : 0000006B
%%   1390 ns    Log    PASSED    in receiver_1: RxBurstFifo,      User Received : B
%%   1390 ns    Log    PASSED    in receiver_1: RxBurstFifo,      Data Received : 0000006C
%%   1390 ns    Log    PASSED    in receiver_1: RxBurstFifo,      User Received : C
%%   1390 ns    Log    PASSED    in receiver_1: RxBurstFifo,      Data Received : 0000006D
%%   1390 ns    Log    PASSED    in receiver_1: RxBurstFifo,      User Received : D
%%   1390 ns    Log    PASSED    in receiver_1: RxBurstFifo,      Data Received : 0000006E
%%   1390 ns    Log    PASSED    in receiver_1: RxBurstFifo,      User Received : E
%%   1390 ns    Log    PASSED    in receiver_1: RxBurstFifo,      Data Received : 0000006F
%%   1390 ns    Log    PASSED    in receiver_1: RxBurstFifo,      User Received : F
%%   1390 ns    Log    PASSED    in receiver_1: RxBurstFifo,      Data Received : 00000070
%%   1390 ns    Log    PASSED    in receiver_1: RxBurstFifo,      User Received : 0
%%   1390 ns    Log    PASSED    in receiver_1: RxBurstFifo,      Data Received : 00000071
%%   1390 ns    Log    PASSED    in receiver_1: RxBurstFifo,      User Received : 1
%%   1390 ns    Log    PASSED    in receiver_1: RxBurstFifo,      Data Received : 00000072
%%   1390 ns    Log    PASSED    in receiver_1: RxBurstFifo,      User Received : 2
%%   1390 ns    Log    PASSED    in receiver_1: RxBurstFifo,      Data Received : 00000073
%%   1390 ns    Log    PASSED    in receiver_1: RxBurstFifo,      User Received : 3
%%   1390 ns    Log    PASSED    in receiver_1: RxBurstFifo,      Data Received : 00000074
%%   1390 ns    Log    PASSED    in receiver_1: RxBurstFifo,      User Received : 4
%%   1390 ns    Log    PASSED    in receiver_1: RxBurstFifo,      Data Received : 00000075
%%   1390 ns    Log    PASSED    in receiver_1: RxBurstFifo,      User Received : 5
%%   1390 ns    Log    PASSED    in receiver_1: RxBurstFifo,      Data Received : 00000076
%%   1390 ns    Log    PASSED    in receiver_1: RxBurstFifo,      User Received : 6
%%   1390 ns    Log    PASSED    in receiver_1: RxBurstFifo,      Data Received : 00000077
%%   1390 ns    Log    PASSED    in receiver_1: RxBurstFifo,      User Received : 7
%%   1390 ns    Log    PASSED    in receiver_1: RxBurstFifo,      Data Received : 00000078
%%   1390 ns    Log    PASSED    in receiver_1: RxBurstFifo,      User Received : 8
%%   1390 ns    Log    PASSED    in receiver_1: RxBurstFifo,      Data Received : 00000079
%%   1390 ns    Log    PASSED    in receiver_1: RxBurstFifo,      User Received : 9
%%   1390 ns    Log    PASSED    in receiver_1: RxBurstFifo,      Data Received : 0000007A
%%   1390 ns    Log    PASSED    in receiver_1: RxBurstFifo,      User Received : A
%%   1390 ns    Log    PASSED    in receiver_1: RxBurstFifo,      Data Received : 0000007B
%%   1390 ns    Log    PASSED    in receiver_1: RxBurstFifo,      User Received : B
%%   1390 ns    Log    PASSED    in receiver_1: RxBurstFifo,      Data Received : 0000007C
%%   1390 ns    Log    PASSED    in receiver_1: RxBurstFifo,      User Received : C
%%   1390 ns    Log    PASSED    in receiver_1: RxBurstFifo,      Data Received : 0000007D
%%   1390 ns    Log    PASSED    in receiver_1: RxBurstFifo,      User Received : D
%%   1390 ns    Log    PASSED    in receiver_1: RxBurstFifo,      Data Received : 0000007E
%%   1390 ns    Log    PASSED    in receiver_1: RxBurstFifo,      User Received : E
%%   1390 ns    Log    PASSED    in receiver_1: RxBurstFifo,      Data Received : 0000007F
%%   1390 ns    Log    PASSED    in receiver_1: RxBurstFifo,      User Received : F
%%   1390 ns    Log    INFO      in receiver_1,                   Burst Check.  Operation# 4  Last Data: 0000007F  TID: 07  TDest: 6  TUser: F  TLast: 1
%%   1390 ns    Log    PASSED    in receiver_1,                   Burst Check WordCount Received : 32
%%   1390 ns    Log    PASSED    in receiver_1,                   ID Received : 07
%%   1390 ns    Log    PASSED    in receiver_1,                   DEST Received : 6
%%   1390 ns    Log    PASSED    in receiver_1,                   Last Received : 1
%%   1390 ns    Log    INFO      in transmitter_1,                Axi Stream Send.  TData: 00000080  TStrb: 1111  TKeep: 1111  TID: 03  TDest: 2  TUser: 0  TLast: 0  Operation# 129
%%   1400 ns    Log    INFO      in transmitter_1,                Axi Stream Send.  TData: 00000081  TStrb: 1111  TKeep: 1111  TID: 03  TDest: 2  TUser: 1  TLast: 0  Operation# 130
%%   1410 ns    Log    INFO      in transmitter_1,                Axi Stream Send.  TData: 00000082  TStrb: 1111  TKeep: 1111  TID: 03  TDest: 2  TUser: 2  TLast: 0  Operation# 131
%%   1420 ns    Log    INFO      in transmitter_1,                Axi Stream Send.  TData: 00000083  TStrb: 1111  TKeep: 1111  TID: 03  TDest: 2  TUser: 3  TLast: 0  Operation# 132
%%   1430 ns    Log    INFO      in transmitter_1,                Axi Stream Send.  TData: 00000084  TStrb: 1111  TKeep: 1111  TID: 03  TDest: 2  TUser: 4  TLast: 0  Operation# 133
%%   1440 ns    Log    INFO      in transmitter_1,                Axi Stream Send.  TData: 00000085  TStrb: 1111  TKeep: 1111  TID: 03  TDest: 2  TUser: 5  TLast: 0  Operation# 134
%%   1450 ns    Log    INFO      in transmitter_1,                Axi Stream Send.  TData: 00000086  TStrb: 1111  TKeep: 1111  TID: 03  TDest: 2  TUser: 6  TLast: 0  Operation# 135
%%   1460 ns    Log    INFO      in transmitter_1,                Axi Stream Send.  TData: 00000087  TStrb: 1111  TKeep: 1111  TID: 03  TDest: 2  TUser: 7  TLast: 0  Operation# 136
%%   1470 ns    Log    INFO      in transmitter_1,                Axi Stream Send.  TData: 00000088  TStrb: 1111  TKeep: 1111  TID: 03  TDest: 2  TUser: 8  TLast: 0  Operation# 137
%%   1480 ns    Log    INFO      in transmitter_1,                Axi Stream Send.  TData: 00000089  TStrb: 1111  TKeep: 1111  TID: 03  TDest: 2  TUser: 9  TLast: 0  Operation# 138
%%   1490 ns    Log    INFO      in transmitter_1,                Axi Stream Send.  TData: 0000008A  TStrb: 1111  TKeep: 1111  TID: 03  TDest: 2  TUser: A  TLast: 0  Operation# 139
%%   1500 ns    Log    INFO      in transmitter_1,                Axi Stream Send.  TData: 0000008B  TStrb: 1111  TKeep: 1111  TID: 03  TDest: 2  TUser: B  TLast: 0  Operation# 140
%%   1510 ns    Log    INFO      in transmitter_1,                Axi Stream Send.  TData: 0000008C  TStrb: 1111  TKeep: 1111  TID: 03  TDest: 2  TUser: C  TLast: 0  Operation# 141
%%   1520 ns    Log    INFO      in transmitter_1,                Axi Stream Send.  TData: 0000008D  TStrb: 1111  TKeep: 1111  TID: 03  TDest: 2  TUser: D  TLast: 0  Operation# 142
%%   1530 ns    Log    INFO      in transmitter_1,                Axi Stream Send.  TData: 0000008E  TStrb: 1111  TKeep: 1111  TID: 03  TDest: 2  TUser: E  TLast: 0  Operation# 143
%%   1540 ns    Log    INFO      in transmitter_1,                Axi Stream Send.  TData: 0000008F  TStrb: 1111  TKeep: 1111  TID: 03  TDest: 2  TUser: F  TLast: 0  Operation# 144
%%   1550 ns    Log    INFO      in transmitter_1,                Axi Stream Send.  TData: 00000090  TStrb: 1111  TKeep: 1111  TID: 03  TDest: 2  TUser: 0  TLast: 0  Operation# 145
%%   1560 ns    Log    INFO      in transmitter_1,                Axi Stream Send.  TData: 00000091  TStrb: 1111  TKeep: 1111  TID: 03  TDest: 2  TUser: 1  TLast: 0  Operation# 146
%%   1570 ns    Log    INFO      in transmitter_1,                Axi Stream Send.  TData: 00000092  TStrb: 1111  TKeep: 1111  TID: 03  TDest: 2  TUser: 2  TLast: 0  Operation# 147
%%   1580 ns    Log    INFO      in transmitter_1,                Axi Stream Send.  TData: 00000093  TStrb: 1111  TKeep: 1111  TID: 03  TDest: 2  TUser: 3  TLast: 0  Operation# 148
%%   1590 ns    Log    INFO      in transmitter_1,                Axi Stream Send.  TData: 00000094  TStrb: 1111  TKeep: 1111  TID: 03  TDest: 2  TUser: 4  TLast: 0  Operation# 149
%%   1600 ns    Log    INFO      in transmitter_1,                Axi Stream Send.  TData: 00000095  TStrb: 1111  TKeep: 1111  TID: 03  TDest: 2  TUser: 5  TLast: 0  Operation# 150
%%   1610 ns    Log    INFO      in transmitter_1,                Axi Stream Send.  TData: 00000096  TStrb: 1111  TKeep: 1111  TID: 03  TDest: 2  TUser: 6  TLast: 0  Operation# 151
%%   1620 ns    Log    INFO      in transmitter_1,                Axi Stream Send.  TData: 00000097  TStrb: 1111  TKeep: 1111  TID: 03  TDest: 2  TUser: 7  TLast: 0  Operation# 152
%%   1630 ns    Log    INFO      in transmitter_1,                Axi Stream Send.  TData: 00000098  TStrb: 1111  TKeep: 1111  TID: 03  TDest: 2  TUser: 8  TLast: 0  Operation# 153
%%   1640 ns    Log    INFO      in transmitter_1,                Axi Stream Send.  TData: 00000099  TStrb: 1111  TKeep: 1111  TID: 03  TDest: 2  TUser: 9  TLast: 0  Operation# 154
%%   1650 ns    Log    INFO      in transmitter_1,                Axi Stream Send.  TData: 0000009A  TStrb: 1111  TKeep: 1111  TID: 03  TDest: 2  TUser: A  TLast: 0  Operation# 155
%%   1660 ns    Log    INFO      in transmitter_1,                Axi Stream Send.  TData: 0000009B  TStrb: 1111  TKeep: 1111  TID: 03  TDest: 2  TUser: B  TLast: 0  Operation# 156
%%   1670 ns    Log    INFO      in transmitter_1,                Axi Stream Send.  TData: 0000009C  TStrb: 1111  TKeep: 1111  TID: 03  TDest: 2  TUser: C  TLast: 0  Operation# 157
%%   1680 ns    Log    INFO      in transmitter_1,                Axi Stream Send.  TData: 0000009D  TStrb: 1111  TKeep: 1111  TID: 03  TDest: 2  TUser: D  TLast: 0  Operation# 158
%%   1690 ns    Log    INFO      in transmitter_1,                Axi Stream Send.  TData: 0000009E  TStrb: 1111  TKeep: 1111  TID: 03  TDest: 2  TUser: E  TLast: 0  Operation# 159
%%   1700 ns    Log    INFO      in transmitter_1,                Axi Stream Send.  TData: 0000009F  TStrb: 1111  TKeep: 1111  TID: 03  TDest: 2  TUser: F  TLast: 1  Operation# 160
%%   1710 ns    Log    PASSED    in receiver_1: RxBurstFifo,      Data Received : 00000080
%%   1710 ns    Log    PASSED    in receiver_1: RxBurstFifo,      User Received : 0
%%   1710 ns    Log    PASSED    in receiver_1: RxBurstFifo,      Data Received : 00000081
%%   1710 ns    Log    PASSED    in receiver_1: RxBurstFifo,      User Received : 1
%%   1710 ns    Log    PASSED    in receiver_1: RxBurstFifo,      Data Received : 00000082
%%   1710 ns    Log    PASSED    in receiver_1: RxBurstFifo,      User Received : 2
%%   1710 ns    Log    PASSED    in receiver_1: RxBurstFifo,      Data Received : 00000083
%%   1710 ns    Log    PASSED    in receiver_1: RxBurstFifo,      User Received : 3
%%   1710 ns    Log    PASSED    in receiver_1: RxBurstFifo,      Data Received : 00000084
%%   1710 ns    Log    PASSED    in receiver_1: RxBurstFifo,      User Received : 4
%%   1710 ns    Log    PASSED    in receiver_1: RxBurstFifo,      Data Received : 00000085
%%   1710 ns    Log    PASSED    in receiver_1: RxBurstFifo,      User Received : 5
%%   1710 ns    Log    PASSED    in receiver_1: RxBurstFifo,      Data Received : 00000086
%%   1710 ns    Log    PASSED    in receiver_1: RxBurstFifo,      User Received : 6
%%   1710 ns    Log    PASSED    in receiver_1: RxBurstFifo,      Data Received : 00000087
%%   1710 ns    Log    PASSED    in receiver_1: RxBurstFifo,      User Received : 7
%%   1710 ns    Log    PASSED    in receiver_1: RxBurstFifo,      Data Received : 00000088
%%   1710 ns    Log    PASSED    in receiver_1: RxBurstFifo,      User Received : 8
%%   1710 ns    Log    PASSED    in receiver_1: RxBurstFifo,      Data Received : 00000089
%%   1710 ns    Log    PASSED    in receiver_1: RxBurstFifo,      User Received : 9
%%   1710 ns    Log    PASSED    in receiver_1: RxBurstFifo,      Data Received : 0000008A
%%   1710 ns    Log    PASSED    in receiver_1: RxBurstFifo,      User Received : A
%%   1710 ns    Log    PASSED    in receiver_1: RxBurstFifo,      Data Received : 0000008B
%%   1710 ns    Log    PASSED    in receiver_1: RxBurstFifo,      User Received : B
%%   1710 ns    Log    PASSED    in receiver_1: RxBurstFifo,      Data Received : 0000008C
%%   1710 ns    Log    PASSED    in receiver_1: RxBurstFifo,      User Received : C
%%   1710 ns    Log    PASSED    in receiver_1: RxBurstFifo,      Data Received : 0000008D
%%   1710 ns    Log    PASSED    in receiver_1: RxBurstFifo,      User Received : D
%%   1710 ns    Log    PASSED    in receiver_1: RxBurstFifo,      Data Received : 0000008E
%%   1710 ns    Log    PASSED    in receiver_1: RxBurstFifo,      User Received : E
%%   1710 ns    Log    PASSED    in receiver_1: RxBurstFifo,      Data Received : 0000008F
%%   1710 ns    Log    PASSED    in receiver_1: RxBurstFifo,      User Received : F
%%   1710 ns    Log    PASSED    in receiver_1: RxBurstFifo,      Data Received : 00000090
%%   1710 ns    Log    PASSED    in receiver_1: RxBurstFifo,      User Received : 0
%%   1710 ns    Log    PASSED    in receiver_1: RxBurstFifo,      Data Received : 00000091
%%   1710 ns    Log    PASSED    in receiver_1: RxBurstFifo,      User Received : 1
%%   1710 ns    Log    PASSED    in receiver_1: RxBurstFifo,      Data Received : 00000092
%%   1710 ns    Log    PASSED    in receiver_1: RxBurstFifo,      User Received : 2
%%   1710 ns    Log    PASSED    in receiver_1: RxBurstFifo,      Data Received : 00000093
%%   1710 ns    Log    PASSED    in receiver_1: RxBurstFifo,      User Received : 3
%%   1710 ns    Log    PASSED    in receiver_1: RxBurstFifo,      Data Received : 00000094
%%   1710 ns    Log    PASSED    in receiver_1: RxBurstFifo,      User Received : 4
%%   1710 ns    Log    PASSED    in receiver_1: RxBurstFifo,      Data Received : 00000095
%%   1710 ns    Log    PASSED    in receiver_1: RxBurstFifo,      User Received : 5
%%   1710 ns    Log    PASSED    in receiver_1: RxBurstFifo,      Data Received : 00000096
%%   1710 ns    Log    PASSED    in receiver_1: RxBurstFifo,      User Received : 6
%%   1710 ns    Log    PASSED    in receiver_1: RxBurstFifo,      Data Received : 00000097
%%   1710 ns    Log    PASSED    in receiver_1: RxBurstFifo,      User Received : 7
%%   1710 ns    Log    PASSED    in receiver_1: RxBurstFifo,      Data Received : 00000098
%%   1710 ns    Log    PASSED    in receiver_1: RxBurstFifo,      User Received : 8
%%   1710 ns    Log    PASSED    in receiver_1: RxBurstFifo,      Data Received : 00000099
%%   1710 ns    Log    PASSED    in receiver_1: RxBurstFifo,      User Received : 9
%%   1710 ns    Log    PASSED    in receiver_1: RxBurstFifo,      Data Received : 0000009A
%%   1710 ns    Log    PASSED    in receiver_1: RxBurstFifo,      User Received : A
%%   1710 ns    Log    PASSED    in receiver_1: RxBurstFifo,      Data Received : 0000009B
%%   1710 ns    Log    PASSED    in receiver_1: RxBurstFifo,      User Received : B
%%   1710 ns    Log    PASSED    in receiver_1: RxBurstFifo,      Data Received : 0000009C
%%   1710 ns    Log    PASSED    in receiver_1: RxBurstFifo,      User Received : C
%%   1710 ns    Log    PASSED    in receiver_1: RxBurstFifo,      Data Received : 0000009D
%%   1710 ns    Log    PASSED    in receiver_1: RxBurstFifo,      User Received : D
%%   1710 ns    Log    PASSED    in receiver_1: RxBurstFifo,      Data Received : 0000009E
%%   1710 ns    Log    PASSED    in receiver_1: RxBurstFifo,      User Received : E
%%   1710 ns    Log    PASSED    in receiver_1: RxBurstFifo,      Data Received : 0000009F
%%   1710 ns    Log    PASSED    in receiver_1: RxBurstFifo,      User Received : F
%%   1710 ns    Log    INFO      in receiver_1,                   Burst Check.  Operation# 5  Last Data: 0000009F  TID: 03  TDest: 2  TUser: F  TLast: 1
%%   1710 ns    Log    PASSED    in receiver_1,                   Burst Check WordCount Received : 32
%%   1710 ns    Log    PASSED    in receiver_1,                   ID Received : 03
%%   1710 ns    Log    PASSED    in receiver_1,                   DEST Received : 2
%%   1710 ns    Log    PASSED    in receiver_1,                   Last Received : 1
%%   1710 ns    Log    INFO      in transmitter_1,                Axi Stream Send.  TData: 000000A0  TStrb: 1111  TKeep: 1111  TID: 03  TDest: 6  TUser: 0  TLast: 0  Operation# 161
%%   1720 ns    Log    INFO      in transmitter_1,                Axi Stream Send.  TData: 000000A1  TStrb: 1111  TKeep: 1111  TID: 03  TDest: 6  TUser: 1  TLast: 0  Operation# 162
%%   1730 ns    Log    INFO      in transmitter_1,                Axi Stream Send.  TData: 000000A2  TStrb: 1111  TKeep: 1111  TID: 03  TDest: 6  TUser: 2  TLast: 0  Operation# 163
%%   1740 ns    Log    INFO      in transmitter_1,                Axi Stream Send.  TData: 000000A3  TStrb: 1111  TKeep: 1111  TID: 03  TDest: 6  TUser: 3  TLast: 0  Operation# 164
%%   1750 ns    Log    INFO      in transmitter_1,                Axi Stream Send.  TData: 000000A4  TStrb: 1111  TKeep: 1111  TID: 03  TDest: 6  TUser: 4  TLast: 0  Operation# 165
%%   1760 ns    Log    INFO      in transmitter_1,                Axi Stream Send.  TData: 000000A5  TStrb: 1111  TKeep: 1111  TID: 03  TDest: 6  TUser: 5  TLast: 0  Operation# 166
%%   1770 ns    Log    INFO      in transmitter_1,                Axi Stream Send.  TData: 000000A6  TStrb: 1111  TKeep: 1111  TID: 03  TDest: 6  TUser: 6  TLast: 0  Operation# 167
%%   1780 ns    Log    INFO      in transmitter_1,                Axi Stream Send.  TData: 000000A7  TStrb: 1111  TKeep: 1111  TID: 03  TDest: 6  TUser: 7  TLast: 0  Operation# 168
%%   1790 ns    Log    INFO      in transmitter_1,                Axi Stream Send.  TData: 000000A8  TStrb: 1111  TKeep: 1111  TID: 03  TDest: 6  TUser: 8  TLast: 0  Operation# 169
%%   1800 ns    Log    INFO      in transmitter_1,                Axi Stream Send.  TData: 000000A9  TStrb: 1111  TKeep: 1111  TID: 03  TDest: 6  TUser: 9  TLast: 0  Operation# 170
%%   1810 ns    Log    INFO      in transmitter_1,                Axi Stream Send.  TData: 000000AA  TStrb: 1111  TKeep: 1111  TID: 03  TDest: 6  TUser: A  TLast: 0  Operation# 171
%%   1820 ns    Log    INFO      in transmitter_1,                Axi Stream Send.  TData: 000000AB  TStrb: 1111  TKeep: 1111  TID: 03  TDest: 6  TUser: B  TLast: 0  Operation# 172
%%   1830 ns    Log    INFO      in transmitter_1,                Axi Stream Send.  TData: 000000AC  TStrb: 1111  TKeep: 1111  TID: 03  TDest: 6  TUser: C  TLast: 0  Operation# 173
%%   1840 ns    Log    INFO      in transmitter_1,                Axi Stream Send.  TData: 000000AD  TStrb: 1111  TKeep: 1111  TID: 03  TDest: 6  TUser: D  TLast: 0  Operation# 174
%%   1850 ns    Log    INFO      in transmitter_1,                Axi Stream Send.  TData: 000000AE  TStrb: 1111  TKeep: 1111  TID: 03  TDest: 6  TUser: E  TLast: 0  Operation# 175
%%   1860 ns    Log    INFO      in transmitter_1,                Axi Stream Send.  TData: 000000AF  TStrb: 1111  TKeep: 1111  TID: 03  TDest: 6  TUser: F  TLast: 0  Operation# 176
%%   1870 ns    Log    INFO      in transmitter_1,                Axi Stream Send.  TData: 000000B0  TStrb: 1111  TKeep: 1111  TID: 03  TDest: 6  TUser: 0  TLast: 0  Operation# 177
%%   1880 ns    Log    INFO      in transmitter_1,                Axi Stream Send.  TData: 000000B1  TStrb: 1111  TKeep: 1111  TID: 03  TDest: 6  TUser: 1  TLast: 0  Operation# 178
%%   1890 ns    Log    INFO      in transmitter_1,                Axi Stream Send.  TData: 000000B2  TStrb: 1111  TKeep: 1111  TID: 03  TDest: 6  TUser: 2  TLast: 0  Operation# 179
%%   1900 ns    Log    INFO      in transmitter_1,                Axi Stream Send.  TData: 000000B3  TStrb: 1111  TKeep: 1111  TID: 03  TDest: 6  TUser: 3  TLast: 0  Operation# 180
%%   1910 ns    Log    INFO      in transmitter_1,                Axi Stream Send.  TData: 000000B4  TStrb: 1111  TKeep: 1111  TID: 03  TDest: 6  TUser: 4  TLast: 0  Operation# 181
%%   1920 ns    Log    INFO      in transmitter_1,                Axi Stream Send.  TData: 000000B5  TStrb: 1111  TKeep: 1111  TID: 03  TDest: 6  TUser: 5  TLast: 0  Operation# 182
%%   1930 ns    Log    INFO      in transmitter_1,                Axi Stream Send.  TData: 000000B6  TStrb: 1111  TKeep: 1111  TID: 03  TDest: 6  TUser: 6  TLast: 0  Operation# 183
%%   1940 ns    Log    INFO      in transmitter_1,                Axi Stream Send.  TData: 000000B7  TStrb: 1111  TKeep: 1111  TID: 03  TDest: 6  TUser: 7  TLast: 0  Operation# 184
%%   1950 ns    Log    INFO      in transmitter_1,                Axi Stream Send.  TData: 000000B8  TStrb: 1111  TKeep: 1111  TID: 03  TDest: 6  TUser: 8  TLast: 0  Operation# 185
%%   1960 ns    Log    INFO      in transmitter_1,                Axi Stream Send.  TData: 000000B9  TStrb: 1111  TKeep: 1111  TID: 03  TDest: 6  TUser: 9  TLast: 0  Operation# 186
%%   1970 ns    Log    INFO      in transmitter_1,                Axi Stream Send.  TData: 000000BA  TStrb: 1111  TKeep: 1111  TID: 03  TDest: 6  TUser: A  TLast: 0  Operation# 187
%%   1980 ns    Log    INFO      in transmitter_1,                Axi Stream Send.  TData: 000000BB  TStrb: 1111  TKeep: 1111  TID: 03  TDest: 6  TUser: B  TLast: 0  Operation# 188
%%   1990 ns    Log    INFO      in transmitter_1,                Axi Stream Send.  TData: 000000BC  TStrb: 1111  TKeep: 1111  TID: 03  TDest: 6  TUser: C  TLast: 0  Operation# 189
%%   2000 ns    Log    INFO      in transmitter_1,                Axi Stream Send.  TData: 000000BD  TStrb: 1111  TKeep: 1111  TID: 03  TDest: 6  TUser: D  TLast: 0  Operation# 190
%%   2010 ns    Log    INFO      in transmitter_1,                Axi Stream Send.  TData: 000000BE  TStrb: 1111  TKeep: 1111  TID: 03  TDest: 6  TUser: E  TLast: 0  Operation# 191
%%   2020 ns    Log    INFO      in transmitter_1,                Axi Stream Send.  TData: 000000BF  TStrb: 1111  TKeep: 1111  TID: 03  TDest: 6  TUser: F  TLast: 1  Operation# 192
%%   2030 ns    Log    PASSED    in receiver_1: RxBurstFifo,      Data Received : 000000A0
%%   2030 ns    Log    PASSED    in receiver_1: RxBurstFifo,      User Received : 0
%%   2030 ns    Log    PASSED    in receiver_1: RxBurstFifo,      Data Received : 000000A1
%%   2030 ns    Log    PASSED    in receiver_1: RxBurstFifo,      User Received : 1
%%   2030 ns    Log    PASSED    in receiver_1: RxBurstFifo,      Data Received : 000000A2
%%   2030 ns    Log    PASSED    in receiver_1: RxBurstFifo,      User Received : 2
%%   2030 ns    Log    PASSED    in receiver_1: RxBurstFifo,      Data Received : 000000A3
%%   2030 ns    Log    PASSED    in receiver_1: RxBurstFifo,      User Received : 3
%%   2030 ns    Log    PASSED    in receiver_1: RxBurstFifo,      Data Received : 000000A4
%%   2030 ns    Log    PASSED    in receiver_1: RxBurstFifo,      User Received : 4
%%   2030 ns    Log    PASSED    in receiver_1: RxBurstFifo,      Data Received : 000000A5
%%   2030 ns    Log    PASSED    in receiver_1: RxBurstFifo,      User Received : 5
%%   2030 ns    Log    PASSED    in receiver_1: RxBurstFifo,      Data Received : 000000A6
%%   2030 ns    Log    PASSED    in receiver_1: RxBurstFifo,      User Received : 6
%%   2030 ns    Log    PASSED    in receiver_1: RxBurstFifo,      Data Received : 000000A7
%%   2030 ns    Log    PASSED    in receiver_1: RxBurstFifo,      User Received : 7
%%   2030 ns    Log    PASSED    in receiver_1: RxBurstFifo,      Data Received : 000000A8
%%   2030 ns    Log    PASSED    in receiver_1: RxBurstFifo,      User Received : 8
%%   2030 ns    Log    PASSED    in receiver_1: RxBurstFifo,      Data Received : 000000A9
%%   2030 ns    Log    PASSED    in receiver_1: RxBurstFifo,      User Received : 9
%%   2030 ns    Log    PASSED    in receiver_1: RxBurstFifo,      Data Received : 000000AA
%%   2030 ns    Log    PASSED    in receiver_1: RxBurstFifo,      User Received : A
%%   2030 ns    Log    PASSED    in receiver_1: RxBurstFifo,      Data Received : 000000AB
%%   2030 ns    Log    PASSED    in receiver_1: RxBurstFifo,      User Received : B
%%   2030 ns    Log    PASSED    in receiver_1: RxBurstFifo,      Data Received : 000000AC
%%   2030 ns    Log    PASSED    in receiver_1: RxBurstFifo,      User Received : C
%%   2030 ns    Log    PASSED    in receiver_1: RxBurstFifo,      Data Received : 000000AD
%%   2030 ns    Log    PASSED    in receiver_1: RxBurstFifo,      User Received : D
%%   2030 ns    Log    PASSED    in receiver_1: RxBurstFifo,      Data Received : 000000AE
%%   2030 ns    Log    PASSED    in receiver_1: RxBurstFifo,      User Received : E
%%   2030 ns    Log    PASSED    in receiver_1: RxBurstFifo,      Data Received : 000000AF
%%   2030 ns    Log    PASSED    in receiver_1: RxBurstFifo,      User Received : F
%%   2030 ns    Log    PASSED    in receiver_1: RxBurstFifo,      Data Received : 000000B0
%%   2030 ns    Log    PASSED    in receiver_1: RxBurstFifo,      User Received : 0
%%   2030 ns    Log    PASSED    in receiver_1: RxBurstFifo,      Data Received : 000000B1
%%   2030 ns    Log    PASSED    in receiver_1: RxBurstFifo,      User Received : 1
%%   2030 ns    Log    PASSED    in receiver_1: RxBurstFifo,      Data Received : 000000B2
%%   2030 ns    Log    PASSED    in receiver_1: RxBurstFifo,      User Received : 2
%%   2030 ns    Log    PASSED    in receiver_1: RxBurstFifo,      Data Received : 000000B3
%%   2030 ns    Log    PASSED    in receiver_1: RxBurstFifo,      User Received : 3
%%   2030 ns    Log    PASSED    in receiver_1: RxBurstFifo,      Data Received : 000000B4
%%   2030 ns    Log    PASSED    in receiver_1: RxBurstFifo,      User Received : 4
%%   2030 ns    Log    PASSED    in receiver_1: RxBurstFifo,      Data Received : 000000B5
%%   2030 ns    Log    PASSED    in receiver_1: RxBurstFifo,      User Received : 5
%%   2030 ns    Log    PASSED    in receiver_1: RxBurstFifo,      Data Received : 000000B6
%%   2030 ns    Log    PASSED    in receiver_1: RxBurstFifo,      User Received : 6
%%   2030 ns    Log    PASSED    in receiver_1: RxBurstFifo,      Data Received : 000000B7
%%   2030 ns    Log    PASSED    in receiver_1: RxBurstFifo,      User Received : 7
%%   2030 ns    Log    PASSED    in receiver_1: RxBurstFifo,      Data Received : 000000B8
%%   2030 ns    Log    PASSED    in receiver_1: RxBurstFifo,      User Received : 8
%%   2030 ns    Log    PASSED    in receiver_1: RxBurstFifo,      Data Received : 000000B9
%%   2030 ns    Log    PASSED    in receiver_1: RxBurstFifo,      User Received : 9
%%   2030 ns    Log    PASSED    in receiver_1: RxBurstFifo,      Data Received : 000000BA
%%   2030 ns    Log    PASSED    in receiver_1: RxBurstFifo,      User Received : A
%%   2030 ns    Log    PASSED    in receiver_1: RxBurstFifo,      Data Received : 000000BB
%%   2030 ns    Log    PASSED    in receiver_1: RxBurstFifo,      User Received : B
%%   2030 ns    Log    PASSED    in receiver_1: RxBurstFifo,      Data Received : 000000BC
%%   2030 ns    Log    PASSED    in receiver_1: RxBurstFifo,      User Received : C
%%   2030 ns    Log    PASSED    in receiver_1: RxBurstFifo,      Data Received : 000000BD
%%   2030 ns    Log    PASSED    in receiver_1: RxBurstFifo,      User Received : D
%%   2030 ns    Log    PASSED    in receiver_1: RxBurstFifo,      Data Received : 000000BE
%%   2030 ns    Log    PASSED    in receiver_1: RxBurstFifo,      User Received : E
%%   2030 ns    Log    PASSED    in receiver_1: RxBurstFifo,      Data Received : 000000BF
%%   2030 ns    Log    PASSED    in receiver_1: RxBurstFifo,      User Received : F
%%   2030 ns    Log    INFO      in receiver_1,                   Burst Check.  Operation# 6  Last Data: 000000BF  TID: 03  TDest: 6  TUser: F  TLast: 1
%%   2030 ns    Log    PASSED    in receiver_1,                   Burst Check WordCount Received : 32
%%   2030 ns    Log    PASSED    in receiver_1,                   ID Received : 03
%%   2030 ns    Log    PASSED    in receiver_1,                   DEST Received : 6
%%   2030 ns    Log    PASSED    in receiver_1,                   Last Received : 1
%%   2030 ns    Log    INFO      in transmitter_1,                Axi Stream Send.  TData: 000000C0  TStrb: 1111  TKeep: 1111  TID: 07  TDest: 2  TUser: 0  TLast: 0  Operation# 193
%%   2040 ns    Log    INFO      in transmitter_1,                Axi Stream Send.  TData: 000000C1  TStrb: 1111  TKeep: 1111  TID: 07  TDest: 2  TUser: 1  TLast: 0  Operation# 194
%%   2050 ns    Log    INFO      in transmitter_1,                Axi Stream Send.  TData: 000000C2  TStrb: 1111  TKeep: 1111  TID: 07  TDest: 2  TUser: 2  TLast: 0  Operation# 195
%%   2060 ns    Log    INFO      in transmitter_1,                Axi Stream Send.  TData: 000000C3  TStrb: 1111  TKeep: 1111  TID: 07  TDest: 2  TUser: 3  TLast: 0  Operation# 196
%%   2070 ns    Log    INFO      in transmitter_1,                Axi Stream Send.  TData: 000000C4  TStrb: 1111  TKeep: 1111  TID: 07  TDest: 2  TUser: 4  TLast: 0  Operation# 197
%%   2080 ns    Log    INFO      in transmitter_1,                Axi Stream Send.  TData: 000000C5  TStrb: 1111  TKeep: 1111  TID: 07  TDest: 2  TUser: 5  TLast: 0  Operation# 198
%%   2090 ns    Log    INFO      in transmitter_1,                Axi Stream Send.  TData: 000000C6  TStrb: 1111  TKeep: 1111  TID: 07  TDest: 2  TUser: 6  TLast: 0  Operation# 199
%%   2100 ns    Log    INFO      in transmitter_1,                Axi Stream Send.  TData: 000000C7  TStrb: 1111  TKeep: 1111  TID: 07  TDest: 2  TUser: 7  TLast: 0  Operation# 200
%%   2110 ns    Log    INFO      in transmitter_1,                Axi Stream Send.  TData: 000000C8  TStrb: 1111  TKeep: 1111  TID: 07  TDest: 2  TUser: 8  TLast: 0  Operation# 201
%%   2120 ns    Log    INFO      in transmitter_1,                Axi Stream Send.  TData: 000000C9  TStrb: 1111  TKeep: 1111  TID: 07  TDest: 2  TUser: 9  TLast: 0  Operation# 202
%%   2130 ns    Log    INFO      in transmitter_1,                Axi Stream Send.  TData: 000000CA  TStrb: 1111  TKeep: 1111  TID: 07  TDest: 2  TUser: A  TLast: 0  Operation# 203
%%   2140 ns    Log    INFO      in transmitter_1,                Axi Stream Send.  TData: 000000CB  TStrb: 1111  TKeep: 1111  TID: 07  TDest: 2  TUser: B  TLast: 0  Operation# 204
%%   2150 ns    Log    INFO      in transmitter_1,                Axi Stream Send.  TData: 000000CC  TStrb: 1111  TKeep: 1111  TID: 07  TDest: 2  TUser: C  TLast: 0  Operation# 205
%%   2160 ns    Log    INFO      in transmitter_1,                Axi Stream Send.  TData: 000000CD  TStrb: 1111  TKeep: 1111  TID: 07  TDest: 2  TUser: D  TLast: 0  Operation# 206
%%   2170 ns    Log    INFO      in transmitter_1,                Axi Stream Send.  TData: 000000CE  TStrb: 1111  TKeep: 1111  TID: 07  TDest: 2  TUser: E  TLast: 0  Operation# 207
%%   2180 ns    Log    INFO      in transmitter_1,                Axi Stream Send.  TData: 000000CF  TStrb: 1111  TKeep: 1111  TID: 07  TDest: 2  TUser: F  TLast: 0  Operation# 208
%%   2190 ns    Log    INFO      in transmitter_1,                Axi Stream Send.  TData: 000000D0  TStrb: 1111  TKeep: 1111  TID: 07  TDest: 2  TUser: 0  TLast: 0  Operation# 209
%%   2200 ns    Log    INFO      in transmitter_1,                Axi Stream Send.  TData: 000000D1  TStrb: 1111  TKeep: 1111  TID: 07  TDest: 2  TUser: 1  TLast: 0  Operation# 210
%%   2210 ns    Log    INFO      in transmitter_1,                Axi Stream Send.  TData: 000000D2  TStrb: 1111  TKeep: 1111  TID: 07  TDest: 2  TUser: 2  TLast: 0  Operation# 211
%%   2220 ns    Log    INFO      in transmitter_1,                Axi Stream Send.  TData: 000000D3  TStrb: 1111  TKeep: 1111  TID: 07  TDest: 2  TUser: 3  TLast: 0  Operation# 212
%%   2230 ns    Log    INFO      in transmitter_1,                Axi Stream Send.  TData: 000000D4  TStrb: 1111  TKeep: 1111  TID: 07  TDest: 2  TUser: 4  TLast: 0  Operation# 213
%%   2240 ns    Log    INFO      in transmitter_1,                Axi Stream Send.  TData: 000000D5  TStrb: 1111  TKeep: 1111  TID: 07  TDest: 2  TUser: 5  TLast: 0  Operation# 214
%%   2250 ns    Log    INFO      in transmitter_1,                Axi Stream Send.  TData: 000000D6  TStrb: 1111  TKeep: 1111  TID: 07  TDest: 2  TUser: 6  TLast: 0  Operation# 215
%%   2260 ns    Log    INFO      in transmitter_1,                Axi Stream Send.  TData: 000000D7  TStrb: 1111  TKeep: 1111  TID: 07  TDest: 2  TUser: 7  TLast: 0  Operation# 216
%%   2270 ns    Log    INFO      in transmitter_1,                Axi Stream Send.  TData: 000000D8  TStrb: 1111  TKeep: 1111  TID: 07  TDest: 2  TUser: 8  TLast: 0  Operation# 217
%%   2280 ns    Log    INFO      in transmitter_1,                Axi Stream Send.  TData: 000000D9  TStrb: 1111  TKeep: 1111  TID: 07  TDest: 2  TUser: 9  TLast: 0  Operation# 218
%%   2290 ns    Log    INFO      in transmitter_1,                Axi Stream Send.  TData: 000000DA  TStrb: 1111  TKeep: 1111  TID: 07  TDest: 2  TUser: A  TLast: 0  Operation# 219
%%   2300 ns    Log    INFO      in transmitter_1,                Axi Stream Send.  TData: 000000DB  TStrb: 1111  TKeep: 1111  TID: 07  TDest: 2  TUser: B  TLast: 0  Operation# 220
%%   2310 ns    Log    INFO      in transmitter_1,                Axi Stream Send.  TData: 000000DC  TStrb: 1111  TKeep: 1111  TID: 07  TDest: 2  TUser: C  TLast: 0  Operation# 221
%%   2320 ns    Log    INFO      in transmitter_1,                Axi Stream Send.  TData: 000000DD  TStrb: 1111  TKeep: 1111  TID: 07  TDest: 2  TUser: D  TLast: 0  Operation# 222
%%   2330 ns    Log    INFO      in transmitter_1,                Axi Stream Send.  TData: 000000DE  TStrb: 1111  TKeep: 1111  TID: 07  TDest: 2  TUser: E  TLast: 0  Operation# 223
%%   2340 ns    Log    INFO      in transmitter_1,                Axi Stream Send.  TData: 000000DF  TStrb: 1111  TKeep: 1111  TID: 07  TDest: 2  TUser: F  TLast: 1  Operation# 224
%%   2350 ns    Log    PASSED    in receiver_1: RxBurstFifo,      Data Received : 000000C0
%%   2350 ns    Log    PASSED    in receiver_1: RxBurstFifo,      User Received : 0
%%   2350 ns    Log    PASSED    in receiver_1: RxBurstFifo,      Data Received : 000000C1
%%   2350 ns    Log    PASSED    in receiver_1: RxBurstFifo,      User Received : 1
%%   2350 ns    Log    PASSED    in receiver_1: RxBurstFifo,      Data Received : 000000C2
%%   2350 ns    Log    PASSED    in receiver_1: RxBurstFifo,      User Received : 2
%%   2350 ns    Log    PASSED    in receiver_1: RxBurstFifo,      Data Received : 000000C3
%%   2350 ns    Log    PASSED    in receiver_1: RxBurstFifo,      User Received : 3
%%   2350 ns    Log    PASSED    in receiver_1: RxBurstFifo,      Data Received : 000000C4
%%   2350 ns    Log    PASSED    in receiver_1: RxBurstFifo,      User Received : 4
%%   2350 ns    Log    PASSED    in receiver_1: RxBurstFifo,      Data Received : 000000C5
%%   2350 ns    Log    PASSED    in receiver_1: RxBurstFifo,      User Received : 5
%%   2350 ns    Log    PASSED    in receiver_1: RxBurstFifo,      Data Received : 000000C6
%%   2350 ns    Log    PASSED    in receiver_1: RxBurstFifo,      User Received : 6
%%   2350 ns    Log    PASSED    in receiver_1: RxBurstFifo,      Data Received : 000000C7
%%   2350 ns    Log    PASSED    in receiver_1: RxBurstFifo,      User Received : 7
%%   2350 ns    Log    PASSED    in receiver_1: RxBurstFifo,      Data Received : 000000C8
%%   2350 ns    Log    PASSED    in receiver_1: RxBurstFifo,      User Received : 8
%%   2350 ns    Log    PASSED    in receiver_1: RxBurstFifo,      Data Received : 000000C9
%%   2350 ns    Log    PASSED    in receiver_1: RxBurstFifo,      User Received : 9
%%   2350 ns    Log    PASSED    in receiver_1: RxBurstFifo,      Data Received : 000000CA
%%   2350 ns    Log    PASSED    in receiver_1: RxBurstFifo,      User Received : A
%%   2350 ns    Log    PASSED    in receiver_1: RxBurstFifo,      Data Received : 000000CB
%%   2350 ns    Log    PASSED    in receiver_1: RxBurstFifo,      User Received : B
%%   2350 ns    Log    PASSED    in receiver_1: RxBurstFifo,      Data Received : 000000CC
%%   2350 ns    Log    PASSED    in receiver_1: RxBurstFifo,      User Received : C
%%   2350 ns    Log    PASSED    in receiver_1: RxBurstFifo,      Data Received : 000000CD
%%   2350 ns    Log    PASSED    in receiver_1: RxBurstFifo,      User Received : D
%%   2350 ns    Log    PASSED    in receiver_1: RxBurstFifo,      Data Received : 000000CE
%%   2350 ns    Log    PASSED    in receiver_1: RxBurstFifo,      User Received : E
%%   2350 ns    Log    PASSED    in receiver_1: RxBurstFifo,      Data Received : 000000CF
%%   2350 ns    Log    PASSED    in receiver_1: RxBurstFifo,      User Received : F
%%   2350 ns    Log    PASSED    in receiver_1: RxBurstFifo,      Data Received : 000000D0
%%   2350 ns    Log    PASSED    in receiver_1: RxBurstFifo,      User Received : 0
%%   2350 ns    Log    PASSED    in receiver_1: RxBurstFifo,      Data Received : 000000D1
%%   2350 ns    Log    PASSED    in receiver_1: RxBurstFifo,      User Received : 1
%%   2350 ns    Log    PASSED    in receiver_1: RxBurstFifo,      Data Received : 000000D2
%%   2350 ns    Log    PASSED    in receiver_1: RxBurstFifo,      User Received : 2
%%   2350 ns    Log    PASSED    in receiver_1: RxBurstFifo,      Data Received : 000000D3
%%   2350 ns    Log    PASSED    in receiver_1: RxBurstFifo,      User Received : 3
%%   2350 ns    Log    PASSED    in receiver_1: RxBurstFifo,      Data Received : 000000D4
%%   2350 ns    Log    PASSED    in receiver_1: RxBurstFifo,      User Received : 4
%%   2350 ns    Log    PASSED    in receiver_1: RxBurstFifo,      Data Received : 000000D5
%%   2350 ns    Log    PASSED    in receiver_1: RxBurstFifo,      User Received : 5
%%   2350 ns    Log    PASSED    in receiver_1: RxBurstFifo,      Data Received : 000000D6
%%   2350 ns    Log    PASSED    in receiver_1: RxBurstFifo,      User Received : 6
%%   2350 ns    Log    PASSED    in receiver_1: RxBurstFifo,      Data Received : 000000D7
%%   2350 ns    Log    PASSED    in receiver_1: RxBurstFifo,      User Received : 7
%%   2350 ns    Log    PASSED    in receiver_1: RxBurstFifo,      Data Received : 000000D8
%%   2350 ns    Log    PASSED    in receiver_1: RxBurstFifo,      User Received : 8
%%   2350 ns    Log    PASSED    in receiver_1: RxBurstFifo,      Data Received : 000000D9
%%   2350 ns    Log    PASSED    in receiver_1: RxBurstFifo,      User Received : 9
%%   2350 ns    Log    PASSED    in receiver_1: RxBurstFifo,      Data Received : 000000DA
%%   2350 ns    Log    PASSED    in receiver_1: RxBurstFifo,      User Received : A
%%   2350 ns    Log    PASSED    in receiver_1: RxBurstFifo,      Data Received : 000000DB
%%   2350 ns    Log    PASSED    in receiver_1: RxBurstFifo,      User Received : B
%%   2350 ns    Log    PASSED    in receiver_1: RxBurstFifo,      Data Received : 000000DC
%%   2350 ns    Log    PASSED    in receiver_1: RxBurstFifo,      User Received : C
%%   2350 ns    Log    PASSED    in receiver_1: RxBurstFifo,      Data Received : 000000DD
%%   2350 ns    Log    PASSED    in receiver_1: RxBurstFifo,      User Received : D
%%   2350 ns    Log    PASSED    in receiver_1: RxBurstFifo,      Data Received : 000000DE
%%   2350 ns    Log    PASSED    in receiver_1: RxBurstFifo,      User Received : E
%%   2350 ns    Log    PASSED    in receiver_1: RxBurstFifo,      Data Received : 000000DF
%%   2350 ns    Log    PASSED    in receiver_1: RxBurstFifo,      User Received : F
%%   2350 ns    Log    INFO      in receiver_1,                   Burst Check.  Operation# 7  Last Data: 000000DF  TID: 07  TDest: 2  TUser: F  TLast: 1
%%   2350 ns    Log    PASSED    in receiver_1,                   Burst Check WordCount Received : 32
%%   2350 ns    Log    PASSED    in receiver_1,                   ID Received : 07
%%   2350 ns    Log    PASSED    in receiver_1,                   DEST Received : 2
%%   2350 ns    Log    PASSED    in receiver_1,                   Last Received : 1
