%%    110 ns    Log    ALWAYS    in Default,                      Transmit 16 words.  Incrementing.  Starting with 03
%%    110 ns    Log    INFO      in transmitter_1,                Axi Stream Send.  TData: 00000003  TStrb: 1111  TKeep: 1111  TID: 00  TDest: 0  TUser: 0  TLast: 0  Operation# 1
%%    120 ns    Log    INFO      in transmitter_1,                Axi Stream Send.  TData: 00000004  TStrb: 1111  TKeep: 1111  TID: 00  TDest: 0  TUser: 0  TLast: 0  Operation# 2
%%    130 ns    Log    INFO      in transmitter_1,                Axi Stream Send.  TData: 00000005  TStrb: 1111  TKeep: 1111  TID: 00  TDest: 0  TUser: 0  TLast: 0  Operation# 3
%%    140 ns    Log    INFO      in transmitter_1,                Axi Stream Send.  TData: 00000006  TStrb: 1111  TKeep: 1111  TID: 00  TDest: 0  TUser: 0  TLast: 0  Operation# 4
%%    150 ns    Log    INFO      in transmitter_1,                Axi Stream Send.  TData: 00000007  TStrb: 1111  TKeep: 1111  TID: 00  TDest: 0  TUser: 0  TLast: 0  Operation# 5
%%    160 ns    Log    INFO      in transmitter_1,                Axi Stream Send.  TData: 00000008  TStrb: 1111  TKeep: 1111  TID: 00  TDest: 0  TUser: 0  TLast: 0  Operation# 6
%%    170 ns    Log    INFO      in transmitter_1,                Axi Stream Send.  TData: 00000009  TStrb: 1111  TKeep: 1111  TID: 00  TDest: 0  TUser: 0  TLast: 0  Operation# 7
%%    180 ns    Log    INFO      in transmitter_1,                Axi Stream Send.  TData: 0000000A  TStrb: 1111  TKeep: 1111  TID: 00  TDest: 0  TUser: 0  TLast: 0  Operation# 8
%%    190 ns    Log    INFO      in transmitter_1,                Axi Stream Send.  TData: 0000000B  TStrb: 1111  TKeep: 1111  TID: 00  TDest: 0  TUser: 0  TLast: 0  Operation# 9
%%    200 ns    Log    INFO      in transmitter_1,                Axi Stream Send.  TData: 0000000C  TStrb: 1111  TKeep: 1111  TID: 00  TDest: 0  TUser: 0  TLast: 0  Operation# 10
%%    210 ns    Log    INFO      in transmitter_1,                Axi Stream Send.  TData: 0000000D  TStrb: 1111  TKeep: 1111  TID: 00  TDest: 0  TUser: 0  TLast: 0  Operation# 11
%%    220 ns    Log    INFO      in transmitter_1,                Axi Stream Send.  TData: 0000000E  TStrb: 1111  TKeep: 1111  TID: 00  TDest: 0  TUser: 0  TLast: 0  Operation# 12
%%    230 ns    Log    INFO      in transmitter_1,                Axi Stream Send.  TData: 0000000F  TStrb: 1111  TKeep: 1111  TID: 00  TDest: 0  TUser: 0  TLast: 0  Operation# 13
%%    240 ns    Log    INFO      in transmitter_1,                Axi Stream Send.  TData: 00000010  TStrb: 1111  TKeep: 1111  TID: 00  TDest: 0  TUser: 0  TLast: 0  Operation# 14
%%    250 ns    Log    INFO      in transmitter_1,                Axi Stream Send.  TData: 00000011  TStrb: 1111  TKeep: 1111  TID: 00  TDest: 0  TUser: 0  TLast: 0  Operation# 15
%%    260 ns    Log    INFO      in transmitter_1,                Axi Stream Send.  TData: 00000012  TStrb: 1111  TKeep: 1111  TID: 00  TDest: 0  TUser: 0  TLast: 1  Operation# 16
%%    270 ns    Log    PASSED    in receiver_1: RxBurstFifo,      Received: 00000003   Item Number: 1
%%    270 ns    Log    PASSED    in receiver_1: RxBurstFifo,      Received: 00000004   Item Number: 2
%%    270 ns    Log    PASSED    in receiver_1: RxBurstFifo,      Received: 00000005   Item Number: 3
%%    270 ns    Log    PASSED    in receiver_1: RxBurstFifo,      Received: 00000006   Item Number: 4
%%    270 ns    Log    PASSED    in receiver_1: RxBurstFifo,      Received: 00000007   Item Number: 5
%%    270 ns    Log    PASSED    in receiver_1: RxBurstFifo,      Received: 00000008   Item Number: 6
%%    270 ns    Log    PASSED    in receiver_1: RxBurstFifo,      Received: 00000009   Item Number: 7
%%    270 ns    Log    PASSED    in receiver_1: RxBurstFifo,      Received: 0000000A   Item Number: 8
%%    270 ns    Log    PASSED    in receiver_1: RxBurstFifo,      Received: 0000000B   Item Number: 9
%%    270 ns    Log    PASSED    in receiver_1: RxBurstFifo,      Received: 0000000C   Item Number: 10
%%    270 ns    Log    PASSED    in receiver_1: RxBurstFifo,      Received: 0000000D   Item Number: 11
%%    270 ns    Log    PASSED    in receiver_1: RxBurstFifo,      Received: 0000000E   Item Number: 12
%%    270 ns    Log    PASSED    in receiver_1: RxBurstFifo,      Received: 0000000F   Item Number: 13
%%    270 ns    Log    PASSED    in receiver_1: RxBurstFifo,      Received: 00000010   Item Number: 14
%%    270 ns    Log    PASSED    in receiver_1: RxBurstFifo,      Received: 00000011   Item Number: 15
%%    270 ns    Log    PASSED    in receiver_1: RxBurstFifo,      Received: 00000012   Item Number: 16
%%    270 ns    Log    INFO      in receiver_1,                   Burst Check.  Operation# 1  Last Data: 00000012  TID: 00  TDest: 0  TUser: 0  TLast: 1
%%    270 ns    Log    PASSED    in receiver_1,                   Burst Check WordCount Received : 16
%%    270 ns    Log    PASSED    in receiver_1,                   ID Received : 00
%%    270 ns    Log    PASSED    in receiver_1,                   DEST Received : 0
%%    270 ns    Log    PASSED    in receiver_1,                   USER Received : 0
%%    270 ns    Log    PASSED    in receiver_1,                   Last Received : 1
%%    310 ns    Log    ALWAYS    in Default,                      Transmit 13 Words.
%%    310 ns    Log    INFO      in transmitter_1,                Axi Stream Send.  TData: 00000001  TStrb: 1111  TKeep: 1111  TID: 00  TDest: 0  TUser: 0  TLast: 0  Operation# 17
%%    320 ns    Log    INFO      in transmitter_1,                Axi Stream Send.  TData: 00000003  TStrb: 1111  TKeep: 1111  TID: 00  TDest: 0  TUser: 0  TLast: 0  Operation# 18
%%    330 ns    Log    INFO      in transmitter_1,                Axi Stream Send.  TData: 00000005  TStrb: 1111  TKeep: 1111  TID: 00  TDest: 0  TUser: 0  TLast: 0  Operation# 19
%%    340 ns    Log    INFO      in transmitter_1,                Axi Stream Send.  TData: 00000007  TStrb: 1111  TKeep: 1111  TID: 00  TDest: 0  TUser: 0  TLast: 0  Operation# 20
%%    350 ns    Log    INFO      in transmitter_1,                Axi Stream Send.  TData: 00000009  TStrb: 1111  TKeep: 1111  TID: 00  TDest: 0  TUser: 0  TLast: 0  Operation# 21
%%    360 ns    Log    INFO      in transmitter_1,                Axi Stream Send.  TData: 0000000B  TStrb: 1111  TKeep: 1111  TID: 00  TDest: 0  TUser: 0  TLast: 0  Operation# 22
%%    370 ns    Log    INFO      in transmitter_1,                Axi Stream Send.  TData: 0000000D  TStrb: 1111  TKeep: 1111  TID: 00  TDest: 0  TUser: 0  TLast: 0  Operation# 23
%%    380 ns    Log    INFO      in transmitter_1,                Axi Stream Send.  TData: 0000000F  TStrb: 1111  TKeep: 1111  TID: 00  TDest: 0  TUser: 0  TLast: 0  Operation# 24
%%    390 ns    Log    INFO      in transmitter_1,                Axi Stream Send.  TData: 00000011  TStrb: 1111  TKeep: 1111  TID: 00  TDest: 0  TUser: 0  TLast: 0  Operation# 25
%%    400 ns    Log    INFO      in transmitter_1,                Axi Stream Send.  TData: 00000013  TStrb: 1111  TKeep: 1111  TID: 00  TDest: 0  TUser: 0  TLast: 0  Operation# 26
%%    410 ns    Log    INFO      in transmitter_1,                Axi Stream Send.  TData: 00000015  TStrb: 1111  TKeep: 1111  TID: 00  TDest: 0  TUser: 0  TLast: 0  Operation# 27
%%    420 ns    Log    INFO      in transmitter_1,                Axi Stream Send.  TData: 00000017  TStrb: 1111  TKeep: 1111  TID: 00  TDest: 0  TUser: 0  TLast: 0  Operation# 28
%%    430 ns    Log    INFO      in transmitter_1,                Axi Stream Send.  TData: 00000019  TStrb: 1111  TKeep: 1111  TID: 00  TDest: 0  TUser: 0  TLast: 1  Operation# 29
%%    440 ns    Log    PASSED    in receiver_1: RxBurstFifo,      Received: 00000001   Item Number: 17
%%    440 ns    Log    PASSED    in receiver_1: RxBurstFifo,      Received: 00000003   Item Number: 18
%%    440 ns    Log    PASSED    in receiver_1: RxBurstFifo,      Received: 00000005   Item Number: 19
%%    440 ns    Log    PASSED    in receiver_1: RxBurstFifo,      Received: 00000007   Item Number: 20
%%    440 ns    Log    PASSED    in receiver_1: RxBurstFifo,      Received: 00000009   Item Number: 21
%%    440 ns    Log    PASSED    in receiver_1: RxBurstFifo,      Received: 0000000B   Item Number: 22
%%    440 ns    Log    PASSED    in receiver_1: RxBurstFifo,      Received: 0000000D   Item Number: 23
%%    440 ns    Log    PASSED    in receiver_1: RxBurstFifo,      Received: 0000000F   Item Number: 24
%%    440 ns    Log    PASSED    in receiver_1: RxBurstFifo,      Received: 00000011   Item Number: 25
%%    440 ns    Log    PASSED    in receiver_1: RxBurstFifo,      Received: 00000013   Item Number: 26
%%    440 ns    Log    PASSED    in receiver_1: RxBurstFifo,      Received: 00000015   Item Number: 27
%%    440 ns    Log    PASSED    in receiver_1: RxBurstFifo,      Received: 00000017   Item Number: 28
%%    440 ns    Log    PASSED    in receiver_1: RxBurstFifo,      Received: 00000019   Item Number: 29
%%    440 ns    Log    INFO      in receiver_1,                   Burst Check.  Operation# 2  Last Data: 00000019  TID: 00  TDest: 0  TUser: 0  TLast: 1
%%    440 ns    Log    PASSED    in receiver_1,                   Burst Check WordCount Received : 13
%%    440 ns    Log    PASSED    in receiver_1,                   ID Received : 00
%%    440 ns    Log    PASSED    in receiver_1,                   DEST Received : 0
%%    440 ns    Log    PASSED    in receiver_1,                   USER Received : 0
%%    440 ns    Log    PASSED    in receiver_1,                   Last Received : 1
%%    480 ns    Log    ALWAYS    in Default,                      Transmit 8 words.  Random.  Starting with XAA
%%    480 ns    Log    INFO      in transmitter_1,                Axi Stream Send.  TData: 000000AA  TStrb: 1111  TKeep: 1111  TID: 00  TDest: 0  TUser: 0  TLast: 0  Operation# 30
%%    490 ns    Log    INFO      in transmitter_1,                Axi Stream Send.  TData: 1FC6D771  TStrb: 1111  TKeep: 1111  TID: 00  TDest: 0  TUser: 0  TLast: 0  Operation# 31
%%    500 ns    Log    INFO      in transmitter_1,                Axi Stream Send.  TData: DF581EFB  TStrb: 1111  TKeep: 1111  TID: 00  TDest: 0  TUser: 0  TLast: 0  Operation# 32
%%    510 ns    Log    INFO      in transmitter_1,                Axi Stream Send.  TData: C177691C  TStrb: 1111  TKeep: 1111  TID: 00  TDest: 0  TUser: 0  TLast: 0  Operation# 33
%%    520 ns    Log    INFO      in transmitter_1,                Axi Stream Send.  TData: A070152D  TStrb: 1111  TKeep: 1111  TID: 00  TDest: 0  TUser: 0  TLast: 0  Operation# 34
%%    530 ns    Log    INFO      in transmitter_1,                Axi Stream Send.  TData: BDCF1A94  TStrb: 1111  TKeep: 1111  TID: 00  TDest: 0  TUser: 0  TLast: 0  Operation# 35
%%    540 ns    Log    INFO      in transmitter_1,                Axi Stream Send.  TData: ECED1EAD  TStrb: 1111  TKeep: 1111  TID: 00  TDest: 0  TUser: 0  TLast: 0  Operation# 36
%%    550 ns    Log    INFO      in transmitter_1,                Axi Stream Send.  TData: 483AA432  TStrb: 1111  TKeep: 1111  TID: 00  TDest: 0  TUser: 0  TLast: 1  Operation# 37
%%    560 ns    Log    PASSED    in receiver_1: RxBurstFifo,      Received: 000000AA   Item Number: 30
%%    560 ns    Log    PASSED    in receiver_1: RxBurstFifo,      Received: 1FC6D771   Item Number: 31
%%    560 ns    Log    PASSED    in receiver_1: RxBurstFifo,      Received: DF581EFB   Item Number: 32
%%    560 ns    Log    PASSED    in receiver_1: RxBurstFifo,      Received: C177691C   Item Number: 33
%%    560 ns    Log    PASSED    in receiver_1: RxBurstFifo,      Received: A070152D   Item Number: 34
%%    560 ns    Log    PASSED    in receiver_1: RxBurstFifo,      Received: BDCF1A94   Item Number: 35
%%    560 ns    Log    PASSED    in receiver_1: RxBurstFifo,      Received: ECED1EAD   Item Number: 36
%%    560 ns    Log    PASSED    in receiver_1: RxBurstFifo,      Received: 483AA432   Item Number: 37
%%    560 ns    Log    INFO      in receiver_1,                   Burst Check.  Operation# 3  Last Data: 483AA432  TID: 00  TDest: 0  TUser: 0  TLast: 1
%%    560 ns    Log    PASSED    in receiver_1,                   Burst Check WordCount Received : 8
%%    560 ns    Log    PASSED    in receiver_1,                   ID Received : 00
%%    560 ns    Log    PASSED    in receiver_1,                   DEST Received : 0
%%    560 ns    Log    PASSED    in receiver_1,                   USER Received : 0
%%    560 ns    Log    PASSED    in receiver_1,                   Last Received : 1
%%    560 ns    Log    ALWAYS    in Default,                      Transmit 8 words. Starting with 0
%%    560 ns    Log    INFO      in transmitter_1,                Axi Stream Send.  TData: 00000000  TStrb: 1111  TKeep: 1111  TID: 00  TDest: 0  TUser: 0  TLast: 0  Operation# 38
%%    570 ns    Log    INFO      in transmitter_1,                Axi Stream Send.  TData: 00000001  TStrb: 1111  TKeep: 1111  TID: 00  TDest: 0  TUser: 0  TLast: 0  Operation# 39
%%    580 ns    Log    INFO      in transmitter_1,                Axi Stream Send.  TData: 00000002  TStrb: 1111  TKeep: 1111  TID: 00  TDest: 0  TUser: 0  TLast: 0  Operation# 40
%%    590 ns    Log    INFO      in transmitter_1,                Axi Stream Send.  TData: 00000003  TStrb: 1111  TKeep: 1111  TID: 00  TDest: 0  TUser: 0  TLast: 0  Operation# 41
%%    600 ns    Log    INFO      in transmitter_1,                Axi Stream Send.  TData: 00000004  TStrb: 1111  TKeep: 1111  TID: 00  TDest: 0  TUser: 0  TLast: 0  Operation# 42
%%    610 ns    Log    INFO      in transmitter_1,                Axi Stream Send.  TData: 00000005  TStrb: 1111  TKeep: 1111  TID: 00  TDest: 0  TUser: 0  TLast: 0  Operation# 43
%%    620 ns    Log    INFO      in transmitter_1,                Axi Stream Send.  TData: 00000006  TStrb: 1111  TKeep: 1111  TID: 00  TDest: 0  TUser: 0  TLast: 0  Operation# 44
%%    630 ns    Log    INFO      in transmitter_1,                Axi Stream Send.  TData: 00000007  TStrb: 1111  TKeep: 1111  TID: 00  TDest: 0  TUser: 0  TLast: 1  Operation# 45
%%    640 ns    Log    PASSED    in receiver_1: RxBurstFifo,      Received: 00000000   Item Number: 38
%%    640 ns    Log    PASSED    in receiver_1: RxBurstFifo,      Received: 00000001   Item Number: 39
%%    640 ns    Log    PASSED    in receiver_1: RxBurstFifo,      Received: 00000002   Item Number: 40
%%    640 ns    Log    PASSED    in receiver_1: RxBurstFifo,      Received: 00000003   Item Number: 41
%%    640 ns    Log    PASSED    in receiver_1: RxBurstFifo,      Received: 00000004   Item Number: 42
%%    640 ns    Log    PASSED    in receiver_1: RxBurstFifo,      Received: 00000005   Item Number: 43
%%    640 ns    Log    PASSED    in receiver_1: RxBurstFifo,      Received: 00000006   Item Number: 44
%%    640 ns    Log    PASSED    in receiver_1: RxBurstFifo,      Received: 00000007   Item Number: 45
%%    640 ns    Log    INFO      in receiver_1,                   Burst Check.  Operation# 4  Last Data: 00000007  TID: 00  TDest: 0  TUser: 0  TLast: 1
%%    640 ns    Log    PASSED    in receiver_1,                   Burst Check WordCount Received : 8
%%    640 ns    Log    PASSED    in receiver_1,                   ID Received : 00
%%    640 ns    Log    PASSED    in receiver_1,                   DEST Received : 0
%%    640 ns    Log    PASSED    in receiver_1,                   USER Received : 0
%%    640 ns    Log    PASSED    in receiver_1,                   Last Received : 1
%%    640 ns    Log    ALWAYS    in Default,                      Transmit 11 words. Starting with 32
%%    640 ns    Log    INFO      in transmitter_1,                Axi Stream Send.  TData: 00000020  TStrb: 1111  TKeep: 1111  TID: 00  TDest: 0  TUser: 0  TLast: 0  Operation# 46
%%    650 ns    Log    INFO      in transmitter_1,                Axi Stream Send.  TData: 00000021  TStrb: 1111  TKeep: 1111  TID: 00  TDest: 0  TUser: 0  TLast: 0  Operation# 47
%%    660 ns    Log    INFO      in transmitter_1,                Axi Stream Send.  TData: 00000022  TStrb: 1111  TKeep: 1111  TID: 00  TDest: 0  TUser: 0  TLast: 0  Operation# 48
%%    670 ns    Log    INFO      in transmitter_1,                Axi Stream Send.  TData: 00000023  TStrb: 1111  TKeep: 1111  TID: 00  TDest: 0  TUser: 0  TLast: 0  Operation# 49
%%    680 ns    Log    INFO      in transmitter_1,                Axi Stream Send.  TData: 00000024  TStrb: 1111  TKeep: 1111  TID: 00  TDest: 0  TUser: 0  TLast: 0  Operation# 50
%%    690 ns    Log    INFO      in transmitter_1,                Axi Stream Send.  TData: 00000025  TStrb: 1111  TKeep: 1111  TID: 00  TDest: 0  TUser: 0  TLast: 0  Operation# 51
%%    700 ns    Log    INFO      in transmitter_1,                Axi Stream Send.  TData: 00000026  TStrb: 1111  TKeep: 1111  TID: 00  TDest: 0  TUser: 0  TLast: 0  Operation# 52
%%    710 ns    Log    INFO      in transmitter_1,                Axi Stream Send.  TData: 00000027  TStrb: 1111  TKeep: 1111  TID: 00  TDest: 0  TUser: 0  TLast: 0  Operation# 53
%%    720 ns    Log    INFO      in transmitter_1,                Axi Stream Send.  TData: 00000028  TStrb: 1111  TKeep: 1111  TID: 00  TDest: 0  TUser: 0  TLast: 0  Operation# 54
%%    730 ns    Log    INFO      in transmitter_1,                Axi Stream Send.  TData: 00000029  TStrb: 1111  TKeep: 1111  TID: 00  TDest: 0  TUser: 0  TLast: 0  Operation# 55
%%    740 ns    Log    INFO      in transmitter_1,                Axi Stream Send.  TData: 0000002A  TStrb: 1111  TKeep: 1111  TID: 00  TDest: 0  TUser: 0  TLast: 1  Operation# 56
%%    750 ns    Log    PASSED    in receiver_1: RxBurstFifo,      Received: 00000020   Item Number: 46
%%    750 ns    Log    PASSED    in receiver_1: RxBurstFifo,      Received: 00000021   Item Number: 47
%%    750 ns    Log    PASSED    in receiver_1: RxBurstFifo,      Received: 00000022   Item Number: 48
%%    750 ns    Log    PASSED    in receiver_1: RxBurstFifo,      Received: 00000023   Item Number: 49
%%    750 ns    Log    PASSED    in receiver_1: RxBurstFifo,      Received: 00000024   Item Number: 50
%%    750 ns    Log    PASSED    in receiver_1: RxBurstFifo,      Received: 00000025   Item Number: 51
%%    750 ns    Log    PASSED    in receiver_1: RxBurstFifo,      Received: 00000026   Item Number: 52
%%    750 ns    Log    PASSED    in receiver_1: RxBurstFifo,      Received: 00000027   Item Number: 53
%%    750 ns    Log    PASSED    in receiver_1: RxBurstFifo,      Received: 00000028   Item Number: 54
%%    750 ns    Log    PASSED    in receiver_1: RxBurstFifo,      Received: 00000029   Item Number: 55
%%    750 ns    Log    PASSED    in receiver_1: RxBurstFifo,      Received: 0000002A   Item Number: 56
%%    750 ns    Log    INFO      in receiver_1,                   Burst Check.  Operation# 5  Last Data: 0000002A  TID: 00  TDest: 0  TUser: 0  TLast: 1
%%    750 ns    Log    PASSED    in receiver_1,                   Burst Check WordCount Received : 11
%%    750 ns    Log    PASSED    in receiver_1,                   ID Received : 00
%%    750 ns    Log    PASSED    in receiver_1,                   DEST Received : 0
%%    750 ns    Log    PASSED    in receiver_1,                   USER Received : 0
%%    750 ns    Log    PASSED    in receiver_1,                   Last Received : 1
%%    750 ns    Log    ALWAYS    in Default,                      Transmit 14 words. Starting with 64
%%    750 ns    Log    INFO      in transmitter_1,                Axi Stream Send.  TData: 00000040  TStrb: 1111  TKeep: 1111  TID: 00  TDest: 0  TUser: 0  TLast: 0  Operation# 57
%%    760 ns    Log    INFO      in transmitter_1,                Axi Stream Send.  TData: 00000041  TStrb: 1111  TKeep: 1111  TID: 00  TDest: 0  TUser: 0  TLast: 0  Operation# 58
%%    770 ns    Log    INFO      in transmitter_1,                Axi Stream Send.  TData: 00000042  TStrb: 1111  TKeep: 1111  TID: 00  TDest: 0  TUser: 0  TLast: 0  Operation# 59
%%    780 ns    Log    INFO      in transmitter_1,                Axi Stream Send.  TData: 00000043  TStrb: 1111  TKeep: 1111  TID: 00  TDest: 0  TUser: 0  TLast: 0  Operation# 60
%%    790 ns    Log    INFO      in transmitter_1,                Axi Stream Send.  TData: 00000044  TStrb: 1111  TKeep: 1111  TID: 00  TDest: 0  TUser: 0  TLast: 0  Operation# 61
%%    800 ns    Log    INFO      in transmitter_1,                Axi Stream Send.  TData: 00000045  TStrb: 1111  TKeep: 1111  TID: 00  TDest: 0  TUser: 0  TLast: 0  Operation# 62
%%    810 ns    Log    INFO      in transmitter_1,                Axi Stream Send.  TData: 00000046  TStrb: 1111  TKeep: 1111  TID: 00  TDest: 0  TUser: 0  TLast: 0  Operation# 63
%%    820 ns    Log    INFO      in transmitter_1,                Axi Stream Send.  TData: 00000047  TStrb: 1111  TKeep: 1111  TID: 00  TDest: 0  TUser: 0  TLast: 0  Operation# 64
%%    830 ns    Log    INFO      in transmitter_1,                Axi Stream Send.  TData: 00000048  TStrb: 1111  TKeep: 1111  TID: 00  TDest: 0  TUser: 0  TLast: 0  Operation# 65
%%    840 ns    Log    INFO      in transmitter_1,                Axi Stream Send.  TData: 00000049  TStrb: 1111  TKeep: 1111  TID: 00  TDest: 0  TUser: 0  TLast: 0  Operation# 66
%%    850 ns    Log    INFO      in transmitter_1,                Axi Stream Send.  TData: 0000004A  TStrb: 1111  TKeep: 1111  TID: 00  TDest: 0  TUser: 0  TLast: 0  Operation# 67
%%    860 ns    Log    INFO      in transmitter_1,                Axi Stream Send.  TData: 0000004B  TStrb: 1111  TKeep: 1111  TID: 00  TDest: 0  TUser: 0  TLast: 0  Operation# 68
%%    870 ns    Log    INFO      in transmitter_1,                Axi Stream Send.  TData: 0000004C  TStrb: 1111  TKeep: 1111  TID: 00  TDest: 0  TUser: 0  TLast: 0  Operation# 69
%%    880 ns    Log    INFO      in transmitter_1,                Axi Stream Send.  TData: 0000004D  TStrb: 1111  TKeep: 1111  TID: 00  TDest: 0  TUser: 0  TLast: 1  Operation# 70
%%    890 ns    Log    PASSED    in receiver_1: RxBurstFifo,      Received: 00000040   Item Number: 57
%%    890 ns    Log    PASSED    in receiver_1: RxBurstFifo,      Received: 00000041   Item Number: 58
%%    890 ns    Log    PASSED    in receiver_1: RxBurstFifo,      Received: 00000042   Item Number: 59
%%    890 ns    Log    PASSED    in receiver_1: RxBurstFifo,      Received: 00000043   Item Number: 60
%%    890 ns    Log    PASSED    in receiver_1: RxBurstFifo,      Received: 00000044   Item Number: 61
%%    890 ns    Log    PASSED    in receiver_1: RxBurstFifo,      Received: 00000045   Item Number: 62
%%    890 ns    Log    PASSED    in receiver_1: RxBurstFifo,      Received: 00000046   Item Number: 63
%%    890 ns    Log    PASSED    in receiver_1: RxBurstFifo,      Received: 00000047   Item Number: 64
%%    890 ns    Log    PASSED    in receiver_1: RxBurstFifo,      Received: 00000048   Item Number: 65
%%    890 ns    Log    PASSED    in receiver_1: RxBurstFifo,      Received: 00000049   Item Number: 66
%%    890 ns    Log    PASSED    in receiver_1: RxBurstFifo,      Received: 0000004A   Item Number: 67
%%    890 ns    Log    PASSED    in receiver_1: RxBurstFifo,      Received: 0000004B   Item Number: 68
%%    890 ns    Log    PASSED    in receiver_1: RxBurstFifo,      Received: 0000004C   Item Number: 69
%%    890 ns    Log    PASSED    in receiver_1: RxBurstFifo,      Received: 0000004D   Item Number: 70
%%    890 ns    Log    INFO      in receiver_1,                   Burst Check.  Operation# 6  Last Data: 0000004D  TID: 00  TDest: 0  TUser: 0  TLast: 1
%%    890 ns    Log    PASSED    in receiver_1,                   Burst Check WordCount Received : 14
%%    890 ns    Log    PASSED    in receiver_1,                   ID Received : 00
%%    890 ns    Log    PASSED    in receiver_1,                   DEST Received : 0
%%    890 ns    Log    PASSED    in receiver_1,                   USER Received : 0
%%    890 ns    Log    PASSED    in receiver_1,                   Last Received : 1
%%    890 ns    Log    ALWAYS    in Default,                      Transmit 17 words. Starting with 96
%%    890 ns    Log    INFO      in transmitter_1,                Axi Stream Send.  TData: 00000060  TStrb: 1111  TKeep: 1111  TID: 00  TDest: 0  TUser: 0  TLast: 0  Operation# 71
%%    900 ns    Log    INFO      in transmitter_1,                Axi Stream Send.  TData: 00000061  TStrb: 1111  TKeep: 1111  TID: 00  TDest: 0  TUser: 0  TLast: 0  Operation# 72
%%    910 ns    Log    INFO      in transmitter_1,                Axi Stream Send.  TData: 00000062  TStrb: 1111  TKeep: 1111  TID: 00  TDest: 0  TUser: 0  TLast: 0  Operation# 73
%%    920 ns    Log    INFO      in transmitter_1,                Axi Stream Send.  TData: 00000063  TStrb: 1111  TKeep: 1111  TID: 00  TDest: 0  TUser: 0  TLast: 0  Operation# 74
%%    930 ns    Log    INFO      in transmitter_1,                Axi Stream Send.  TData: 00000064  TStrb: 1111  TKeep: 1111  TID: 00  TDest: 0  TUser: 0  TLast: 0  Operation# 75
%%    940 ns    Log    INFO      in transmitter_1,                Axi Stream Send.  TData: 00000065  TStrb: 1111  TKeep: 1111  TID: 00  TDest: 0  TUser: 0  TLast: 0  Operation# 76
%%    950 ns    Log    INFO      in transmitter_1,                Axi Stream Send.  TData: 00000066  TStrb: 1111  TKeep: 1111  TID: 00  TDest: 0  TUser: 0  TLast: 0  Operation# 77
%%    960 ns    Log    INFO      in transmitter_1,                Axi Stream Send.  TData: 00000067  TStrb: 1111  TKeep: 1111  TID: 00  TDest: 0  TUser: 0  TLast: 0  Operation# 78
%%    970 ns    Log    INFO      in transmitter_1,                Axi Stream Send.  TData: 00000068  TStrb: 1111  TKeep: 1111  TID: 00  TDest: 0  TUser: 0  TLast: 0  Operation# 79
%%    980 ns    Log    INFO      in transmitter_1,                Axi Stream Send.  TData: 00000069  TStrb: 1111  TKeep: 1111  TID: 00  TDest: 0  TUser: 0  TLast: 0  Operation# 80
%%    990 ns    Log    INFO      in transmitter_1,                Axi Stream Send.  TData: 0000006A  TStrb: 1111  TKeep: 1111  TID: 00  TDest: 0  TUser: 0  TLast: 0  Operation# 81
%%   1000 ns    Log    INFO      in transmitter_1,                Axi Stream Send.  TData: 0000006B  TStrb: 1111  TKeep: 1111  TID: 00  TDest: 0  TUser: 0  TLast: 0  Operation# 82
%%   1010 ns    Log    INFO      in transmitter_1,                Axi Stream Send.  TData: 0000006C  TStrb: 1111  TKeep: 1111  TID: 00  TDest: 0  TUser: 0  TLast: 0  Operation# 83
%%   1020 ns    Log    INFO      in transmitter_1,                Axi Stream Send.  TData: 0000006D  TStrb: 1111  TKeep: 1111  TID: 00  TDest: 0  TUser: 0  TLast: 0  Operation# 84
%%   1030 ns    Log    INFO      in transmitter_1,                Axi Stream Send.  TData: 0000006E  TStrb: 1111  TKeep: 1111  TID: 00  TDest: 0  TUser: 0  TLast: 0  Operation# 85
%%   1040 ns    Log    INFO      in transmitter_1,                Axi Stream Send.  TData: 0000006F  TStrb: 1111  TKeep: 1111  TID: 00  TDest: 0  TUser: 0  TLast: 0  Operation# 86
%%   1050 ns    Log    INFO      in transmitter_1,                Axi Stream Send.  TData: 00000070  TStrb: 1111  TKeep: 1111  TID: 00  TDest: 0  TUser: 0  TLast: 1  Operation# 87
%%   1060 ns    Log    PASSED    in receiver_1: RxBurstFifo,      Received: 00000060   Item Number: 71
%%   1060 ns    Log    PASSED    in receiver_1: RxBurstFifo,      Received: 00000061   Item Number: 72
%%   1060 ns    Log    PASSED    in receiver_1: RxBurstFifo,      Received: 00000062   Item Number: 73
%%   1060 ns    Log    PASSED    in receiver_1: RxBurstFifo,      Received: 00000063   Item Number: 74
%%   1060 ns    Log    PASSED    in receiver_1: RxBurstFifo,      Received: 00000064   Item Number: 75
%%   1060 ns    Log    PASSED    in receiver_1: RxBurstFifo,      Received: 00000065   Item Number: 76
%%   1060 ns    Log    PASSED    in receiver_1: RxBurstFifo,      Received: 00000066   Item Number: 77
%%   1060 ns    Log    PASSED    in receiver_1: RxBurstFifo,      Received: 00000067   Item Number: 78
%%   1060 ns    Log    PASSED    in receiver_1: RxBurstFifo,      Received: 00000068   Item Number: 79
%%   1060 ns    Log    PASSED    in receiver_1: RxBurstFifo,      Received: 00000069   Item Number: 80
%%   1060 ns    Log    PASSED    in receiver_1: RxBurstFifo,      Received: 0000006A   Item Number: 81
%%   1060 ns    Log    PASSED    in receiver_1: RxBurstFifo,      Received: 0000006B   Item Number: 82
%%   1060 ns    Log    PASSED    in receiver_1: RxBurstFifo,      Received: 0000006C   Item Number: 83
%%   1060 ns    Log    PASSED    in receiver_1: RxBurstFifo,      Received: 0000006D   Item Number: 84
%%   1060 ns    Log    PASSED    in receiver_1: RxBurstFifo,      Received: 0000006E   Item Number: 85
%%   1060 ns    Log    PASSED    in receiver_1: RxBurstFifo,      Received: 0000006F   Item Number: 86
%%   1060 ns    Log    PASSED    in receiver_1: RxBurstFifo,      Received: 00000070   Item Number: 87
%%   1060 ns    Log    INFO      in receiver_1,                   Burst Check.  Operation# 7  Last Data: 00000070  TID: 00  TDest: 0  TUser: 0  TLast: 1
%%   1060 ns    Log    PASSED    in receiver_1,                   Burst Check WordCount Received : 17
%%   1060 ns    Log    PASSED    in receiver_1,                   ID Received : 00
%%   1060 ns    Log    PASSED    in receiver_1,                   DEST Received : 0
%%   1060 ns    Log    PASSED    in receiver_1,                   USER Received : 0
%%   1060 ns    Log    PASSED    in receiver_1,                   Last Received : 1
%%   1060 ns    Log    ALWAYS    in Default,                      Transmit 20 words. Starting with 128
%%   1060 ns    Log    INFO      in transmitter_1,                Axi Stream Send.  TData: 00000080  TStrb: 1111  TKeep: 1111  TID: 00  TDest: 0  TUser: 0  TLast: 0  Operation# 88
%%   1070 ns    Log    INFO      in transmitter_1,                Axi Stream Send.  TData: 00000081  TStrb: 1111  TKeep: 1111  TID: 00  TDest: 0  TUser: 0  TLast: 0  Operation# 89
%%   1080 ns    Log    INFO      in transmitter_1,                Axi Stream Send.  TData: 00000082  TStrb: 1111  TKeep: 1111  TID: 00  TDest: 0  TUser: 0  TLast: 0  Operation# 90
%%   1090 ns    Log    INFO      in transmitter_1,                Axi Stream Send.  TData: 00000083  TStrb: 1111  TKeep: 1111  TID: 00  TDest: 0  TUser: 0  TLast: 0  Operation# 91
%%   1100 ns    Log    INFO      in transmitter_1,                Axi Stream Send.  TData: 00000084  TStrb: 1111  TKeep: 1111  TID: 00  TDest: 0  TUser: 0  TLast: 0  Operation# 92
%%   1110 ns    Log    INFO      in transmitter_1,                Axi Stream Send.  TData: 00000085  TStrb: 1111  TKeep: 1111  TID: 00  TDest: 0  TUser: 0  TLast: 0  Operation# 93
%%   1120 ns    Log    INFO      in transmitter_1,                Axi Stream Send.  TData: 00000086  TStrb: 1111  TKeep: 1111  TID: 00  TDest: 0  TUser: 0  TLast: 0  Operation# 94
%%   1130 ns    Log    INFO      in transmitter_1,                Axi Stream Send.  TData: 00000087  TStrb: 1111  TKeep: 1111  TID: 00  TDest: 0  TUser: 0  TLast: 0  Operation# 95
%%   1140 ns    Log    INFO      in transmitter_1,                Axi Stream Send.  TData: 00000088  TStrb: 1111  TKeep: 1111  TID: 00  TDest: 0  TUser: 0  TLast: 0  Operation# 96
%%   1150 ns    Log    INFO      in transmitter_1,                Axi Stream Send.  TData: 00000089  TStrb: 1111  TKeep: 1111  TID: 00  TDest: 0  TUser: 0  TLast: 0  Operation# 97
%%   1160 ns    Log    INFO      in transmitter_1,                Axi Stream Send.  TData: 0000008A  TStrb: 1111  TKeep: 1111  TID: 00  TDest: 0  TUser: 0  TLast: 0  Operation# 98
%%   1170 ns    Log    INFO      in transmitter_1,                Axi Stream Send.  TData: 0000008B  TStrb: 1111  TKeep: 1111  TID: 00  TDest: 0  TUser: 0  TLast: 0  Operation# 99
%%   1180 ns    Log    INFO      in transmitter_1,                Axi Stream Send.  TData: 0000008C  TStrb: 1111  TKeep: 1111  TID: 00  TDest: 0  TUser: 0  TLast: 0  Operation# 100
%%   1190 ns    Log    INFO      in transmitter_1,                Axi Stream Send.  TData: 0000008D  TStrb: 1111  TKeep: 1111  TID: 00  TDest: 0  TUser: 0  TLast: 0  Operation# 101
%%   1200 ns    Log    INFO      in transmitter_1,                Axi Stream Send.  TData: 0000008E  TStrb: 1111  TKeep: 1111  TID: 00  TDest: 0  TUser: 0  TLast: 0  Operation# 102
%%   1210 ns    Log    INFO      in transmitter_1,                Axi Stream Send.  TData: 0000008F  TStrb: 1111  TKeep: 1111  TID: 00  TDest: 0  TUser: 0  TLast: 0  Operation# 103
%%   1220 ns    Log    INFO      in transmitter_1,                Axi Stream Send.  TData: 00000090  TStrb: 1111  TKeep: 1111  TID: 00  TDest: 0  TUser: 0  TLast: 0  Operation# 104
%%   1230 ns    Log    INFO      in transmitter_1,                Axi Stream Send.  TData: 00000091  TStrb: 1111  TKeep: 1111  TID: 00  TDest: 0  TUser: 0  TLast: 0  Operation# 105
%%   1240 ns    Log    INFO      in transmitter_1,                Axi Stream Send.  TData: 00000092  TStrb: 1111  TKeep: 1111  TID: 00  TDest: 0  TUser: 0  TLast: 0  Operation# 106
%%   1250 ns    Log    INFO      in transmitter_1,                Axi Stream Send.  TData: 00000093  TStrb: 1111  TKeep: 1111  TID: 00  TDest: 0  TUser: 0  TLast: 1  Operation# 107
%%   1260 ns    Log    PASSED    in receiver_1: RxBurstFifo,      Received: 00000080   Item Number: 88
%%   1260 ns    Log    PASSED    in receiver_1: RxBurstFifo,      Received: 00000081   Item Number: 89
%%   1260 ns    Log    PASSED    in receiver_1: RxBurstFifo,      Received: 00000082   Item Number: 90
%%   1260 ns    Log    PASSED    in receiver_1: RxBurstFifo,      Received: 00000083   Item Number: 91
%%   1260 ns    Log    PASSED    in receiver_1: RxBurstFifo,      Received: 00000084   Item Number: 92
%%   1260 ns    Log    PASSED    in receiver_1: RxBurstFifo,      Received: 00000085   Item Number: 93
%%   1260 ns    Log    PASSED    in receiver_1: RxBurstFifo,      Received: 00000086   Item Number: 94
%%   1260 ns    Log    PASSED    in receiver_1: RxBurstFifo,      Received: 00000087   Item Number: 95
%%   1260 ns    Log    PASSED    in receiver_1: RxBurstFifo,      Received: 00000088   Item Number: 96
%%   1260 ns    Log    PASSED    in receiver_1: RxBurstFifo,      Received: 00000089   Item Number: 97
%%   1260 ns    Log    PASSED    in receiver_1: RxBurstFifo,      Received: 0000008A   Item Number: 98
%%   1260 ns    Log    PASSED    in receiver_1: RxBurstFifo,      Received: 0000008B   Item Number: 99
%%   1260 ns    Log    PASSED    in receiver_1: RxBurstFifo,      Received: 0000008C   Item Number: 100
%%   1260 ns    Log    PASSED    in receiver_1: RxBurstFifo,      Received: 0000008D   Item Number: 101
%%   1260 ns    Log    PASSED    in receiver_1: RxBurstFifo,      Received: 0000008E   Item Number: 102
%%   1260 ns    Log    PASSED    in receiver_1: RxBurstFifo,      Received: 0000008F   Item Number: 103
%%   1260 ns    Log    PASSED    in receiver_1: RxBurstFifo,      Received: 00000090   Item Number: 104
%%   1260 ns    Log    PASSED    in receiver_1: RxBurstFifo,      Received: 00000091   Item Number: 105
%%   1260 ns    Log    PASSED    in receiver_1: RxBurstFifo,      Received: 00000092   Item Number: 106
%%   1260 ns    Log    PASSED    in receiver_1: RxBurstFifo,      Received: 00000093   Item Number: 107
%%   1260 ns    Log    INFO      in receiver_1,                   Burst Check.  Operation# 8  Last Data: 00000093  TID: 00  TDest: 0  TUser: 0  TLast: 1
%%   1260 ns    Log    PASSED    in receiver_1,                   Burst Check WordCount Received : 20
%%   1260 ns    Log    PASSED    in receiver_1,                   ID Received : 00
%%   1260 ns    Log    PASSED    in receiver_1,                   DEST Received : 0
%%   1260 ns    Log    PASSED    in receiver_1,                   USER Received : 0
%%   1260 ns    Log    PASSED    in receiver_1,                   Last Received : 1
%%   1260 ns    Log    ALWAYS    in Default,                      Transmit 23 words. Starting with 160
%%   1260 ns    Log    INFO      in transmitter_1,                Axi Stream Send.  TData: 000000A0  TStrb: 1111  TKeep: 1111  TID: 00  TDest: 0  TUser: 0  TLast: 0  Operation# 108
%%   1270 ns    Log    INFO      in transmitter_1,                Axi Stream Send.  TData: 000000A1  TStrb: 1111  TKeep: 1111  TID: 00  TDest: 0  TUser: 0  TLast: 0  Operation# 109
%%   1280 ns    Log    INFO      in transmitter_1,                Axi Stream Send.  TData: 000000A2  TStrb: 1111  TKeep: 1111  TID: 00  TDest: 0  TUser: 0  TLast: 0  Operation# 110
%%   1290 ns    Log    INFO      in transmitter_1,                Axi Stream Send.  TData: 000000A3  TStrb: 1111  TKeep: 1111  TID: 00  TDest: 0  TUser: 0  TLast: 0  Operation# 111
%%   1300 ns    Log    INFO      in transmitter_1,                Axi Stream Send.  TData: 000000A4  TStrb: 1111  TKeep: 1111  TID: 00  TDest: 0  TUser: 0  TLast: 0  Operation# 112
%%   1310 ns    Log    INFO      in transmitter_1,                Axi Stream Send.  TData: 000000A5  TStrb: 1111  TKeep: 1111  TID: 00  TDest: 0  TUser: 0  TLast: 0  Operation# 113
%%   1320 ns    Log    INFO      in transmitter_1,                Axi Stream Send.  TData: 000000A6  TStrb: 1111  TKeep: 1111  TID: 00  TDest: 0  TUser: 0  TLast: 0  Operation# 114
%%   1330 ns    Log    INFO      in transmitter_1,                Axi Stream Send.  TData: 000000A7  TStrb: 1111  TKeep: 1111  TID: 00  TDest: 0  TUser: 0  TLast: 0  Operation# 115
%%   1340 ns    Log    INFO      in transmitter_1,                Axi Stream Send.  TData: 000000A8  TStrb: 1111  TKeep: 1111  TID: 00  TDest: 0  TUser: 0  TLast: 0  Operation# 116
%%   1350 ns    Log    INFO      in transmitter_1,                Axi Stream Send.  TData: 000000A9  TStrb: 1111  TKeep: 1111  TID: 00  TDest: 0  TUser: 0  TLast: 0  Operation# 117
%%   1360 ns    Log    INFO      in transmitter_1,                Axi Stream Send.  TData: 000000AA  TStrb: 1111  TKeep: 1111  TID: 00  TDest: 0  TUser: 0  TLast: 0  Operation# 118
%%   1370 ns    Log    INFO      in transmitter_1,                Axi Stream Send.  TData: 000000AB  TStrb: 1111  TKeep: 1111  TID: 00  TDest: 0  TUser: 0  TLast: 0  Operation# 119
%%   1380 ns    Log    INFO      in transmitter_1,                Axi Stream Send.  TData: 000000AC  TStrb: 1111  TKeep: 1111  TID: 00  TDest: 0  TUser: 0  TLast: 0  Operation# 120
%%   1390 ns    Log    INFO      in transmitter_1,                Axi Stream Send.  TData: 000000AD  TStrb: 1111  TKeep: 1111  TID: 00  TDest: 0  TUser: 0  TLast: 0  Operation# 121
%%   1400 ns    Log    INFO      in transmitter_1,                Axi Stream Send.  TData: 000000AE  TStrb: 1111  TKeep: 1111  TID: 00  TDest: 0  TUser: 0  TLast: 0  Operation# 122
%%   1410 ns    Log    INFO      in transmitter_1,                Axi Stream Send.  TData: 000000AF  TStrb: 1111  TKeep: 1111  TID: 00  TDest: 0  TUser: 0  TLast: 0  Operation# 123
%%   1420 ns    Log    INFO      in transmitter_1,                Axi Stream Send.  TData: 000000B0  TStrb: 1111  TKeep: 1111  TID: 00  TDest: 0  TUser: 0  TLast: 0  Operation# 124
%%   1430 ns    Log    INFO      in transmitter_1,                Axi Stream Send.  TData: 000000B1  TStrb: 1111  TKeep: 1111  TID: 00  TDest: 0  TUser: 0  TLast: 0  Operation# 125
%%   1440 ns    Log    INFO      in transmitter_1,                Axi Stream Send.  TData: 000000B2  TStrb: 1111  TKeep: 1111  TID: 00  TDest: 0  TUser: 0  TLast: 0  Operation# 126
%%   1450 ns    Log    INFO      in transmitter_1,                Axi Stream Send.  TData: 000000B3  TStrb: 1111  TKeep: 1111  TID: 00  TDest: 0  TUser: 0  TLast: 0  Operation# 127
%%   1460 ns    Log    INFO      in transmitter_1,                Axi Stream Send.  TData: 000000B4  TStrb: 1111  TKeep: 1111  TID: 00  TDest: 0  TUser: 0  TLast: 0  Operation# 128
%%   1470 ns    Log    INFO      in transmitter_1,                Axi Stream Send.  TData: 000000B5  TStrb: 1111  TKeep: 1111  TID: 00  TDest: 0  TUser: 0  TLast: 0  Operation# 129
%%   1480 ns    Log    INFO      in transmitter_1,                Axi Stream Send.  TData: 000000B6  TStrb: 1111  TKeep: 1111  TID: 00  TDest: 0  TUser: 0  TLast: 1  Operation# 130
%%   1490 ns    Log    PASSED    in receiver_1: RxBurstFifo,      Received: 000000A0   Item Number: 108
%%   1490 ns    Log    PASSED    in receiver_1: RxBurstFifo,      Received: 000000A1   Item Number: 109
%%   1490 ns    Log    PASSED    in receiver_1: RxBurstFifo,      Received: 000000A2   Item Number: 110
%%   1490 ns    Log    PASSED    in receiver_1: RxBurstFifo,      Received: 000000A3   Item Number: 111
%%   1490 ns    Log    PASSED    in receiver_1: RxBurstFifo,      Received: 000000A4   Item Number: 112
%%   1490 ns    Log    PASSED    in receiver_1: RxBurstFifo,      Received: 000000A5   Item Number: 113
%%   1490 ns    Log    PASSED    in receiver_1: RxBurstFifo,      Received: 000000A6   Item Number: 114
%%   1490 ns    Log    PASSED    in receiver_1: RxBurstFifo,      Received: 000000A7   Item Number: 115
%%   1490 ns    Log    PASSED    in receiver_1: RxBurstFifo,      Received: 000000A8   Item Number: 116
%%   1490 ns    Log    PASSED    in receiver_1: RxBurstFifo,      Received: 000000A9   Item Number: 117
%%   1490 ns    Log    PASSED    in receiver_1: RxBurstFifo,      Received: 000000AA   Item Number: 118
%%   1490 ns    Log    PASSED    in receiver_1: RxBurstFifo,      Received: 000000AB   Item Number: 119
%%   1490 ns    Log    PASSED    in receiver_1: RxBurstFifo,      Received: 000000AC   Item Number: 120
%%   1490 ns    Log    PASSED    in receiver_1: RxBurstFifo,      Received: 000000AD   Item Number: 121
%%   1490 ns    Log    PASSED    in receiver_1: RxBurstFifo,      Received: 000000AE   Item Number: 122
%%   1490 ns    Log    PASSED    in receiver_1: RxBurstFifo,      Received: 000000AF   Item Number: 123
%%   1490 ns    Log    PASSED    in receiver_1: RxBurstFifo,      Received: 000000B0   Item Number: 124
%%   1490 ns    Log    PASSED    in receiver_1: RxBurstFifo,      Received: 000000B1   Item Number: 125
%%   1490 ns    Log    PASSED    in receiver_1: RxBurstFifo,      Received: 000000B2   Item Number: 126
%%   1490 ns    Log    PASSED    in receiver_1: RxBurstFifo,      Received: 000000B3   Item Number: 127
%%   1490 ns    Log    PASSED    in receiver_1: RxBurstFifo,      Received: 000000B4   Item Number: 128
%%   1490 ns    Log    PASSED    in receiver_1: RxBurstFifo,      Received: 000000B5   Item Number: 129
%%   1490 ns    Log    PASSED    in receiver_1: RxBurstFifo,      Received: 000000B6   Item Number: 130
%%   1490 ns    Log    INFO      in receiver_1,                   Burst Check.  Operation# 9  Last Data: 000000B6  TID: 00  TDest: 0  TUser: 0  TLast: 1
%%   1490 ns    Log    PASSED    in receiver_1,                   Burst Check WordCount Received : 23
%%   1490 ns    Log    PASSED    in receiver_1,                   ID Received : 00
%%   1490 ns    Log    PASSED    in receiver_1,                   DEST Received : 0
%%   1490 ns    Log    PASSED    in receiver_1,                   USER Received : 0
%%   1490 ns    Log    PASSED    in receiver_1,                   Last Received : 1
%%   1490 ns    Log    ALWAYS    in Default,                      Transmit 26 words. Starting with 192
%%   1490 ns    Log    INFO      in transmitter_1,                Axi Stream Send.  TData: 000000C0  TStrb: 1111  TKeep: 1111  TID: 00  TDest: 0  TUser: 0  TLast: 0  Operation# 131
%%   1500 ns    Log    INFO      in transmitter_1,                Axi Stream Send.  TData: 000000C1  TStrb: 1111  TKeep: 1111  TID: 00  TDest: 0  TUser: 0  TLast: 0  Operation# 132
%%   1510 ns    Log    INFO      in transmitter_1,                Axi Stream Send.  TData: 000000C2  TStrb: 1111  TKeep: 1111  TID: 00  TDest: 0  TUser: 0  TLast: 0  Operation# 133
%%   1520 ns    Log    INFO      in transmitter_1,                Axi Stream Send.  TData: 000000C3  TStrb: 1111  TKeep: 1111  TID: 00  TDest: 0  TUser: 0  TLast: 0  Operation# 134
%%   1530 ns    Log    INFO      in transmitter_1,                Axi Stream Send.  TData: 000000C4  TStrb: 1111  TKeep: 1111  TID: 00  TDest: 0  TUser: 0  TLast: 0  Operation# 135
%%   1540 ns    Log    INFO      in transmitter_1,                Axi Stream Send.  TData: 000000C5  TStrb: 1111  TKeep: 1111  TID: 00  TDest: 0  TUser: 0  TLast: 0  Operation# 136
%%   1550 ns    Log    INFO      in transmitter_1,                Axi Stream Send.  TData: 000000C6  TStrb: 1111  TKeep: 1111  TID: 00  TDest: 0  TUser: 0  TLast: 0  Operation# 137
%%   1560 ns    Log    INFO      in transmitter_1,                Axi Stream Send.  TData: 000000C7  TStrb: 1111  TKeep: 1111  TID: 00  TDest: 0  TUser: 0  TLast: 0  Operation# 138
%%   1570 ns    Log    INFO      in transmitter_1,                Axi Stream Send.  TData: 000000C8  TStrb: 1111  TKeep: 1111  TID: 00  TDest: 0  TUser: 0  TLast: 0  Operation# 139
%%   1580 ns    Log    INFO      in transmitter_1,                Axi Stream Send.  TData: 000000C9  TStrb: 1111  TKeep: 1111  TID: 00  TDest: 0  TUser: 0  TLast: 0  Operation# 140
%%   1590 ns    Log    INFO      in transmitter_1,                Axi Stream Send.  TData: 000000CA  TStrb: 1111  TKeep: 1111  TID: 00  TDest: 0  TUser: 0  TLast: 0  Operation# 141
%%   1600 ns    Log    INFO      in transmitter_1,                Axi Stream Send.  TData: 000000CB  TStrb: 1111  TKeep: 1111  TID: 00  TDest: 0  TUser: 0  TLast: 0  Operation# 142
%%   1610 ns    Log    INFO      in transmitter_1,                Axi Stream Send.  TData: 000000CC  TStrb: 1111  TKeep: 1111  TID: 00  TDest: 0  TUser: 0  TLast: 0  Operation# 143
%%   1620 ns    Log    INFO      in transmitter_1,                Axi Stream Send.  TData: 000000CD  TStrb: 1111  TKeep: 1111  TID: 00  TDest: 0  TUser: 0  TLast: 0  Operation# 144
%%   1630 ns    Log    INFO      in transmitter_1,                Axi Stream Send.  TData: 000000CE  TStrb: 1111  TKeep: 1111  TID: 00  TDest: 0  TUser: 0  TLast: 0  Operation# 145
%%   1640 ns    Log    INFO      in transmitter_1,                Axi Stream Send.  TData: 000000CF  TStrb: 1111  TKeep: 1111  TID: 00  TDest: 0  TUser: 0  TLast: 0  Operation# 146
%%   1650 ns    Log    INFO      in transmitter_1,                Axi Stream Send.  TData: 000000D0  TStrb: 1111  TKeep: 1111  TID: 00  TDest: 0  TUser: 0  TLast: 0  Operation# 147
%%   1660 ns    Log    INFO      in transmitter_1,                Axi Stream Send.  TData: 000000D1  TStrb: 1111  TKeep: 1111  TID: 00  TDest: 0  TUser: 0  TLast: 0  Operation# 148
%%   1670 ns    Log    INFO      in transmitter_1,                Axi Stream Send.  TData: 000000D2  TStrb: 1111  TKeep: 1111  TID: 00  TDest: 0  TUser: 0  TLast: 0  Operation# 149
%%   1680 ns    Log    INFO      in transmitter_1,                Axi Stream Send.  TData: 000000D3  TStrb: 1111  TKeep: 1111  TID: 00  TDest: 0  TUser: 0  TLast: 0  Operation# 150
%%   1690 ns    Log    INFO      in transmitter_1,                Axi Stream Send.  TData: 000000D4  TStrb: 1111  TKeep: 1111  TID: 00  TDest: 0  TUser: 0  TLast: 0  Operation# 151
%%   1700 ns    Log    INFO      in transmitter_1,                Axi Stream Send.  TData: 000000D5  TStrb: 1111  TKeep: 1111  TID: 00  TDest: 0  TUser: 0  TLast: 0  Operation# 152
%%   1710 ns    Log    INFO      in transmitter_1,                Axi Stream Send.  TData: 000000D6  TStrb: 1111  TKeep: 1111  TID: 00  TDest: 0  TUser: 0  TLast: 0  Operation# 153
%%   1720 ns    Log    INFO      in transmitter_1,                Axi Stream Send.  TData: 000000D7  TStrb: 1111  TKeep: 1111  TID: 00  TDest: 0  TUser: 0  TLast: 0  Operation# 154
%%   1730 ns    Log    INFO      in transmitter_1,                Axi Stream Send.  TData: 000000D8  TStrb: 1111  TKeep: 1111  TID: 00  TDest: 0  TUser: 0  TLast: 0  Operation# 155
%%   1740 ns    Log    INFO      in transmitter_1,                Axi Stream Send.  TData: 000000D9  TStrb: 1111  TKeep: 1111  TID: 00  TDest: 0  TUser: 0  TLast: 1  Operation# 156
%%   1750 ns    Log    PASSED    in receiver_1: RxBurstFifo,      Received: 000000C0   Item Number: 131
%%   1750 ns    Log    PASSED    in receiver_1: RxBurstFifo,      Received: 000000C1   Item Number: 132
%%   1750 ns    Log    PASSED    in receiver_1: RxBurstFifo,      Received: 000000C2   Item Number: 133
%%   1750 ns    Log    PASSED    in receiver_1: RxBurstFifo,      Received: 000000C3   Item Number: 134
%%   1750 ns    Log    PASSED    in receiver_1: RxBurstFifo,      Received: 000000C4   Item Number: 135
%%   1750 ns    Log    PASSED    in receiver_1: RxBurstFifo,      Received: 000000C5   Item Number: 136
%%   1750 ns    Log    PASSED    in receiver_1: RxBurstFifo,      Received: 000000C6   Item Number: 137
%%   1750 ns    Log    PASSED    in receiver_1: RxBurstFifo,      Received: 000000C7   Item Number: 138
%%   1750 ns    Log    PASSED    in receiver_1: RxBurstFifo,      Received: 000000C8   Item Number: 139
%%   1750 ns    Log    PASSED    in receiver_1: RxBurstFifo,      Received: 000000C9   Item Number: 140
%%   1750 ns    Log    PASSED    in receiver_1: RxBurstFifo,      Received: 000000CA   Item Number: 141
%%   1750 ns    Log    PASSED    in receiver_1: RxBurstFifo,      Received: 000000CB   Item Number: 142
%%   1750 ns    Log    PASSED    in receiver_1: RxBurstFifo,      Received: 000000CC   Item Number: 143
%%   1750 ns    Log    PASSED    in receiver_1: RxBurstFifo,      Received: 000000CD   Item Number: 144
%%   1750 ns    Log    PASSED    in receiver_1: RxBurstFifo,      Received: 000000CE   Item Number: 145
%%   1750 ns    Log    PASSED    in receiver_1: RxBurstFifo,      Received: 000000CF   Item Number: 146
%%   1750 ns    Log    PASSED    in receiver_1: RxBurstFifo,      Received: 000000D0   Item Number: 147
%%   1750 ns    Log    PASSED    in receiver_1: RxBurstFifo,      Received: 000000D1   Item Number: 148
%%   1750 ns    Log    PASSED    in receiver_1: RxBurstFifo,      Received: 000000D2   Item Number: 149
%%   1750 ns    Log    PASSED    in receiver_1: RxBurstFifo,      Received: 000000D3   Item Number: 150
%%   1750 ns    Log    PASSED    in receiver_1: RxBurstFifo,      Received: 000000D4   Item Number: 151
%%   1750 ns    Log    PASSED    in receiver_1: RxBurstFifo,      Received: 000000D5   Item Number: 152
%%   1750 ns    Log    PASSED    in receiver_1: RxBurstFifo,      Received: 000000D6   Item Number: 153
%%   1750 ns    Log    PASSED    in receiver_1: RxBurstFifo,      Received: 000000D7   Item Number: 154
%%   1750 ns    Log    PASSED    in receiver_1: RxBurstFifo,      Received: 000000D8   Item Number: 155
%%   1750 ns    Log    PASSED    in receiver_1: RxBurstFifo,      Received: 000000D9   Item Number: 156
%%   1750 ns    Log    INFO      in receiver_1,                   Burst Check.  Operation# 10  Last Data: 000000D9  TID: 00  TDest: 0  TUser: 0  TLast: 1
%%   1750 ns    Log    PASSED    in receiver_1,                   Burst Check WordCount Received : 26
%%   1750 ns    Log    PASSED    in receiver_1,                   ID Received : 00
%%   1750 ns    Log    PASSED    in receiver_1,                   DEST Received : 0
%%   1750 ns    Log    PASSED    in receiver_1,                   USER Received : 0
%%   1750 ns    Log    PASSED    in receiver_1,                   Last Received : 1
