%%   110 ns    Log    INFO      in transmitter_1,                Axi Stream Send.  TData: 03020100  TStrb: 1111  TKeep: 1111  TID: 03  TDest: 2  TUser: 1  TLast: 0  Operation# 1
%%   120 ns    Log    INFO      in transmitter_1,                Axi Stream Send.  TData: 07060504  TStrb: 1111  TKeep: 1111  TID: 03  TDest: 2  TUser: 1  TLast: 0  Operation# 2
%%   130 ns    Log    INFO      in transmitter_1,                Axi Stream Send.  TData: 0B0A0908  TStrb: 1111  TKeep: 1111  TID: 03  TDest: 2  TUser: 1  TLast: 0  Operation# 3
%%   140 ns    Log    INFO      in transmitter_1,                Axi Stream Send.  TData: 0F0E0D0C  TStrb: 1111  TKeep: 1111  TID: 03  TDest: 2  TUser: 1  TLast: 0  Operation# 4
%%   150 ns    Log    INFO      in transmitter_1,                Axi Stream Send.  TData: 13121110  TStrb: 1111  TKeep: 1111  TID: 03  TDest: 2  TUser: 1  TLast: 0  Operation# 5
%%   160 ns    Log    INFO      in transmitter_1,                Axi Stream Send.  TData: 17161514  TStrb: 1111  TKeep: 1111  TID: 03  TDest: 2  TUser: 1  TLast: 0  Operation# 6
%%   170 ns    Log    INFO      in transmitter_1,                Axi Stream Send.  TData: 1B1A1918  TStrb: 1111  TKeep: 1111  TID: 03  TDest: 2  TUser: 1  TLast: 0  Operation# 7
%%   180 ns    Log    INFO      in transmitter_1,                Axi Stream Send.  TData: 1F1E1D1C  TStrb: 1111  TKeep: 1111  TID: 03  TDest: 2  TUser: 1  TLast: 1  Operation# 8
%%   190 ns    Log    INFO      in transmitter_1,                Axi Stream Send.  TData: 23222120  TStrb: 1111  TKeep: 1111  TID: 03  TDest: 2  TUser: 5  TLast: 0  Operation# 9
%%   190 ns    Log    INFO      in receiver_1,                   Burst Receive.  Operation# 1  Last Data: 1F1E1D1C  TID: 03  TDest: 2  TUser: 1  TLast: 1
%%   190 ns    Log    PASSED    in Default,                      TryCount 16
%%   190 ns    Log    PASSED    in Default,                      Param ID & Dest & User  Received : 00643
%%   190 ns    Log    PASSED    in Default,                      NumBytes  Received : 32
%%   190 ns    Log    PASSED    in receiver_1: RxBurstFifo,      Received: 00   Item Number: 1
%%   190 ns    Log    PASSED    in receiver_1: RxBurstFifo,      Received: 01   Item Number: 2
%%   190 ns    Log    PASSED    in receiver_1: RxBurstFifo,      Received: 02   Item Number: 3
%%   190 ns    Log    PASSED    in receiver_1: RxBurstFifo,      Received: 03   Item Number: 4
%%   190 ns    Log    PASSED    in receiver_1: RxBurstFifo,      Received: 04   Item Number: 5
%%   190 ns    Log    PASSED    in receiver_1: RxBurstFifo,      Received: 05   Item Number: 6
%%   190 ns    Log    PASSED    in receiver_1: RxBurstFifo,      Received: 06   Item Number: 7
%%   190 ns    Log    PASSED    in receiver_1: RxBurstFifo,      Received: 07   Item Number: 8
%%   190 ns    Log    PASSED    in receiver_1: RxBurstFifo,      Received: 08   Item Number: 9
%%   190 ns    Log    PASSED    in receiver_1: RxBurstFifo,      Received: 09   Item Number: 10
%%   190 ns    Log    PASSED    in receiver_1: RxBurstFifo,      Received: 0A   Item Number: 11
%%   190 ns    Log    PASSED    in receiver_1: RxBurstFifo,      Received: 0B   Item Number: 12
%%   190 ns    Log    PASSED    in receiver_1: RxBurstFifo,      Received: 0C   Item Number: 13
%%   190 ns    Log    PASSED    in receiver_1: RxBurstFifo,      Received: 0D   Item Number: 14
%%   190 ns    Log    PASSED    in receiver_1: RxBurstFifo,      Received: 0E   Item Number: 15
%%   190 ns    Log    PASSED    in receiver_1: RxBurstFifo,      Received: 0F   Item Number: 16
%%   190 ns    Log    PASSED    in receiver_1: RxBurstFifo,      Received: 10   Item Number: 17
%%   190 ns    Log    PASSED    in receiver_1: RxBurstFifo,      Received: 11   Item Number: 18
%%   190 ns    Log    PASSED    in receiver_1: RxBurstFifo,      Received: 12   Item Number: 19
%%   190 ns    Log    PASSED    in receiver_1: RxBurstFifo,      Received: 13   Item Number: 20
%%   190 ns    Log    PASSED    in receiver_1: RxBurstFifo,      Received: 14   Item Number: 21
%%   190 ns    Log    PASSED    in receiver_1: RxBurstFifo,      Received: 15   Item Number: 22
%%   190 ns    Log    PASSED    in receiver_1: RxBurstFifo,      Received: 16   Item Number: 23
%%   190 ns    Log    PASSED    in receiver_1: RxBurstFifo,      Received: 17   Item Number: 24
%%   190 ns    Log    PASSED    in receiver_1: RxBurstFifo,      Received: 18   Item Number: 25
%%   190 ns    Log    PASSED    in receiver_1: RxBurstFifo,      Received: 19   Item Number: 26
%%   190 ns    Log    PASSED    in receiver_1: RxBurstFifo,      Received: 1A   Item Number: 27
%%   190 ns    Log    PASSED    in receiver_1: RxBurstFifo,      Received: 1B   Item Number: 28
%%   190 ns    Log    PASSED    in receiver_1: RxBurstFifo,      Received: 1C   Item Number: 29
%%   190 ns    Log    PASSED    in receiver_1: RxBurstFifo,      Received: 1D   Item Number: 30
%%   190 ns    Log    PASSED    in receiver_1: RxBurstFifo,      Received: 1E   Item Number: 31
%%   190 ns    Log    PASSED    in receiver_1: RxBurstFifo,      Received: 1F   Item Number: 32
%%   200 ns    Log    INFO      in transmitter_1,                Axi Stream Send.  TData: 27262524  TStrb: 1111  TKeep: 1111  TID: 03  TDest: 2  TUser: 5  TLast: 0  Operation# 10
%%   210 ns    Log    INFO      in transmitter_1,                Axi Stream Send.  TData: 2B2A2928  TStrb: 1111  TKeep: 1111  TID: 03  TDest: 2  TUser: 5  TLast: 0  Operation# 11
%%   220 ns    Log    INFO      in transmitter_1,                Axi Stream Send.  TData: 2F2E2D2C  TStrb: 1111  TKeep: 1111  TID: 03  TDest: 2  TUser: 5  TLast: 0  Operation# 12
%%   230 ns    Log    INFO      in transmitter_1,                Axi Stream Send.  TData: 33323130  TStrb: 1111  TKeep: 1111  TID: 03  TDest: 2  TUser: 5  TLast: 0  Operation# 13
%%   240 ns    Log    INFO      in transmitter_1,                Axi Stream Send.  TData: 37363534  TStrb: 1111  TKeep: 1111  TID: 03  TDest: 2  TUser: 5  TLast: 0  Operation# 14
%%   250 ns    Log    INFO      in transmitter_1,                Axi Stream Send.  TData: 3B3A3938  TStrb: 1111  TKeep: 1111  TID: 03  TDest: 2  TUser: 5  TLast: 0  Operation# 15
%%   260 ns    Log    INFO      in transmitter_1,                Axi Stream Send.  TData: 3F3E3D3C  TStrb: 1111  TKeep: 1111  TID: 03  TDest: 2  TUser: 5  TLast: 1  Operation# 16
%%   270 ns    Log    INFO      in transmitter_1,                Axi Stream Send.  TData: 43424140  TStrb: 1111  TKeep: 1111  TID: 03  TDest: 6  TUser: 5  TLast: 0  Operation# 17
%%   270 ns    Log    INFO      in receiver_1,                   Burst Receive.  Operation# 2  Last Data: 3F3E3D3C  TID: 03  TDest: 2  TUser: 5  TLast: 1
%%   270 ns    Log    PASSED    in Default,                      TryCount 8
%%   270 ns    Log    PASSED    in Default,                      Param ID & Dest & User  Received : 0064B
%%   270 ns    Log    PASSED    in Default,                      NumBytes  Received : 32
%%   270 ns    Log    PASSED    in receiver_1: RxBurstFifo,      Received: 20   Item Number: 33
%%   270 ns    Log    PASSED    in receiver_1: RxBurstFifo,      Received: 21   Item Number: 34
%%   270 ns    Log    PASSED    in receiver_1: RxBurstFifo,      Received: 22   Item Number: 35
%%   270 ns    Log    PASSED    in receiver_1: RxBurstFifo,      Received: 23   Item Number: 36
%%   270 ns    Log    PASSED    in receiver_1: RxBurstFifo,      Received: 24   Item Number: 37
%%   270 ns    Log    PASSED    in receiver_1: RxBurstFifo,      Received: 25   Item Number: 38
%%   270 ns    Log    PASSED    in receiver_1: RxBurstFifo,      Received: 26   Item Number: 39
%%   270 ns    Log    PASSED    in receiver_1: RxBurstFifo,      Received: 27   Item Number: 40
%%   270 ns    Log    PASSED    in receiver_1: RxBurstFifo,      Received: 28   Item Number: 41
%%   270 ns    Log    PASSED    in receiver_1: RxBurstFifo,      Received: 29   Item Number: 42
%%   270 ns    Log    PASSED    in receiver_1: RxBurstFifo,      Received: 2A   Item Number: 43
%%   270 ns    Log    PASSED    in receiver_1: RxBurstFifo,      Received: 2B   Item Number: 44
%%   270 ns    Log    PASSED    in receiver_1: RxBurstFifo,      Received: 2C   Item Number: 45
%%   270 ns    Log    PASSED    in receiver_1: RxBurstFifo,      Received: 2D   Item Number: 46
%%   270 ns    Log    PASSED    in receiver_1: RxBurstFifo,      Received: 2E   Item Number: 47
%%   270 ns    Log    PASSED    in receiver_1: RxBurstFifo,      Received: 2F   Item Number: 48
%%   270 ns    Log    PASSED    in receiver_1: RxBurstFifo,      Received: 30   Item Number: 49
%%   270 ns    Log    PASSED    in receiver_1: RxBurstFifo,      Received: 31   Item Number: 50
%%   270 ns    Log    PASSED    in receiver_1: RxBurstFifo,      Received: 32   Item Number: 51
%%   270 ns    Log    PASSED    in receiver_1: RxBurstFifo,      Received: 33   Item Number: 52
%%   270 ns    Log    PASSED    in receiver_1: RxBurstFifo,      Received: 34   Item Number: 53
%%   270 ns    Log    PASSED    in receiver_1: RxBurstFifo,      Received: 35   Item Number: 54
%%   270 ns    Log    PASSED    in receiver_1: RxBurstFifo,      Received: 36   Item Number: 55
%%   270 ns    Log    PASSED    in receiver_1: RxBurstFifo,      Received: 37   Item Number: 56
%%   270 ns    Log    PASSED    in receiver_1: RxBurstFifo,      Received: 38   Item Number: 57
%%   270 ns    Log    PASSED    in receiver_1: RxBurstFifo,      Received: 39   Item Number: 58
%%   270 ns    Log    PASSED    in receiver_1: RxBurstFifo,      Received: 3A   Item Number: 59
%%   270 ns    Log    PASSED    in receiver_1: RxBurstFifo,      Received: 3B   Item Number: 60
%%   270 ns    Log    PASSED    in receiver_1: RxBurstFifo,      Received: 3C   Item Number: 61
%%   270 ns    Log    PASSED    in receiver_1: RxBurstFifo,      Received: 3D   Item Number: 62
%%   270 ns    Log    PASSED    in receiver_1: RxBurstFifo,      Received: 3E   Item Number: 63
%%   270 ns    Log    PASSED    in receiver_1: RxBurstFifo,      Received: 3F   Item Number: 64
%%   280 ns    Log    INFO      in transmitter_1,                Axi Stream Send.  TData: 47464544  TStrb: 1111  TKeep: 1111  TID: 03  TDest: 6  TUser: 5  TLast: 0  Operation# 18
%%   290 ns    Log    INFO      in transmitter_1,                Axi Stream Send.  TData: 4B4A4948  TStrb: 1111  TKeep: 1111  TID: 03  TDest: 6  TUser: 5  TLast: 0  Operation# 19
%%   300 ns    Log    INFO      in transmitter_1,                Axi Stream Send.  TData: 4F4E4D4C  TStrb: 1111  TKeep: 1111  TID: 03  TDest: 6  TUser: 5  TLast: 0  Operation# 20
%%   310 ns    Log    INFO      in transmitter_1,                Axi Stream Send.  TData: 53525150  TStrb: 1111  TKeep: 1111  TID: 03  TDest: 6  TUser: 5  TLast: 0  Operation# 21
%%   320 ns    Log    INFO      in transmitter_1,                Axi Stream Send.  TData: 57565554  TStrb: 1111  TKeep: 1111  TID: 03  TDest: 6  TUser: 5  TLast: 0  Operation# 22
%%   330 ns    Log    INFO      in transmitter_1,                Axi Stream Send.  TData: 5B5A5958  TStrb: 1111  TKeep: 1111  TID: 03  TDest: 6  TUser: 5  TLast: 0  Operation# 23
%%   340 ns    Log    INFO      in transmitter_1,                Axi Stream Send.  TData: 5F5E5D5C  TStrb: 1111  TKeep: 1111  TID: 03  TDest: 6  TUser: 5  TLast: 1  Operation# 24
%%   350 ns    Log    INFO      in transmitter_1,                Axi Stream Send.  TData: 63626160  TStrb: 1111  TKeep: 1111  TID: 07  TDest: 6  TUser: 5  TLast: 0  Operation# 25
%%   350 ns    Log    INFO      in receiver_1,                   Burst Receive.  Operation# 3  Last Data: 5F5E5D5C  TID: 03  TDest: 6  TUser: 5  TLast: 1
%%   350 ns    Log    PASSED    in Default,                      TryCount 8
%%   350 ns    Log    PASSED    in Default,                      Param ID & Dest & User  Received : 006CB
%%   350 ns    Log    PASSED    in Default,                      NumBytes  Received : 32
%%   350 ns    Log    PASSED    in receiver_1: RxBurstFifo,      Received: 40   Item Number: 65
%%   350 ns    Log    PASSED    in receiver_1: RxBurstFifo,      Received: 41   Item Number: 66
%%   350 ns    Log    PASSED    in receiver_1: RxBurstFifo,      Received: 42   Item Number: 67
%%   350 ns    Log    PASSED    in receiver_1: RxBurstFifo,      Received: 43   Item Number: 68
%%   350 ns    Log    PASSED    in receiver_1: RxBurstFifo,      Received: 44   Item Number: 69
%%   350 ns    Log    PASSED    in receiver_1: RxBurstFifo,      Received: 45   Item Number: 70
%%   350 ns    Log    PASSED    in receiver_1: RxBurstFifo,      Received: 46   Item Number: 71
%%   350 ns    Log    PASSED    in receiver_1: RxBurstFifo,      Received: 47   Item Number: 72
%%   350 ns    Log    PASSED    in receiver_1: RxBurstFifo,      Received: 48   Item Number: 73
%%   350 ns    Log    PASSED    in receiver_1: RxBurstFifo,      Received: 49   Item Number: 74
%%   350 ns    Log    PASSED    in receiver_1: RxBurstFifo,      Received: 4A   Item Number: 75
%%   350 ns    Log    PASSED    in receiver_1: RxBurstFifo,      Received: 4B   Item Number: 76
%%   350 ns    Log    PASSED    in receiver_1: RxBurstFifo,      Received: 4C   Item Number: 77
%%   350 ns    Log    PASSED    in receiver_1: RxBurstFifo,      Received: 4D   Item Number: 78
%%   350 ns    Log    PASSED    in receiver_1: RxBurstFifo,      Received: 4E   Item Number: 79
%%   350 ns    Log    PASSED    in receiver_1: RxBurstFifo,      Received: 4F   Item Number: 80
%%   350 ns    Log    PASSED    in receiver_1: RxBurstFifo,      Received: 50   Item Number: 81
%%   350 ns    Log    PASSED    in receiver_1: RxBurstFifo,      Received: 51   Item Number: 82
%%   350 ns    Log    PASSED    in receiver_1: RxBurstFifo,      Received: 52   Item Number: 83
%%   350 ns    Log    PASSED    in receiver_1: RxBurstFifo,      Received: 53   Item Number: 84
%%   350 ns    Log    PASSED    in receiver_1: RxBurstFifo,      Received: 54   Item Number: 85
%%   350 ns    Log    PASSED    in receiver_1: RxBurstFifo,      Received: 55   Item Number: 86
%%   350 ns    Log    PASSED    in receiver_1: RxBurstFifo,      Received: 56   Item Number: 87
%%   350 ns    Log    PASSED    in receiver_1: RxBurstFifo,      Received: 57   Item Number: 88
%%   350 ns    Log    PASSED    in receiver_1: RxBurstFifo,      Received: 58   Item Number: 89
%%   350 ns    Log    PASSED    in receiver_1: RxBurstFifo,      Received: 59   Item Number: 90
%%   350 ns    Log    PASSED    in receiver_1: RxBurstFifo,      Received: 5A   Item Number: 91
%%   350 ns    Log    PASSED    in receiver_1: RxBurstFifo,      Received: 5B   Item Number: 92
%%   350 ns    Log    PASSED    in receiver_1: RxBurstFifo,      Received: 5C   Item Number: 93
%%   350 ns    Log    PASSED    in receiver_1: RxBurstFifo,      Received: 5D   Item Number: 94
%%   350 ns    Log    PASSED    in receiver_1: RxBurstFifo,      Received: 5E   Item Number: 95
%%   350 ns    Log    PASSED    in receiver_1: RxBurstFifo,      Received: 5F   Item Number: 96
%%   360 ns    Log    INFO      in transmitter_1,                Axi Stream Send.  TData: 67666564  TStrb: 1111  TKeep: 1111  TID: 07  TDest: 6  TUser: 5  TLast: 0  Operation# 26
%%   370 ns    Log    INFO      in transmitter_1,                Axi Stream Send.  TData: 6B6A6968  TStrb: 1111  TKeep: 1111  TID: 07  TDest: 6  TUser: 5  TLast: 0  Operation# 27
%%   380 ns    Log    INFO      in transmitter_1,                Axi Stream Send.  TData: 6F6E6D6C  TStrb: 1111  TKeep: 1111  TID: 07  TDest: 6  TUser: 5  TLast: 0  Operation# 28
%%   390 ns    Log    INFO      in transmitter_1,                Axi Stream Send.  TData: 73727170  TStrb: 1111  TKeep: 1111  TID: 07  TDest: 6  TUser: 5  TLast: 0  Operation# 29
%%   400 ns    Log    INFO      in transmitter_1,                Axi Stream Send.  TData: 77767574  TStrb: 1111  TKeep: 1111  TID: 07  TDest: 6  TUser: 5  TLast: 0  Operation# 30
%%   410 ns    Log    INFO      in transmitter_1,                Axi Stream Send.  TData: 7B7A7978  TStrb: 1111  TKeep: 1111  TID: 07  TDest: 6  TUser: 5  TLast: 0  Operation# 31
%%   420 ns    Log    INFO      in transmitter_1,                Axi Stream Send.  TData: 7F7E7D7C  TStrb: 1111  TKeep: 1111  TID: 07  TDest: 6  TUser: 5  TLast: 1  Operation# 32
%%   430 ns    Log    INFO      in transmitter_1,                Axi Stream Send.  TData: 83828180  TStrb: 1111  TKeep: 1111  TID: 03  TDest: 2  TUser: 5  TLast: 0  Operation# 33
%%   430 ns    Log    INFO      in receiver_1,                   Burst Receive.  Operation# 4  Last Data: 7F7E7D7C  TID: 07  TDest: 6  TUser: 5  TLast: 1
%%   430 ns    Log    PASSED    in Default,                      TryCount 8
%%   430 ns    Log    PASSED    in Default,                      Param ID & Dest & User  Received : 00ECB
%%   430 ns    Log    PASSED    in Default,                      NumBytes  Received : 32
%%   430 ns    Log    PASSED    in receiver_1: RxBurstFifo,      Received: 60   Item Number: 97
%%   430 ns    Log    PASSED    in receiver_1: RxBurstFifo,      Received: 61   Item Number: 98
%%   430 ns    Log    PASSED    in receiver_1: RxBurstFifo,      Received: 62   Item Number: 99
%%   430 ns    Log    PASSED    in receiver_1: RxBurstFifo,      Received: 63   Item Number: 100
%%   430 ns    Log    PASSED    in receiver_1: RxBurstFifo,      Received: 64   Item Number: 101
%%   430 ns    Log    PASSED    in receiver_1: RxBurstFifo,      Received: 65   Item Number: 102
%%   430 ns    Log    PASSED    in receiver_1: RxBurstFifo,      Received: 66   Item Number: 103
%%   430 ns    Log    PASSED    in receiver_1: RxBurstFifo,      Received: 67   Item Number: 104
%%   430 ns    Log    PASSED    in receiver_1: RxBurstFifo,      Received: 68   Item Number: 105
%%   430 ns    Log    PASSED    in receiver_1: RxBurstFifo,      Received: 69   Item Number: 106
%%   430 ns    Log    PASSED    in receiver_1: RxBurstFifo,      Received: 6A   Item Number: 107
%%   430 ns    Log    PASSED    in receiver_1: RxBurstFifo,      Received: 6B   Item Number: 108
%%   430 ns    Log    PASSED    in receiver_1: RxBurstFifo,      Received: 6C   Item Number: 109
%%   430 ns    Log    PASSED    in receiver_1: RxBurstFifo,      Received: 6D   Item Number: 110
%%   430 ns    Log    PASSED    in receiver_1: RxBurstFifo,      Received: 6E   Item Number: 111
%%   430 ns    Log    PASSED    in receiver_1: RxBurstFifo,      Received: 6F   Item Number: 112
%%   430 ns    Log    PASSED    in receiver_1: RxBurstFifo,      Received: 70   Item Number: 113
%%   430 ns    Log    PASSED    in receiver_1: RxBurstFifo,      Received: 71   Item Number: 114
%%   430 ns    Log    PASSED    in receiver_1: RxBurstFifo,      Received: 72   Item Number: 115
%%   430 ns    Log    PASSED    in receiver_1: RxBurstFifo,      Received: 73   Item Number: 116
%%   430 ns    Log    PASSED    in receiver_1: RxBurstFifo,      Received: 74   Item Number: 117
%%   430 ns    Log    PASSED    in receiver_1: RxBurstFifo,      Received: 75   Item Number: 118
%%   430 ns    Log    PASSED    in receiver_1: RxBurstFifo,      Received: 76   Item Number: 119
%%   430 ns    Log    PASSED    in receiver_1: RxBurstFifo,      Received: 77   Item Number: 120
%%   430 ns    Log    PASSED    in receiver_1: RxBurstFifo,      Received: 78   Item Number: 121
%%   430 ns    Log    PASSED    in receiver_1: RxBurstFifo,      Received: 79   Item Number: 122
%%   430 ns    Log    PASSED    in receiver_1: RxBurstFifo,      Received: 7A   Item Number: 123
%%   430 ns    Log    PASSED    in receiver_1: RxBurstFifo,      Received: 7B   Item Number: 124
%%   430 ns    Log    PASSED    in receiver_1: RxBurstFifo,      Received: 7C   Item Number: 125
%%   430 ns    Log    PASSED    in receiver_1: RxBurstFifo,      Received: 7D   Item Number: 126
%%   430 ns    Log    PASSED    in receiver_1: RxBurstFifo,      Received: 7E   Item Number: 127
%%   430 ns    Log    PASSED    in receiver_1: RxBurstFifo,      Received: 7F   Item Number: 128
%%   440 ns    Log    INFO      in transmitter_1,                Axi Stream Send.  TData: 87868584  TStrb: 1111  TKeep: 1111  TID: 03  TDest: 2  TUser: 5  TLast: 0  Operation# 34
%%   450 ns    Log    INFO      in transmitter_1,                Axi Stream Send.  TData: 8B8A8988  TStrb: 1111  TKeep: 1111  TID: 03  TDest: 2  TUser: 5  TLast: 0  Operation# 35
%%   460 ns    Log    INFO      in transmitter_1,                Axi Stream Send.  TData: 8F8E8D8C  TStrb: 1111  TKeep: 1111  TID: 03  TDest: 2  TUser: 5  TLast: 0  Operation# 36
%%   470 ns    Log    INFO      in transmitter_1,                Axi Stream Send.  TData: 93929190  TStrb: 1111  TKeep: 1111  TID: 03  TDest: 2  TUser: 5  TLast: 0  Operation# 37
%%   480 ns    Log    INFO      in transmitter_1,                Axi Stream Send.  TData: 97969594  TStrb: 1111  TKeep: 1111  TID: 03  TDest: 2  TUser: 5  TLast: 0  Operation# 38
%%   490 ns    Log    INFO      in transmitter_1,                Axi Stream Send.  TData: 9B9A9998  TStrb: 1111  TKeep: 1111  TID: 03  TDest: 2  TUser: 5  TLast: 0  Operation# 39
%%   500 ns    Log    INFO      in transmitter_1,                Axi Stream Send.  TData: 9F9E9D9C  TStrb: 1111  TKeep: 1111  TID: 03  TDest: 2  TUser: 5  TLast: 1  Operation# 40
%%   510 ns    Log    INFO      in transmitter_1,                Axi Stream Send.  TData: A3A2A1A0  TStrb: 1111  TKeep: 1111  TID: 03  TDest: 6  TUser: 1  TLast: 0  Operation# 41
%%   510 ns    Log    INFO      in receiver_1,                   Burst Receive.  Operation# 5  Last Data: 9F9E9D9C  TID: 03  TDest: 2  TUser: 5  TLast: 1
%%   510 ns    Log    PASSED    in Default,                      TryCount 8
%%   510 ns    Log    PASSED    in Default,                      Param ID & Dest & User  Received : 0064B
%%   510 ns    Log    PASSED    in Default,                      NumBytes  Received : 32
%%   510 ns    Log    PASSED    in receiver_1: RxBurstFifo,      Received: 80   Item Number: 129
%%   510 ns    Log    PASSED    in receiver_1: RxBurstFifo,      Received: 81   Item Number: 130
%%   510 ns    Log    PASSED    in receiver_1: RxBurstFifo,      Received: 82   Item Number: 131
%%   510 ns    Log    PASSED    in receiver_1: RxBurstFifo,      Received: 83   Item Number: 132
%%   510 ns    Log    PASSED    in receiver_1: RxBurstFifo,      Received: 84   Item Number: 133
%%   510 ns    Log    PASSED    in receiver_1: RxBurstFifo,      Received: 85   Item Number: 134
%%   510 ns    Log    PASSED    in receiver_1: RxBurstFifo,      Received: 86   Item Number: 135
%%   510 ns    Log    PASSED    in receiver_1: RxBurstFifo,      Received: 87   Item Number: 136
%%   510 ns    Log    PASSED    in receiver_1: RxBurstFifo,      Received: 88   Item Number: 137
%%   510 ns    Log    PASSED    in receiver_1: RxBurstFifo,      Received: 89   Item Number: 138
%%   510 ns    Log    PASSED    in receiver_1: RxBurstFifo,      Received: 8A   Item Number: 139
%%   510 ns    Log    PASSED    in receiver_1: RxBurstFifo,      Received: 8B   Item Number: 140
%%   510 ns    Log    PASSED    in receiver_1: RxBurstFifo,      Received: 8C   Item Number: 141
%%   510 ns    Log    PASSED    in receiver_1: RxBurstFifo,      Received: 8D   Item Number: 142
%%   510 ns    Log    PASSED    in receiver_1: RxBurstFifo,      Received: 8E   Item Number: 143
%%   510 ns    Log    PASSED    in receiver_1: RxBurstFifo,      Received: 8F   Item Number: 144
%%   510 ns    Log    PASSED    in receiver_1: RxBurstFifo,      Received: 90   Item Number: 145
%%   510 ns    Log    PASSED    in receiver_1: RxBurstFifo,      Received: 91   Item Number: 146
%%   510 ns    Log    PASSED    in receiver_1: RxBurstFifo,      Received: 92   Item Number: 147
%%   510 ns    Log    PASSED    in receiver_1: RxBurstFifo,      Received: 93   Item Number: 148
%%   510 ns    Log    PASSED    in receiver_1: RxBurstFifo,      Received: 94   Item Number: 149
%%   510 ns    Log    PASSED    in receiver_1: RxBurstFifo,      Received: 95   Item Number: 150
%%   510 ns    Log    PASSED    in receiver_1: RxBurstFifo,      Received: 96   Item Number: 151
%%   510 ns    Log    PASSED    in receiver_1: RxBurstFifo,      Received: 97   Item Number: 152
%%   510 ns    Log    PASSED    in receiver_1: RxBurstFifo,      Received: 98   Item Number: 153
%%   510 ns    Log    PASSED    in receiver_1: RxBurstFifo,      Received: 99   Item Number: 154
%%   510 ns    Log    PASSED    in receiver_1: RxBurstFifo,      Received: 9A   Item Number: 155
%%   510 ns    Log    PASSED    in receiver_1: RxBurstFifo,      Received: 9B   Item Number: 156
%%   510 ns    Log    PASSED    in receiver_1: RxBurstFifo,      Received: 9C   Item Number: 157
%%   510 ns    Log    PASSED    in receiver_1: RxBurstFifo,      Received: 9D   Item Number: 158
%%   510 ns    Log    PASSED    in receiver_1: RxBurstFifo,      Received: 9E   Item Number: 159
%%   510 ns    Log    PASSED    in receiver_1: RxBurstFifo,      Received: 9F   Item Number: 160
%%   520 ns    Log    INFO      in transmitter_1,                Axi Stream Send.  TData: A7A6A5A4  TStrb: 1111  TKeep: 1111  TID: 03  TDest: 6  TUser: 1  TLast: 0  Operation# 42
%%   530 ns    Log    INFO      in transmitter_1,                Axi Stream Send.  TData: ABAAA9A8  TStrb: 1111  TKeep: 1111  TID: 03  TDest: 6  TUser: 1  TLast: 0  Operation# 43
%%   540 ns    Log    INFO      in transmitter_1,                Axi Stream Send.  TData: AFAEADAC  TStrb: 1111  TKeep: 1111  TID: 03  TDest: 6  TUser: 1  TLast: 0  Operation# 44
%%   550 ns    Log    INFO      in transmitter_1,                Axi Stream Send.  TData: B3B2B1B0  TStrb: 1111  TKeep: 1111  TID: 03  TDest: 6  TUser: 1  TLast: 0  Operation# 45
%%   560 ns    Log    INFO      in transmitter_1,                Axi Stream Send.  TData: B7B6B5B4  TStrb: 1111  TKeep: 1111  TID: 03  TDest: 6  TUser: 1  TLast: 0  Operation# 46
%%   570 ns    Log    INFO      in transmitter_1,                Axi Stream Send.  TData: BBBAB9B8  TStrb: 1111  TKeep: 1111  TID: 03  TDest: 6  TUser: 1  TLast: 0  Operation# 47
%%   580 ns    Log    INFO      in transmitter_1,                Axi Stream Send.  TData: BFBEBDBC  TStrb: 1111  TKeep: 1111  TID: 03  TDest: 6  TUser: 1  TLast: 1  Operation# 48
%%   590 ns    Log    INFO      in transmitter_1,                Axi Stream Send.  TData: C3C2C1C0  TStrb: 1111  TKeep: 1111  TID: 07  TDest: 2  TUser: 1  TLast: 0  Operation# 49
%%   590 ns    Log    INFO      in receiver_1,                   Burst Receive.  Operation# 6  Last Data: BFBEBDBC  TID: 03  TDest: 6  TUser: 1  TLast: 1
%%   590 ns    Log    PASSED    in Default,                      TryCount 8
%%   590 ns    Log    PASSED    in Default,                      Param ID & Dest & User  Received : 006C3
%%   590 ns    Log    PASSED    in Default,                      NumBytes  Received : 32
%%   590 ns    Log    PASSED    in receiver_1: RxBurstFifo,      Received: A0   Item Number: 161
%%   590 ns    Log    PASSED    in receiver_1: RxBurstFifo,      Received: A1   Item Number: 162
%%   590 ns    Log    PASSED    in receiver_1: RxBurstFifo,      Received: A2   Item Number: 163
%%   590 ns    Log    PASSED    in receiver_1: RxBurstFifo,      Received: A3   Item Number: 164
%%   590 ns    Log    PASSED    in receiver_1: RxBurstFifo,      Received: A4   Item Number: 165
%%   590 ns    Log    PASSED    in receiver_1: RxBurstFifo,      Received: A5   Item Number: 166
%%   590 ns    Log    PASSED    in receiver_1: RxBurstFifo,      Received: A6   Item Number: 167
%%   590 ns    Log    PASSED    in receiver_1: RxBurstFifo,      Received: A7   Item Number: 168
%%   590 ns    Log    PASSED    in receiver_1: RxBurstFifo,      Received: A8   Item Number: 169
%%   590 ns    Log    PASSED    in receiver_1: RxBurstFifo,      Received: A9   Item Number: 170
%%   590 ns    Log    PASSED    in receiver_1: RxBurstFifo,      Received: AA   Item Number: 171
%%   590 ns    Log    PASSED    in receiver_1: RxBurstFifo,      Received: AB   Item Number: 172
%%   590 ns    Log    PASSED    in receiver_1: RxBurstFifo,      Received: AC   Item Number: 173
%%   590 ns    Log    PASSED    in receiver_1: RxBurstFifo,      Received: AD   Item Number: 174
%%   590 ns    Log    PASSED    in receiver_1: RxBurstFifo,      Received: AE   Item Number: 175
%%   590 ns    Log    PASSED    in receiver_1: RxBurstFifo,      Received: AF   Item Number: 176
%%   590 ns    Log    PASSED    in receiver_1: RxBurstFifo,      Received: B0   Item Number: 177
%%   590 ns    Log    PASSED    in receiver_1: RxBurstFifo,      Received: B1   Item Number: 178
%%   590 ns    Log    PASSED    in receiver_1: RxBurstFifo,      Received: B2   Item Number: 179
%%   590 ns    Log    PASSED    in receiver_1: RxBurstFifo,      Received: B3   Item Number: 180
%%   590 ns    Log    PASSED    in receiver_1: RxBurstFifo,      Received: B4   Item Number: 181
%%   590 ns    Log    PASSED    in receiver_1: RxBurstFifo,      Received: B5   Item Number: 182
%%   590 ns    Log    PASSED    in receiver_1: RxBurstFifo,      Received: B6   Item Number: 183
%%   590 ns    Log    PASSED    in receiver_1: RxBurstFifo,      Received: B7   Item Number: 184
%%   590 ns    Log    PASSED    in receiver_1: RxBurstFifo,      Received: B8   Item Number: 185
%%   590 ns    Log    PASSED    in receiver_1: RxBurstFifo,      Received: B9   Item Number: 186
%%   590 ns    Log    PASSED    in receiver_1: RxBurstFifo,      Received: BA   Item Number: 187
%%   590 ns    Log    PASSED    in receiver_1: RxBurstFifo,      Received: BB   Item Number: 188
%%   590 ns    Log    PASSED    in receiver_1: RxBurstFifo,      Received: BC   Item Number: 189
%%   590 ns    Log    PASSED    in receiver_1: RxBurstFifo,      Received: BD   Item Number: 190
%%   590 ns    Log    PASSED    in receiver_1: RxBurstFifo,      Received: BE   Item Number: 191
%%   590 ns    Log    PASSED    in receiver_1: RxBurstFifo,      Received: BF   Item Number: 192
%%   600 ns    Log    INFO      in transmitter_1,                Axi Stream Send.  TData: C7C6C5C4  TStrb: 1111  TKeep: 1111  TID: 07  TDest: 2  TUser: 1  TLast: 0  Operation# 50
%%   610 ns    Log    INFO      in transmitter_1,                Axi Stream Send.  TData: CBCAC9C8  TStrb: 1111  TKeep: 1111  TID: 07  TDest: 2  TUser: 1  TLast: 0  Operation# 51
%%   620 ns    Log    INFO      in transmitter_1,                Axi Stream Send.  TData: CFCECDCC  TStrb: 1111  TKeep: 1111  TID: 07  TDest: 2  TUser: 1  TLast: 0  Operation# 52
%%   630 ns    Log    INFO      in transmitter_1,                Axi Stream Send.  TData: D3D2D1D0  TStrb: 1111  TKeep: 1111  TID: 07  TDest: 2  TUser: 1  TLast: 0  Operation# 53
%%   640 ns    Log    INFO      in transmitter_1,                Axi Stream Send.  TData: D7D6D5D4  TStrb: 1111  TKeep: 1111  TID: 07  TDest: 2  TUser: 1  TLast: 0  Operation# 54
%%   650 ns    Log    INFO      in transmitter_1,                Axi Stream Send.  TData: DBDAD9D8  TStrb: 1111  TKeep: 1111  TID: 07  TDest: 2  TUser: 1  TLast: 0  Operation# 55
%%   660 ns    Log    INFO      in transmitter_1,                Axi Stream Send.  TData: DFDEDDDC  TStrb: 1111  TKeep: 1111  TID: 07  TDest: 2  TUser: 1  TLast: 1  Operation# 56
%%   670 ns    Log    INFO      in receiver_1,                   Burst Receive.  Operation# 7  Last Data: DFDEDDDC  TID: 07  TDest: 2  TUser: 1  TLast: 1
%%   670 ns    Log    PASSED    in Default,                      TryCount 8
%%   670 ns    Log    PASSED    in Default,                      Param ID & Dest & User  Received : 00E43
%%   670 ns    Log    PASSED    in Default,                      NumBytes  Received : 32
%%   670 ns    Log    PASSED    in receiver_1: RxBurstFifo,      Received: C0   Item Number: 193
%%   670 ns    Log    PASSED    in receiver_1: RxBurstFifo,      Received: C1   Item Number: 194
%%   670 ns    Log    PASSED    in receiver_1: RxBurstFifo,      Received: C2   Item Number: 195
%%   670 ns    Log    PASSED    in receiver_1: RxBurstFifo,      Received: C3   Item Number: 196
%%   670 ns    Log    PASSED    in receiver_1: RxBurstFifo,      Received: C4   Item Number: 197
%%   670 ns    Log    PASSED    in receiver_1: RxBurstFifo,      Received: C5   Item Number: 198
%%   670 ns    Log    PASSED    in receiver_1: RxBurstFifo,      Received: C6   Item Number: 199
%%   670 ns    Log    PASSED    in receiver_1: RxBurstFifo,      Received: C7   Item Number: 200
%%   670 ns    Log    PASSED    in receiver_1: RxBurstFifo,      Received: C8   Item Number: 201
%%   670 ns    Log    PASSED    in receiver_1: RxBurstFifo,      Received: C9   Item Number: 202
%%   670 ns    Log    PASSED    in receiver_1: RxBurstFifo,      Received: CA   Item Number: 203
%%   670 ns    Log    PASSED    in receiver_1: RxBurstFifo,      Received: CB   Item Number: 204
%%   670 ns    Log    PASSED    in receiver_1: RxBurstFifo,      Received: CC   Item Number: 205
%%   670 ns    Log    PASSED    in receiver_1: RxBurstFifo,      Received: CD   Item Number: 206
%%   670 ns    Log    PASSED    in receiver_1: RxBurstFifo,      Received: CE   Item Number: 207
%%   670 ns    Log    PASSED    in receiver_1: RxBurstFifo,      Received: CF   Item Number: 208
%%   670 ns    Log    PASSED    in receiver_1: RxBurstFifo,      Received: D0   Item Number: 209
%%   670 ns    Log    PASSED    in receiver_1: RxBurstFifo,      Received: D1   Item Number: 210
%%   670 ns    Log    PASSED    in receiver_1: RxBurstFifo,      Received: D2   Item Number: 211
%%   670 ns    Log    PASSED    in receiver_1: RxBurstFifo,      Received: D3   Item Number: 212
%%   670 ns    Log    PASSED    in receiver_1: RxBurstFifo,      Received: D4   Item Number: 213
%%   670 ns    Log    PASSED    in receiver_1: RxBurstFifo,      Received: D5   Item Number: 214
%%   670 ns    Log    PASSED    in receiver_1: RxBurstFifo,      Received: D6   Item Number: 215
%%   670 ns    Log    PASSED    in receiver_1: RxBurstFifo,      Received: D7   Item Number: 216
%%   670 ns    Log    PASSED    in receiver_1: RxBurstFifo,      Received: D8   Item Number: 217
%%   670 ns    Log    PASSED    in receiver_1: RxBurstFifo,      Received: D9   Item Number: 218
%%   670 ns    Log    PASSED    in receiver_1: RxBurstFifo,      Received: DA   Item Number: 219
%%   670 ns    Log    PASSED    in receiver_1: RxBurstFifo,      Received: DB   Item Number: 220
%%   670 ns    Log    PASSED    in receiver_1: RxBurstFifo,      Received: DC   Item Number: 221
%%   670 ns    Log    PASSED    in receiver_1: RxBurstFifo,      Received: DD   Item Number: 222
%%   670 ns    Log    PASSED    in receiver_1: RxBurstFifo,      Received: DE   Item Number: 223
%%   670 ns    Log    PASSED    in receiver_1: RxBurstFifo,      Received: DF   Item Number: 224
