%% 
%%  
%%          30.0 ns    Log    ALWAYS    in Default,                      Send and Get: Transmit 12 words
%%          30.0 ns    Log    INFO      in transmitter_1,                Axi Stream Send.  TData: 00000001  TStrb: 1111  TKeep: 1111  TID: 00  TDest: 0  TUser: 0  TLast: 0  Operation# 1
%%          40.0 ns    Log    INFO      in transmitter_1,                Axi Stream Send.  TData: 00000002  TStrb: 1111  TKeep: 1111  TID: 00  TDest: 0  TUser: 0  TLast: 0  Operation# 2
%%          50.0 ns    Log    INFO      in transmitter_1,                Axi Stream Send.  TData: 00000003  TStrb: 1111  TKeep: 1111  TID: 00  TDest: 0  TUser: 0  TLast: 0  Operation# 3
%%          60.0 ns    Log    INFO      in receiver_1,                   Word Receive.  Operation# 1  Data: 00000001  TID: 00  TDest: 0  TUser: 0  TLast: 0
%%          60.0 ns    Log    INFO      in transmitter_1,                Axi Stream Send.  TData: 00000004  TStrb: 1111  TKeep: 1111  TID: 00  TDest: 0  TUser: 0  TLast: 0  Operation# 4
%%          60.0 ns    Log    PASSED    in Default,                      RxData Received : 00000001
%%          60.0 ns    Log    PASSED    in Default,                      Get Start: 60 ns = Finish: 60 ns
%%          70.0 ns    Log    INFO      in receiver_1,                   Word Receive.  Operation# 2  Data: 00000002  TID: 00  TDest: 0  TUser: 0  TLast: 0
%%          70.0 ns    Log    PASSED    in Default,                      RxData Received : 00000002
%%          70.0 ns    Log    PASSED    in Default,                      Get Start: 70 ns = Finish: 70 ns
%%          80.0 ns    Log    INFO      in receiver_1,                   Word Receive.  Operation# 3  Data: 00000003  TID: 00  TDest: 0  TUser: 0  TLast: 0
%%          80.0 ns    Log    PASSED    in Default,                      RxData Received : 00000003
%%          80.0 ns    Log    PASSED    in Default,                      Get Start: 80 ns = Finish: 80 ns
%%          90.0 ns    Log    INFO      in receiver_1,                   Word Receive.  Operation# 4  Data: 00000004  TID: 00  TDest: 0  TUser: 0  TLast: 0
%%          90.0 ns    Log    PASSED    in Default,                      RxData Received : 00000004
%%          90.0 ns    Log    PASSED    in Default,                      Get Start: 90 ns = Finish: 90 ns
%%         110.0 ns    Log    INFO      in transmitter_1,                Axi Stream Send.  TData: 00000005  TStrb: 1111  TKeep: 1111  TID: 00  TDest: 0  TUser: 0  TLast: 0  Operation# 5
%%         120.0 ns    Log    PASSED    in receiver_1: Data Check,       Operation# 5  Received.  Data: 00000005  TID: 00  TDest: 0  TUser: 0  TLast: 0
%%         120.0 ns    Log    INFO      in transmitter_1,                Axi Stream Send.  TData: 00001001  TStrb: 1111  TKeep: 1111  TID: 00  TDest: 0  TUser: 0  TLast: 0  Operation# 6
%%         150.0 ns    Log    INFO      in receiver_1,                   Word Receive.  Operation# 6  Data: 00001001  TID: 00  TDest: 0  TUser: 0  TLast: 0
%%         150.0 ns    Log    PASSED    in Default,                      RxData Received : 00001001
%%         150.0 ns    Log    PASSED    in Default,                      Get Start + 10 ns: 140 ns = Finish: 150 ns
%%         150.0 ns    Log    INFO      in transmitter_1,                Axi Stream Send.  TData: 00001002  TStrb: 1111  TKeep: 1111  TID: 00  TDest: 0  TUser: 0  TLast: 0  Operation# 7
%%         170.0 ns    Log    INFO      in receiver_1,                   Word Receive.  Operation# 7  Data: 00001002  TID: 00  TDest: 0  TUser: 0  TLast: 0
%%         170.0 ns    Log    PASSED    in Default,                      RxData Received : 00001002
%%         170.0 ns    Log    PASSED    in Default,                      Get Start + 10 ns: 160 ns = Finish: 170 ns
%%         170.0 ns    Log    INFO      in transmitter_1,                Axi Stream Send.  TData: 00001003  TStrb: 1111  TKeep: 1111  TID: 00  TDest: 0  TUser: 0  TLast: 0  Operation# 8
%%         200.0 ns    Log    INFO      in receiver_1,                   Word Receive.  Operation# 8  Data: 00001003  TID: 00  TDest: 0  TUser: 0  TLast: 0
%%         200.0 ns    Log    PASSED    in Default,                      RxData Received : 00001003
%%         200.0 ns    Log    PASSED    in Default,                      Get Start + 10 ns: 190 ns = Finish: 200 ns
%%         200.0 ns    Log    INFO      in transmitter_1,                Axi Stream Send.  TData: 00001004  TStrb: 1111  TKeep: 1111  TID: 00  TDest: 0  TUser: 0  TLast: 0  Operation# 9
%%         220.0 ns    Log    INFO      in receiver_1,                   Word Receive.  Operation# 9  Data: 00001004  TID: 00  TDest: 0  TUser: 0  TLast: 0
%%         220.0 ns    Log    PASSED    in Default,                      RxData Received : 00001004
%%         220.0 ns    Log    PASSED    in Default,                      Get Start + 10 ns: 210 ns = Finish: 220 ns
%%         240.0 ns    Log    INFO      in transmitter_1,                Axi Stream Send.  TData: 00001005  TStrb: 1111  TKeep: 1111  TID: 00  TDest: 0  TUser: 0  TLast: 0  Operation# 10
%%         250.0 ns    Log    PASSED    in receiver_1: Data Check,       Operation# 10  Received.  Data: 00001005  TID: 00  TDest: 0  TUser: 0  TLast: 0
%%         270.0 ns    Log    INFO      in transmitter_1,                Axi Stream Send.  TData: 00002001  TStrb: 1111  TKeep: 1111  TID: 00  TDest: 0  TUser: 0  TLast: 0  Operation# 11
%%         280.0 ns    Log    INFO      in transmitter_1,                Axi Stream Send.  TData: 00002002  TStrb: 1111  TKeep: 1111  TID: 00  TDest: 0  TUser: 0  TLast: 0  Operation# 12
%%         290.0 ns    Log    INFO      in transmitter_1,                Axi Stream Send.  TData: 00002003  TStrb: 1111  TKeep: 1111  TID: 00  TDest: 0  TUser: 0  TLast: 0  Operation# 13
%%         300.0 ns    Log    INFO      in receiver_1,                   Word Receive.  Operation# 11  Data: 00002001  TID: 00  TDest: 0  TUser: 0  TLast: 0
%%         300.0 ns    Log    INFO      in transmitter_1,                Axi Stream Send.  TData: 00002004  TStrb: 1111  TKeep: 1111  TID: 00  TDest: 0  TUser: 0  TLast: 0  Operation# 14
%%         300.0 ns    Log    PASSED    in Default,                      RxData Received : 00002001
%%         300.0 ns    Log    PASSED    in Default,                      Get Start: 300 ns = Finish: 300 ns
%%         310.0 ns    Log    INFO      in receiver_1,                   Word Receive.  Operation# 12  Data: 00002002  TID: 00  TDest: 0  TUser: 0  TLast: 0
%%         310.0 ns    Log    PASSED    in Default,                      RxData Received : 00002002
%%         310.0 ns    Log    PASSED    in Default,                      Get Start: 310 ns = Finish: 310 ns
%%         320.0 ns    Log    INFO      in receiver_1,                   Word Receive.  Operation# 13  Data: 00002003  TID: 00  TDest: 0  TUser: 0  TLast: 0
%%         320.0 ns    Log    PASSED    in Default,                      RxData Received : 00002003
%%         320.0 ns    Log    PASSED    in Default,                      Get Start: 320 ns = Finish: 320 ns
%%         330.0 ns    Log    INFO      in receiver_1,                   Word Receive.  Operation# 14  Data: 00002004  TID: 00  TDest: 0  TUser: 0  TLast: 0
%%         330.0 ns    Log    PASSED    in Default,                      RxData Received : 00002004
%%         330.0 ns    Log    PASSED    in Default,                      Get Start: 330 ns = Finish: 330 ns
%% 
%%  
%%         350.0 ns    Log    ALWAYS    in Default,                      Send and Check: Transmit 12 words
%%         350.0 ns    Log    INFO      in transmitter_1,                Axi Stream Send.  TData: 00010001  TStrb: 1111  TKeep: 1111  TID: 00  TDest: 0  TUser: 0  TLast: 0  Operation# 15
%%         360.0 ns    Log    INFO      in transmitter_1,                Axi Stream Send.  TData: 00010002  TStrb: 1111  TKeep: 1111  TID: 00  TDest: 0  TUser: 0  TLast: 0  Operation# 16
%%         370.0 ns    Log    PASSED    in receiver_1: Data Check,       Operation# 15  Received.  Data: 00010001  TID: 00  TDest: 0  TUser: 0  TLast: 0
%%         370.0 ns    Log    INFO      in transmitter_1,                Axi Stream Send.  TData: 00010003  TStrb: 1111  TKeep: 1111  TID: 00  TDest: 0  TUser: 0  TLast: 0  Operation# 17
%%         370.0 ns    Log    PASSED    in Default,                      Get Start: 370 ns = Finish: 370 ns
%%         380.0 ns    Log    PASSED    in receiver_1: Data Check,       Operation# 16  Received.  Data: 00010002  TID: 00  TDest: 0  TUser: 0  TLast: 0
%%         380.0 ns    Log    INFO      in transmitter_1,                Axi Stream Send.  TData: 00010004  TStrb: 1111  TKeep: 1111  TID: 00  TDest: 0  TUser: 0  TLast: 0  Operation# 18
%%         380.0 ns    Log    PASSED    in Default,                      Get Start: 380 ns = Finish: 380 ns
%%         390.0 ns    Log    PASSED    in receiver_1: Data Check,       Operation# 17  Received.  Data: 00010003  TID: 00  TDest: 0  TUser: 0  TLast: 0
%%         390.0 ns    Log    PASSED    in Default,                      Get Start: 390 ns = Finish: 390 ns
%%         400.0 ns    Log    PASSED    in receiver_1: Data Check,       Operation# 18  Received.  Data: 00010004  TID: 00  TDest: 0  TUser: 0  TLast: 0
%%         400.0 ns    Log    PASSED    in Default,                      Get Start: 400 ns = Finish: 400 ns
%%         420.0 ns    Log    INFO      in transmitter_1,                Axi Stream Send.  TData: 00010005  TStrb: 1111  TKeep: 1111  TID: 00  TDest: 0  TUser: 0  TLast: 0  Operation# 19
%%         430.0 ns    Log    PASSED    in receiver_1: Data Check,       Operation# 19  Received.  Data: 00010005  TID: 00  TDest: 0  TUser: 0  TLast: 0
%%         430.0 ns    Log    INFO      in transmitter_1,                Axi Stream Send.  TData: 00011001  TStrb: 1111  TKeep: 1111  TID: 00  TDest: 0  TUser: 0  TLast: 0  Operation# 20
%%         460.0 ns    Log    PASSED    in receiver_1: Data Check,       Operation# 20  Received.  Data: 00011001  TID: 00  TDest: 0  TUser: 0  TLast: 0
%%         460.0 ns    Log    PASSED    in Default,                      Get Start + 10 ns: 450 ns = Finish: 460 ns
%%         460.0 ns    Log    INFO      in transmitter_1,                Axi Stream Send.  TData: 00011002  TStrb: 1111  TKeep: 1111  TID: 00  TDest: 0  TUser: 0  TLast: 0  Operation# 21
%%         480.0 ns    Log    PASSED    in receiver_1: Data Check,       Operation# 21  Received.  Data: 00011002  TID: 00  TDest: 0  TUser: 0  TLast: 0
%%         480.0 ns    Log    PASSED    in Default,                      Get Start + 10 ns: 470 ns = Finish: 480 ns
%%         480.0 ns    Log    INFO      in transmitter_1,                Axi Stream Send.  TData: 00011003  TStrb: 1111  TKeep: 1111  TID: 00  TDest: 0  TUser: 0  TLast: 0  Operation# 22
%%         510.0 ns    Log    PASSED    in receiver_1: Data Check,       Operation# 22  Received.  Data: 00011003  TID: 00  TDest: 0  TUser: 0  TLast: 0
%%         510.0 ns    Log    PASSED    in Default,                      Get Start + 10 ns: 500 ns = Finish: 510 ns
%%         510.0 ns    Log    INFO      in transmitter_1,                Axi Stream Send.  TData: 00011004  TStrb: 1111  TKeep: 1111  TID: 00  TDest: 0  TUser: 0  TLast: 0  Operation# 23
%%         530.0 ns    Log    PASSED    in receiver_1: Data Check,       Operation# 23  Received.  Data: 00011004  TID: 00  TDest: 0  TUser: 0  TLast: 0
%%         530.0 ns    Log    PASSED    in Default,                      Get Start + 10 ns: 520 ns = Finish: 530 ns
%%         550.0 ns    Log    INFO      in transmitter_1,                Axi Stream Send.  TData: 00011005  TStrb: 1111  TKeep: 1111  TID: 00  TDest: 0  TUser: 0  TLast: 0  Operation# 24
%%         560.0 ns    Log    PASSED    in receiver_1: Data Check,       Operation# 24  Received.  Data: 00011005  TID: 00  TDest: 0  TUser: 0  TLast: 0
%%         580.0 ns    Log    INFO      in transmitter_1,                Axi Stream Send.  TData: 00012001  TStrb: 1111  TKeep: 1111  TID: 00  TDest: 0  TUser: 0  TLast: 0  Operation# 25
%%         590.0 ns    Log    PASSED    in receiver_1: Data Check,       Operation# 25  Received.  Data: 00012001  TID: 00  TDest: 0  TUser: 0  TLast: 0
%%         590.0 ns    Log    INFO      in transmitter_1,                Axi Stream Send.  TData: 00012002  TStrb: 1111  TKeep: 1111  TID: 00  TDest: 0  TUser: 0  TLast: 0  Operation# 26
%%         590.0 ns    Log    PASSED    in Default,                      Get Start: 590 ns = Finish: 590 ns
%%         600.0 ns    Log    PASSED    in receiver_1: Data Check,       Operation# 26  Received.  Data: 00012002  TID: 00  TDest: 0  TUser: 0  TLast: 0
%%         600.0 ns    Log    INFO      in transmitter_1,                Axi Stream Send.  TData: 00012003  TStrb: 1111  TKeep: 1111  TID: 00  TDest: 0  TUser: 0  TLast: 0  Operation# 27
%%         600.0 ns    Log    PASSED    in Default,                      Get Start: 600 ns = Finish: 600 ns
%%         610.0 ns    Log    PASSED    in receiver_1: Data Check,       Operation# 27  Received.  Data: 00012003  TID: 00  TDest: 0  TUser: 0  TLast: 0
%%         610.0 ns    Log    INFO      in transmitter_1,                Axi Stream Send.  TData: 00012004  TStrb: 1111  TKeep: 1111  TID: 00  TDest: 0  TUser: 0  TLast: 0  Operation# 28
%%         610.0 ns    Log    PASSED    in Default,                      Get Start: 610 ns = Finish: 610 ns
%%         620.0 ns    Log    PASSED    in receiver_1: Data Check,       Operation# 28  Received.  Data: 00012004  TID: 00  TDest: 0  TUser: 0  TLast: 0
%%         620.0 ns    Log    PASSED    in Default,                      Get Start: 620 ns = Finish: 620 ns
%%         620.0 ns    Log    ALWAYS    in Default,                      SendBurstIncrement and GetBurst + CheckBurstIncrement: 6 x 4 word bursts
%% 
%%  
%%         640.0 ns    Log    INFO      in transmitter_1,                Axi Stream Send.  TData: 00020000  TStrb: 1111  TKeep: 1111  TID: 00  TDest: 0  TUser: 0  TLast: 0  Operation# 29
%%         650.0 ns    Log    INFO      in transmitter_1,                Axi Stream Send.  TData: 00020001  TStrb: 1111  TKeep: 1111  TID: 00  TDest: 0  TUser: 0  TLast: 0  Operation# 30
%%         660.0 ns    Log    INFO      in transmitter_1,                Axi Stream Send.  TData: 00020002  TStrb: 1111  TKeep: 1111  TID: 00  TDest: 0  TUser: 0  TLast: 0  Operation# 31
%%         670.0 ns    Log    INFO      in transmitter_1,                Axi Stream Send.  TData: 00020003  TStrb: 1111  TKeep: 1111  TID: 00  TDest: 0  TUser: 0  TLast: 1  Operation# 32
%%         680.0 ns    Log    INFO      in transmitter_1,                Axi Stream Send.  TData: 00021000  TStrb: 1111  TKeep: 1111  TID: 00  TDest: 0  TUser: 0  TLast: 0  Operation# 33
%%         690.0 ns    Log    INFO      in transmitter_1,                Axi Stream Send.  TData: 00021001  TStrb: 1111  TKeep: 1111  TID: 00  TDest: 0  TUser: 0  TLast: 0  Operation# 34
%%         700.0 ns    Log    INFO      in transmitter_1,                Axi Stream Send.  TData: 00021002  TStrb: 1111  TKeep: 1111  TID: 00  TDest: 0  TUser: 0  TLast: 0  Operation# 35
%%         710.0 ns    Log    INFO      in transmitter_1,                Axi Stream Send.  TData: 00021003  TStrb: 1111  TKeep: 1111  TID: 00  TDest: 0  TUser: 0  TLast: 1  Operation# 36
%%         720.0 ns    Log    INFO      in receiver_1,                   Burst Receive.  Operation# 29  Last Data: 00020003  TID: 00  TDest: 0  TUser: 0  TLast: 1
%%         720.0 ns    Log    PASSED    in Default,                      NumWords Received : 4
%%         720.0 ns    Log    PASSED    in receiver_1: RxBurstFifo,      Received: 00020000   Item Number: 1
%%         720.0 ns    Log    PASSED    in receiver_1: RxBurstFifo,      Received: 00020001   Item Number: 2
%%         720.0 ns    Log    PASSED    in receiver_1: RxBurstFifo,      Received: 00020002   Item Number: 3
%%         720.0 ns    Log    PASSED    in receiver_1: RxBurstFifo,      Received: 00020003   Item Number: 4
%%         720.0 ns    Log    INFO      in receiver_1,                   Burst Receive.  Operation# 30  Last Data: 00021003  TID: 00  TDest: 0  TUser: 0  TLast: 1
%%         720.0 ns    Log    PASSED    in Default,                      NumWords Received : 4
%%         720.0 ns    Log    PASSED    in receiver_1: RxBurstFifo,      Received: 00021000   Item Number: 5
%%         720.0 ns    Log    PASSED    in receiver_1: RxBurstFifo,      Received: 00021001   Item Number: 6
%%         720.0 ns    Log    PASSED    in receiver_1: RxBurstFifo,      Received: 00021002   Item Number: 7
%%         720.0 ns    Log    PASSED    in receiver_1: RxBurstFifo,      Received: 00021003   Item Number: 8
%%         740.0 ns    Log    INFO      in transmitter_1,                Axi Stream Send.  TData: 00020005  TStrb: 1111  TKeep: 1111  TID: 00  TDest: 0  TUser: 0  TLast: 0  Operation# 37
%%         750.0 ns    Log    PASSED    in receiver_1: Data Check,       Operation# 31  Received.  Data: 00020005  TID: 00  TDest: 0  TUser: 0  TLast: 0
%%         750.0 ns    Log    INFO      in transmitter_1,                Axi Stream Send.  TData: 00022000  TStrb: 1111  TKeep: 1111  TID: 00  TDest: 0  TUser: 0  TLast: 0  Operation# 38
%%         800.0 ns    Log    INFO      in transmitter_1,                Axi Stream Send.  TData: 00022001  TStrb: 1111  TKeep: 1111  TID: 00  TDest: 0  TUser: 0  TLast: 0  Operation# 39
%%         810.0 ns    Log    INFO      in transmitter_1,                Axi Stream Send.  TData: 00022002  TStrb: 1111  TKeep: 1111  TID: 00  TDest: 0  TUser: 0  TLast: 0  Operation# 40
%%         820.0 ns    Log    INFO      in transmitter_1,                Axi Stream Send.  TData: 00022003  TStrb: 1111  TKeep: 1111  TID: 00  TDest: 0  TUser: 0  TLast: 1  Operation# 41
%%         830.0 ns    Log    INFO      in receiver_1,                   Burst Receive.  Operation# 32  Last Data: 00022003  TID: 00  TDest: 0  TUser: 0  TLast: 1
%%         830.0 ns    Log    PASSED    in Default,                      NumWords Received : 4
%%         830.0 ns    Log    PASSED    in receiver_1: RxBurstFifo,      Received: 00022000   Item Number: 9
%%         830.0 ns    Log    PASSED    in receiver_1: RxBurstFifo,      Received: 00022001   Item Number: 10
%%         830.0 ns    Log    PASSED    in receiver_1: RxBurstFifo,      Received: 00022002   Item Number: 11
%%         830.0 ns    Log    PASSED    in receiver_1: RxBurstFifo,      Received: 00022003   Item Number: 12
%%         830.0 ns    Log    INFO      in transmitter_1,                Axi Stream Send.  TData: 00023000  TStrb: 1111  TKeep: 1111  TID: 00  TDest: 0  TUser: 0  TLast: 0  Operation# 42
%%         860.0 ns    Log    INFO      in transmitter_1,                Axi Stream Send.  TData: 00023001  TStrb: 1111  TKeep: 1111  TID: 00  TDest: 0  TUser: 0  TLast: 0  Operation# 43
%%         870.0 ns    Log    INFO      in transmitter_1,                Axi Stream Send.  TData: 00023002  TStrb: 1111  TKeep: 1111  TID: 00  TDest: 0  TUser: 0  TLast: 0  Operation# 44
%%         880.0 ns    Log    INFO      in transmitter_1,                Axi Stream Send.  TData: 00023003  TStrb: 1111  TKeep: 1111  TID: 00  TDest: 0  TUser: 0  TLast: 1  Operation# 45
%%         890.0 ns    Log    INFO      in receiver_1,                   Burst Receive.  Operation# 33  Last Data: 00023003  TID: 00  TDest: 0  TUser: 0  TLast: 1
%%         890.0 ns    Log    PASSED    in Default,                      NumWords Received : 4
%%         890.0 ns    Log    PASSED    in receiver_1: RxBurstFifo,      Received: 00023000   Item Number: 13
%%         890.0 ns    Log    PASSED    in receiver_1: RxBurstFifo,      Received: 00023001   Item Number: 14
%%         890.0 ns    Log    PASSED    in receiver_1: RxBurstFifo,      Received: 00023002   Item Number: 15
%%         890.0 ns    Log    PASSED    in receiver_1: RxBurstFifo,      Received: 00023003   Item Number: 16
%%         910.0 ns    Log    INFO      in transmitter_1,                Axi Stream Send.  TData: 00021005  TStrb: 1111  TKeep: 1111  TID: 00  TDest: 0  TUser: 0  TLast: 0  Operation# 46
%%         920.0 ns    Log    PASSED    in receiver_1: Data Check,       Operation# 34  Received.  Data: 00021005  TID: 00  TDest: 0  TUser: 0  TLast: 0
%%         940.0 ns    Log    INFO      in transmitter_1,                Axi Stream Send.  TData: 00024000  TStrb: 1111  TKeep: 1111  TID: 00  TDest: 0  TUser: 0  TLast: 0  Operation# 47
%%         950.0 ns    Log    INFO      in transmitter_1,                Axi Stream Send.  TData: 00024001  TStrb: 1111  TKeep: 1111  TID: 00  TDest: 0  TUser: 0  TLast: 0  Operation# 48
%%         960.0 ns    Log    INFO      in transmitter_1,                Axi Stream Send.  TData: 00024002  TStrb: 1111  TKeep: 1111  TID: 00  TDest: 0  TUser: 0  TLast: 0  Operation# 49
%%         970.0 ns    Log    INFO      in transmitter_1,                Axi Stream Send.  TData: 00024003  TStrb: 1111  TKeep: 1111  TID: 00  TDest: 0  TUser: 0  TLast: 1  Operation# 50
%%         980.0 ns    Log    INFO      in transmitter_1,                Axi Stream Send.  TData: 00025000  TStrb: 1111  TKeep: 1111  TID: 00  TDest: 0  TUser: 0  TLast: 0  Operation# 51
%%         990.0 ns    Log    INFO      in transmitter_1,                Axi Stream Send.  TData: 00025001  TStrb: 1111  TKeep: 1111  TID: 00  TDest: 0  TUser: 0  TLast: 0  Operation# 52
%%        1000.0 ns    Log    INFO      in transmitter_1,                Axi Stream Send.  TData: 00025002  TStrb: 1111  TKeep: 1111  TID: 00  TDest: 0  TUser: 0  TLast: 0  Operation# 53
%%        1010.0 ns    Log    INFO      in transmitter_1,                Axi Stream Send.  TData: 00025003  TStrb: 1111  TKeep: 1111  TID: 00  TDest: 0  TUser: 0  TLast: 1  Operation# 54
%%        1020.0 ns    Log    INFO      in receiver_1,                   Burst Receive.  Operation# 35  Last Data: 00024003  TID: 00  TDest: 0  TUser: 0  TLast: 1
%%        1020.0 ns    Log    PASSED    in Default,                      NumWords Received : 4
%%        1020.0 ns    Log    PASSED    in receiver_1: RxBurstFifo,      Received: 00024000   Item Number: 17
%%        1020.0 ns    Log    PASSED    in receiver_1: RxBurstFifo,      Received: 00024001   Item Number: 18
%%        1020.0 ns    Log    PASSED    in receiver_1: RxBurstFifo,      Received: 00024002   Item Number: 19
%%        1020.0 ns    Log    PASSED    in receiver_1: RxBurstFifo,      Received: 00024003   Item Number: 20
%%        1020.0 ns    Log    INFO      in receiver_1,                   Burst Receive.  Operation# 36  Last Data: 00025003  TID: 00  TDest: 0  TUser: 0  TLast: 1
%%        1020.0 ns    Log    PASSED    in Default,                      NumWords Received : 4
%%        1020.0 ns    Log    PASSED    in receiver_1: RxBurstFifo,      Received: 00025000   Item Number: 21
%%        1020.0 ns    Log    PASSED    in receiver_1: RxBurstFifo,      Received: 00025001   Item Number: 22
%%        1020.0 ns    Log    PASSED    in receiver_1: RxBurstFifo,      Received: 00025002   Item Number: 23
%%        1020.0 ns    Log    PASSED    in receiver_1: RxBurstFifo,      Received: 00025003   Item Number: 24
%%        1020.0 ns    Log    ALWAYS    in Default,                      SendBurstIncrement and CheckBurstIncrement: Send 6 x 4 word bursts
%% 
%%  
%%        1040.0 ns    Log    INFO      in transmitter_1,                Axi Stream Send.  TData: 00030000  TStrb: 1111  TKeep: 1111  TID: 00  TDest: 0  TUser: 0  TLast: 0  Operation# 55
%%        1050.0 ns    Log    INFO      in transmitter_1,                Axi Stream Send.  TData: 00030001  TStrb: 1111  TKeep: 1111  TID: 00  TDest: 0  TUser: 0  TLast: 0  Operation# 56
%%        1060.0 ns    Log    INFO      in transmitter_1,                Axi Stream Send.  TData: 00030002  TStrb: 1111  TKeep: 1111  TID: 00  TDest: 0  TUser: 0  TLast: 0  Operation# 57
%%        1070.0 ns    Log    INFO      in transmitter_1,                Axi Stream Send.  TData: 00030003  TStrb: 1111  TKeep: 1111  TID: 00  TDest: 0  TUser: 0  TLast: 1  Operation# 58
%%        1080.0 ns    Log    PASSED    in receiver_1: RxBurstFifo,      Received: 00030000   Item Number: 25
%%        1080.0 ns    Log    PASSED    in receiver_1: RxBurstFifo,      Received: 00030001   Item Number: 26
%%        1080.0 ns    Log    PASSED    in receiver_1: RxBurstFifo,      Received: 00030002   Item Number: 27
%%        1080.0 ns    Log    PASSED    in receiver_1: RxBurstFifo,      Received: 00030003   Item Number: 28
%%        1080.0 ns    Log    INFO      in receiver_1,                   Burst Check.  Operation# 37  Last Data: 00030003  TID: 00  TDest: 0  TUser: 0  TLast: 1
%%        1080.0 ns    Log    PASSED    in receiver_1,                   Burst Check WordCount Received : 4
%%        1080.0 ns    Log    PASSED    in receiver_1,                   ID Received : 00
%%        1080.0 ns    Log    PASSED    in receiver_1,                   DEST Received : 0
%%        1080.0 ns    Log    PASSED    in receiver_1,                   USER Received : 0
%%        1080.0 ns    Log    PASSED    in receiver_1,                   Last Received : 1
%%        1080.0 ns    Log    INFO      in transmitter_1,                Axi Stream Send.  TData: 00031000  TStrb: 1111  TKeep: 1111  TID: 00  TDest: 0  TUser: 0  TLast: 0  Operation# 59
%%        1090.0 ns    Log    INFO      in transmitter_1,                Axi Stream Send.  TData: 00031001  TStrb: 1111  TKeep: 1111  TID: 00  TDest: 0  TUser: 0  TLast: 0  Operation# 60
%%        1100.0 ns    Log    INFO      in transmitter_1,                Axi Stream Send.  TData: 00031002  TStrb: 1111  TKeep: 1111  TID: 00  TDest: 0  TUser: 0  TLast: 0  Operation# 61
%%        1110.0 ns    Log    INFO      in transmitter_1,                Axi Stream Send.  TData: 00031003  TStrb: 1111  TKeep: 1111  TID: 00  TDest: 0  TUser: 0  TLast: 1  Operation# 62
%%        1120.0 ns    Log    PASSED    in receiver_1: RxBurstFifo,      Received: 00031000   Item Number: 29
%%        1120.0 ns    Log    PASSED    in receiver_1: RxBurstFifo,      Received: 00031001   Item Number: 30
%%        1120.0 ns    Log    PASSED    in receiver_1: RxBurstFifo,      Received: 00031002   Item Number: 31
%%        1120.0 ns    Log    PASSED    in receiver_1: RxBurstFifo,      Received: 00031003   Item Number: 32
%%        1120.0 ns    Log    INFO      in receiver_1,                   Burst Check.  Operation# 38  Last Data: 00031003  TID: 00  TDest: 0  TUser: 0  TLast: 1
%%        1120.0 ns    Log    PASSED    in receiver_1,                   Burst Check WordCount Received : 4
%%        1120.0 ns    Log    PASSED    in receiver_1,                   ID Received : 00
%%        1120.0 ns    Log    PASSED    in receiver_1,                   DEST Received : 0
%%        1120.0 ns    Log    PASSED    in receiver_1,                   USER Received : 0
%%        1120.0 ns    Log    PASSED    in receiver_1,                   Last Received : 1
%%        1140.0 ns    Log    INFO      in transmitter_1,                Axi Stream Send.  TData: 00031005  TStrb: 1111  TKeep: 1111  TID: 00  TDest: 0  TUser: 0  TLast: 0  Operation# 63
%%        1150.0 ns    Log    PASSED    in receiver_1: Data Check,       Operation# 39  Received.  Data: 00031005  TID: 00  TDest: 0  TUser: 0  TLast: 0
%%        1150.0 ns    Log    INFO      in transmitter_1,                Axi Stream Send.  TData: 00032000  TStrb: 1111  TKeep: 1111  TID: 00  TDest: 0  TUser: 0  TLast: 0  Operation# 64
%%        1180.0 ns    Log    INFO      in transmitter_1,                Axi Stream Send.  TData: 00032001  TStrb: 1111  TKeep: 1111  TID: 00  TDest: 0  TUser: 0  TLast: 0  Operation# 65
%%        1190.0 ns    Log    INFO      in transmitter_1,                Axi Stream Send.  TData: 00032002  TStrb: 1111  TKeep: 1111  TID: 00  TDest: 0  TUser: 0  TLast: 0  Operation# 66
%%        1200.0 ns    Log    INFO      in transmitter_1,                Axi Stream Send.  TData: 00032003  TStrb: 1111  TKeep: 1111  TID: 00  TDest: 0  TUser: 0  TLast: 1  Operation# 67
%%        1210.0 ns    Log    PASSED    in receiver_1: RxBurstFifo,      Received: 00032000   Item Number: 33
%%        1210.0 ns    Log    PASSED    in receiver_1: RxBurstFifo,      Received: 00032001   Item Number: 34
%%        1210.0 ns    Log    PASSED    in receiver_1: RxBurstFifo,      Received: 00032002   Item Number: 35
%%        1210.0 ns    Log    PASSED    in receiver_1: RxBurstFifo,      Received: 00032003   Item Number: 36
%%        1210.0 ns    Log    INFO      in receiver_1,                   Burst Check.  Operation# 40  Last Data: 00032003  TID: 00  TDest: 0  TUser: 0  TLast: 1
%%        1210.0 ns    Log    PASSED    in receiver_1,                   Burst Check WordCount Received : 4
%%        1210.0 ns    Log    PASSED    in receiver_1,                   ID Received : 00
%%        1210.0 ns    Log    PASSED    in receiver_1,                   DEST Received : 0
%%        1210.0 ns    Log    PASSED    in receiver_1,                   USER Received : 0
%%        1210.0 ns    Log    PASSED    in receiver_1,                   Last Received : 1
%%        1230.0 ns    Log    INFO      in transmitter_1,                Axi Stream Send.  TData: 00033000  TStrb: 1111  TKeep: 1111  TID: 00  TDest: 0  TUser: 0  TLast: 0  Operation# 68
%%        1240.0 ns    Log    INFO      in transmitter_1,                Axi Stream Send.  TData: 00033001  TStrb: 1111  TKeep: 1111  TID: 00  TDest: 0  TUser: 0  TLast: 0  Operation# 69
%%        1250.0 ns    Log    INFO      in transmitter_1,                Axi Stream Send.  TData: 00033002  TStrb: 1111  TKeep: 1111  TID: 00  TDest: 0  TUser: 0  TLast: 0  Operation# 70
%%        1260.0 ns    Log    INFO      in transmitter_1,                Axi Stream Send.  TData: 00033003  TStrb: 1111  TKeep: 1111  TID: 00  TDest: 0  TUser: 0  TLast: 1  Operation# 71
%%        1270.0 ns    Log    PASSED    in receiver_1: RxBurstFifo,      Received: 00033000   Item Number: 37
%%        1270.0 ns    Log    PASSED    in receiver_1: RxBurstFifo,      Received: 00033001   Item Number: 38
%%        1270.0 ns    Log    PASSED    in receiver_1: RxBurstFifo,      Received: 00033002   Item Number: 39
%%        1270.0 ns    Log    PASSED    in receiver_1: RxBurstFifo,      Received: 00033003   Item Number: 40
%%        1270.0 ns    Log    INFO      in receiver_1,                   Burst Check.  Operation# 41  Last Data: 00033003  TID: 00  TDest: 0  TUser: 0  TLast: 1
%%        1270.0 ns    Log    PASSED    in receiver_1,                   Burst Check WordCount Received : 4
%%        1270.0 ns    Log    PASSED    in receiver_1,                   ID Received : 00
%%        1270.0 ns    Log    PASSED    in receiver_1,                   DEST Received : 0
%%        1270.0 ns    Log    PASSED    in receiver_1,                   USER Received : 0
%%        1270.0 ns    Log    PASSED    in receiver_1,                   Last Received : 1
%%        1310.0 ns    Log    INFO      in transmitter_1,                Axi Stream Send.  TData: 00033005  TStrb: 1111  TKeep: 1111  TID: 00  TDest: 0  TUser: 0  TLast: 0  Operation# 72
%%        1320.0 ns    Log    PASSED    in receiver_1: Data Check,       Operation# 42  Received.  Data: 00033005  TID: 00  TDest: 0  TUser: 0  TLast: 0
%%        1340.0 ns    Log    INFO      in transmitter_1,                Axi Stream Send.  TData: 00034000  TStrb: 1111  TKeep: 1111  TID: 00  TDest: 0  TUser: 0  TLast: 0  Operation# 73
%%        1350.0 ns    Log    INFO      in transmitter_1,                Axi Stream Send.  TData: 00034001  TStrb: 1111  TKeep: 1111  TID: 00  TDest: 0  TUser: 0  TLast: 0  Operation# 74
%%        1360.0 ns    Log    INFO      in transmitter_1,                Axi Stream Send.  TData: 00034002  TStrb: 1111  TKeep: 1111  TID: 00  TDest: 0  TUser: 0  TLast: 0  Operation# 75
%%        1370.0 ns    Log    INFO      in transmitter_1,                Axi Stream Send.  TData: 00034003  TStrb: 1111  TKeep: 1111  TID: 00  TDest: 0  TUser: 0  TLast: 1  Operation# 76
%%        1380.0 ns    Log    INFO      in transmitter_1,                Axi Stream Send.  TData: 00035000  TStrb: 1111  TKeep: 1111  TID: 00  TDest: 0  TUser: 0  TLast: 0  Operation# 77
%%        1390.0 ns    Log    INFO      in transmitter_1,                Axi Stream Send.  TData: 00035001  TStrb: 1111  TKeep: 1111  TID: 00  TDest: 0  TUser: 0  TLast: 0  Operation# 78
%%        1400.0 ns    Log    INFO      in transmitter_1,                Axi Stream Send.  TData: 00035002  TStrb: 1111  TKeep: 1111  TID: 00  TDest: 0  TUser: 0  TLast: 0  Operation# 79
%%        1410.0 ns    Log    INFO      in transmitter_1,                Axi Stream Send.  TData: 00035003  TStrb: 1111  TKeep: 1111  TID: 00  TDest: 0  TUser: 0  TLast: 1  Operation# 80
%%        1420.0 ns    Log    PASSED    in receiver_1: RxBurstFifo,      Received: 00034000   Item Number: 41
%%        1420.0 ns    Log    PASSED    in receiver_1: RxBurstFifo,      Received: 00034001   Item Number: 42
%%        1420.0 ns    Log    PASSED    in receiver_1: RxBurstFifo,      Received: 00034002   Item Number: 43
%%        1420.0 ns    Log    PASSED    in receiver_1: RxBurstFifo,      Received: 00034003   Item Number: 44
%%        1420.0 ns    Log    INFO      in receiver_1,                   Burst Check.  Operation# 43  Last Data: 00034003  TID: 00  TDest: 0  TUser: 0  TLast: 1
%%        1420.0 ns    Log    PASSED    in receiver_1,                   Burst Check WordCount Received : 4
%%        1420.0 ns    Log    PASSED    in receiver_1,                   ID Received : 00
%%        1420.0 ns    Log    PASSED    in receiver_1,                   DEST Received : 0
%%        1420.0 ns    Log    PASSED    in receiver_1,                   USER Received : 0
%%        1420.0 ns    Log    PASSED    in receiver_1,                   Last Received : 1
%%        1420.0 ns    Log    PASSED    in receiver_1: RxBurstFifo,      Received: 00035000   Item Number: 45
%%        1420.0 ns    Log    PASSED    in receiver_1: RxBurstFifo,      Received: 00035001   Item Number: 46
%%        1420.0 ns    Log    PASSED    in receiver_1: RxBurstFifo,      Received: 00035002   Item Number: 47
%%        1420.0 ns    Log    PASSED    in receiver_1: RxBurstFifo,      Received: 00035003   Item Number: 48
%%        1420.0 ns    Log    INFO      in receiver_1,                   Burst Check.  Operation# 44  Last Data: 00035003  TID: 00  TDest: 0  TUser: 0  TLast: 1
%%        1420.0 ns    Log    PASSED    in receiver_1,                   Burst Check WordCount Received : 4
%%        1420.0 ns    Log    PASSED    in receiver_1,                   ID Received : 00
%%        1420.0 ns    Log    PASSED    in receiver_1,                   DEST Received : 0
%%        1420.0 ns    Log    PASSED    in receiver_1,                   USER Received : 0
%%        1420.0 ns    Log    PASSED    in receiver_1,                   Last Received : 1
