%%         110.0 ns  Log    ALWAYS  in Default,                      Transmit 32 words
%%         110.0 ns  Log    INFO    in transmitter_1,                Axi Stream Send.  TData: 00000001  TStrb: 1111  TKeep: 1111  TID: 00  TDest: 0  TUser: 0  TLast: 0  Operation# 1
%%         120.0 ns  Log    INFO    in receiver_1,                   Word Receive.  Operation# 1  Data: 00000001  TID: 00  TDest: 0  TUser: 0  TLast: 0
%%         120.0 ns  Log    PASSED  in Default,                      RxData Received : 00000001
%%         120.0 ns  Log    INFO    in transmitter_1,                Axi Stream Send.  TData: 00000002  TStrb: 1111  TKeep: 1111  TID: 00  TDest: 0  TUser: 0  TLast: 0  Operation# 2
%%         130.0 ns  Log    INFO    in receiver_1,                   Word Receive.  Operation# 2  Data: 00000002  TID: 00  TDest: 0  TUser: 0  TLast: 0
%%         130.0 ns  Log    PASSED  in Default,                      RxData Received : 00000002
%%         130.0 ns  Log    INFO    in transmitter_1,                Axi Stream Send.  TData: 00000003  TStrb: 1111  TKeep: 1111  TID: 00  TDest: 0  TUser: 0  TLast: 0  Operation# 3
%%         140.0 ns  Log    INFO    in receiver_1,                   Word Receive.  Operation# 3  Data: 00000003  TID: 00  TDest: 0  TUser: 0  TLast: 0
%%         140.0 ns  Log    PASSED  in Default,                      RxData Received : 00000003
%%         140.0 ns  Log    INFO    in transmitter_1,                Axi Stream Send.  TData: 00000004  TStrb: 1111  TKeep: 1111  TID: 00  TDest: 0  TUser: 0  TLast: 0  Operation# 4
%%         150.0 ns  Log    INFO    in receiver_1,                   Word Receive.  Operation# 4  Data: 00000004  TID: 00  TDest: 0  TUser: 0  TLast: 0
%%         150.0 ns  Log    PASSED  in Default,                      RxData Received : 00000004
%%         150.0 ns  Log    INFO    in transmitter_1,                Axi Stream Send.  TData: 00000005  TStrb: 1111  TKeep: 1111  TID: 00  TDest: 0  TUser: 0  TLast: 0  Operation# 5
%%         160.0 ns  Log    INFO    in receiver_1,                   Word Receive.  Operation# 5  Data: 00000005  TID: 00  TDest: 0  TUser: 0  TLast: 0
%%         160.0 ns  Log    PASSED  in Default,                      RxData Received : 00000005
%%         160.0 ns  Log    INFO    in transmitter_1,                Axi Stream Send.  TData: 00000006  TStrb: 1111  TKeep: 1111  TID: 00  TDest: 0  TUser: 0  TLast: 0  Operation# 6
%%         170.0 ns  Log    INFO    in receiver_1,                   Word Receive.  Operation# 6  Data: 00000006  TID: 00  TDest: 0  TUser: 0  TLast: 0
%%         170.0 ns  Log    PASSED  in Default,                      RxData Received : 00000006
%%         170.0 ns  Log    INFO    in transmitter_1,                Axi Stream Send.  TData: 00000007  TStrb: 1111  TKeep: 1111  TID: 00  TDest: 0  TUser: 0  TLast: 0  Operation# 7
%%         180.0 ns  Log    INFO    in receiver_1,                   Word Receive.  Operation# 7  Data: 00000007  TID: 00  TDest: 0  TUser: 0  TLast: 0
%%         180.0 ns  Log    PASSED  in Default,                      RxData Received : 00000007
%%         180.0 ns  Log    INFO    in transmitter_1,                Axi Stream Send.  TData: 00000008  TStrb: 1111  TKeep: 1111  TID: 00  TDest: 0  TUser: 0  TLast: 0  Operation# 8
%%         190.0 ns  Log    INFO    in receiver_1,                   Word Receive.  Operation# 8  Data: 00000008  TID: 00  TDest: 0  TUser: 0  TLast: 0
%%         190.0 ns  Log    PASSED  in Default,                      RxData Received : 00000008
%%         190.0 ns  Log    INFO    in transmitter_1,                Axi Stream Send.  TData: 00000009  TStrb: 1111  TKeep: 1111  TID: 00  TDest: 0  TUser: 0  TLast: 0  Operation# 9
%%         200.0 ns  Log    INFO    in receiver_1,                   Word Receive.  Operation# 9  Data: 00000009  TID: 00  TDest: 0  TUser: 0  TLast: 0
%%         200.0 ns  Log    PASSED  in Default,                      RxData Received : 00000009
%%         200.0 ns  Log    INFO    in transmitter_1,                Axi Stream Send.  TData: 0000000A  TStrb: 1111  TKeep: 1111  TID: 00  TDest: 0  TUser: 0  TLast: 0  Operation# 10
%%         210.0 ns  Log    INFO    in receiver_1,                   Word Receive.  Operation# 10  Data: 0000000A  TID: 00  TDest: 0  TUser: 0  TLast: 0
%%         210.0 ns  Log    PASSED  in Default,                      RxData Received : 0000000A
%%         210.0 ns  Log    INFO    in transmitter_1,                Axi Stream Send.  TData: 0000000B  TStrb: 1111  TKeep: 1111  TID: 00  TDest: 0  TUser: 0  TLast: 0  Operation# 11
%%         220.0 ns  Log    INFO    in receiver_1,                   Word Receive.  Operation# 11  Data: 0000000B  TID: 00  TDest: 0  TUser: 0  TLast: 0
%%         220.0 ns  Log    PASSED  in Default,                      RxData Received : 0000000B
%%         220.0 ns  Log    INFO    in transmitter_1,                Axi Stream Send.  TData: 0000000C  TStrb: 1111  TKeep: 1111  TID: 00  TDest: 0  TUser: 0  TLast: 0  Operation# 12
%%         230.0 ns  Log    INFO    in receiver_1,                   Word Receive.  Operation# 12  Data: 0000000C  TID: 00  TDest: 0  TUser: 0  TLast: 0
%%         230.0 ns  Log    PASSED  in Default,                      RxData Received : 0000000C
%%         230.0 ns  Log    INFO    in transmitter_1,                Axi Stream Send.  TData: 0000000D  TStrb: 1111  TKeep: 1111  TID: 00  TDest: 0  TUser: 0  TLast: 0  Operation# 13
%%         240.0 ns  Log    INFO    in receiver_1,                   Word Receive.  Operation# 13  Data: 0000000D  TID: 00  TDest: 0  TUser: 0  TLast: 0
%%         240.0 ns  Log    PASSED  in Default,                      RxData Received : 0000000D
%%         240.0 ns  Log    INFO    in transmitter_1,                Axi Stream Send.  TData: 0000000E  TStrb: 1111  TKeep: 1111  TID: 00  TDest: 0  TUser: 0  TLast: 0  Operation# 14
%%         250.0 ns  Log    INFO    in receiver_1,                   Word Receive.  Operation# 14  Data: 0000000E  TID: 00  TDest: 0  TUser: 0  TLast: 0
%%         250.0 ns  Log    PASSED  in Default,                      RxData Received : 0000000E
%%         250.0 ns  Log    INFO    in transmitter_1,                Axi Stream Send.  TData: 0000000F  TStrb: 1111  TKeep: 1111  TID: 00  TDest: 0  TUser: 0  TLast: 0  Operation# 15
%%         260.0 ns  Log    INFO    in receiver_1,                   Word Receive.  Operation# 15  Data: 0000000F  TID: 00  TDest: 0  TUser: 0  TLast: 0
%%         260.0 ns  Log    PASSED  in Default,                      RxData Received : 0000000F
%%         260.0 ns  Log    INFO    in transmitter_1,                Axi Stream Send.  TData: 00000010  TStrb: 1111  TKeep: 1111  TID: 00  TDest: 0  TUser: 0  TLast: 0  Operation# 16
%%         270.0 ns  Log    INFO    in receiver_1,                   Word Receive.  Operation# 16  Data: 00000010  TID: 00  TDest: 0  TUser: 0  TLast: 0
%%         270.0 ns  Log    PASSED  in Default,                      RxData Received : 00000010
%%         270.0 ns  Log    INFO    in transmitter_1,                Axi Stream Send.  TData: 00000011  TStrb: 1111  TKeep: 1111  TID: 00  TDest: 0  TUser: 0  TLast: 0  Operation# 17
%%         280.0 ns  Log    INFO    in receiver_1,                   Word Receive.  Operation# 17  Data: 00000011  TID: 00  TDest: 0  TUser: 0  TLast: 0
%%         280.0 ns  Log    PASSED  in Default,                      RxData Received : 00000011
%%         280.0 ns  Log    INFO    in transmitter_1,                Axi Stream Send.  TData: 00000012  TStrb: 1111  TKeep: 1111  TID: 00  TDest: 0  TUser: 0  TLast: 0  Operation# 18
%%         290.0 ns  Log    INFO    in receiver_1,                   Word Receive.  Operation# 18  Data: 00000012  TID: 00  TDest: 0  TUser: 0  TLast: 0
%%         290.0 ns  Log    PASSED  in Default,                      RxData Received : 00000012
%%         290.0 ns  Log    INFO    in transmitter_1,                Axi Stream Send.  TData: 00000013  TStrb: 1111  TKeep: 1111  TID: 00  TDest: 0  TUser: 0  TLast: 0  Operation# 19
%%         300.0 ns  Log    INFO    in receiver_1,                   Word Receive.  Operation# 19  Data: 00000013  TID: 00  TDest: 0  TUser: 0  TLast: 0
%%         300.0 ns  Log    PASSED  in Default,                      RxData Received : 00000013
%%         300.0 ns  Log    INFO    in transmitter_1,                Axi Stream Send.  TData: 00000014  TStrb: 1111  TKeep: 1111  TID: 00  TDest: 0  TUser: 0  TLast: 0  Operation# 20
%%         310.0 ns  Log    INFO    in receiver_1,                   Word Receive.  Operation# 20  Data: 00000014  TID: 00  TDest: 0  TUser: 0  TLast: 0
%%         310.0 ns  Log    PASSED  in Default,                      RxData Received : 00000014
%%         310.0 ns  Log    INFO    in transmitter_1,                Axi Stream Send.  TData: 00000015  TStrb: 1111  TKeep: 1111  TID: 00  TDest: 0  TUser: 0  TLast: 0  Operation# 21
%%         320.0 ns  Log    INFO    in receiver_1,                   Word Receive.  Operation# 21  Data: 00000015  TID: 00  TDest: 0  TUser: 0  TLast: 0
%%         320.0 ns  Log    PASSED  in Default,                      RxData Received : 00000015
%%         320.0 ns  Log    INFO    in transmitter_1,                Axi Stream Send.  TData: 00000016  TStrb: 1111  TKeep: 1111  TID: 00  TDest: 0  TUser: 0  TLast: 0  Operation# 22
%%         330.0 ns  Log    INFO    in receiver_1,                   Word Receive.  Operation# 22  Data: 00000016  TID: 00  TDest: 0  TUser: 0  TLast: 0
%%         330.0 ns  Log    PASSED  in Default,                      RxData Received : 00000016
%%         330.0 ns  Log    INFO    in transmitter_1,                Axi Stream Send.  TData: 00000017  TStrb: 1111  TKeep: 1111  TID: 00  TDest: 0  TUser: 0  TLast: 0  Operation# 23
%%         340.0 ns  Log    INFO    in receiver_1,                   Word Receive.  Operation# 23  Data: 00000017  TID: 00  TDest: 0  TUser: 0  TLast: 0
%%         340.0 ns  Log    PASSED  in Default,                      RxData Received : 00000017
%%         340.0 ns  Log    INFO    in transmitter_1,                Axi Stream Send.  TData: 00000018  TStrb: 1111  TKeep: 1111  TID: 00  TDest: 0  TUser: 0  TLast: 0  Operation# 24
%%         350.0 ns  Log    INFO    in receiver_1,                   Word Receive.  Operation# 24  Data: 00000018  TID: 00  TDest: 0  TUser: 0  TLast: 0
%%         350.0 ns  Log    PASSED  in Default,                      RxData Received : 00000018
%%         350.0 ns  Log    INFO    in transmitter_1,                Axi Stream Send.  TData: 00000019  TStrb: 1111  TKeep: 1111  TID: 00  TDest: 0  TUser: 0  TLast: 0  Operation# 25
%%         360.0 ns  Log    INFO    in receiver_1,                   Word Receive.  Operation# 25  Data: 00000019  TID: 00  TDest: 0  TUser: 0  TLast: 0
%%         360.0 ns  Log    PASSED  in Default,                      RxData Received : 00000019
%%         360.0 ns  Log    INFO    in transmitter_1,                Axi Stream Send.  TData: 0000001A  TStrb: 1111  TKeep: 1111  TID: 00  TDest: 0  TUser: 0  TLast: 0  Operation# 26
%%         370.0 ns  Log    INFO    in receiver_1,                   Word Receive.  Operation# 26  Data: 0000001A  TID: 00  TDest: 0  TUser: 0  TLast: 0
%%         370.0 ns  Log    PASSED  in Default,                      RxData Received : 0000001A
%%         370.0 ns  Log    INFO    in transmitter_1,                Axi Stream Send.  TData: 0000001B  TStrb: 1111  TKeep: 1111  TID: 00  TDest: 0  TUser: 0  TLast: 0  Operation# 27
%%         380.0 ns  Log    INFO    in receiver_1,                   Word Receive.  Operation# 27  Data: 0000001B  TID: 00  TDest: 0  TUser: 0  TLast: 0
%%         380.0 ns  Log    PASSED  in Default,                      RxData Received : 0000001B
%%         380.0 ns  Log    INFO    in transmitter_1,                Axi Stream Send.  TData: 0000001C  TStrb: 1111  TKeep: 1111  TID: 00  TDest: 0  TUser: 0  TLast: 0  Operation# 28
%%         390.0 ns  Log    INFO    in receiver_1,                   Word Receive.  Operation# 28  Data: 0000001C  TID: 00  TDest: 0  TUser: 0  TLast: 0
%%         390.0 ns  Log    PASSED  in Default,                      RxData Received : 0000001C
%%         390.0 ns  Log    INFO    in transmitter_1,                Axi Stream Send.  TData: 0000001D  TStrb: 1111  TKeep: 1111  TID: 00  TDest: 0  TUser: 0  TLast: 0  Operation# 29
%%         400.0 ns  Log    INFO    in receiver_1,                   Word Receive.  Operation# 29  Data: 0000001D  TID: 00  TDest: 0  TUser: 0  TLast: 0
%%         400.0 ns  Log    PASSED  in Default,                      RxData Received : 0000001D
%%         400.0 ns  Log    INFO    in transmitter_1,                Axi Stream Send.  TData: 0000001E  TStrb: 1111  TKeep: 1111  TID: 00  TDest: 0  TUser: 0  TLast: 0  Operation# 30
%%         410.0 ns  Log    INFO    in receiver_1,                   Word Receive.  Operation# 30  Data: 0000001E  TID: 00  TDest: 0  TUser: 0  TLast: 0
%%         410.0 ns  Log    PASSED  in Default,                      RxData Received : 0000001E
%%         410.0 ns  Log    INFO    in transmitter_1,                Axi Stream Send.  TData: 0000001F  TStrb: 1111  TKeep: 1111  TID: 00  TDest: 0  TUser: 0  TLast: 0  Operation# 31
%%         420.0 ns  Log    INFO    in receiver_1,                   Word Receive.  Operation# 31  Data: 0000001F  TID: 00  TDest: 0  TUser: 0  TLast: 0
%%         420.0 ns  Log    PASSED  in Default,                      RxData Received : 0000001F
%%         420.0 ns  Log    INFO    in transmitter_1,                Axi Stream Send.  TData: 00000020  TStrb: 1111  TKeep: 1111  TID: 00  TDest: 0  TUser: 0  TLast: 0  Operation# 32
%%         430.0 ns  Log    INFO    in receiver_1,                   Word Receive.  Operation# 32  Data: 00000020  TID: 00  TDest: 0  TUser: 0  TLast: 0
%%         430.0 ns  Log    PASSED  in Default,                      RxData Received : 00000020
%%         440.0 ns  Log    ALWAYS  in Default,                      Transmit 32 words
%%         440.0 ns  Log    INFO    in transmitter_1,                Axi Stream Send.  TData: 00001001  TStrb: 1111  TKeep: 1111  TID: 00  TDest: 0  TUser: 0  TLast: 0  Operation# 33
%%         450.0 ns  Log    PASSED  in receiver_1: Data Check,       Operation# 33  Received.  Data: 00001001  TID: 00  TDest: 0  TUser: 0  TLast: 0
%%         450.0 ns  Log    INFO    in transmitter_1,                Axi Stream Send.  TData: 00001002  TStrb: 1111  TKeep: 1111  TID: 00  TDest: 0  TUser: 0  TLast: 0  Operation# 34
%%         460.0 ns  Log    PASSED  in receiver_1: Data Check,       Operation# 34  Received.  Data: 00001002  TID: 00  TDest: 0  TUser: 0  TLast: 0
%%         460.0 ns  Log    INFO    in transmitter_1,                Axi Stream Send.  TData: 00001003  TStrb: 1111  TKeep: 1111  TID: 00  TDest: 0  TUser: 0  TLast: 0  Operation# 35
%%         470.0 ns  Log    PASSED  in receiver_1: Data Check,       Operation# 35  Received.  Data: 00001003  TID: 00  TDest: 0  TUser: 0  TLast: 0
%%         470.0 ns  Log    INFO    in transmitter_1,                Axi Stream Send.  TData: 00001004  TStrb: 1111  TKeep: 1111  TID: 00  TDest: 0  TUser: 0  TLast: 0  Operation# 36
%%         480.0 ns  Log    PASSED  in receiver_1: Data Check,       Operation# 36  Received.  Data: 00001004  TID: 00  TDest: 0  TUser: 0  TLast: 0
%%         480.0 ns  Log    INFO    in transmitter_1,                Axi Stream Send.  TData: 00001005  TStrb: 1111  TKeep: 1111  TID: 00  TDest: 0  TUser: 0  TLast: 0  Operation# 37
%%         490.0 ns  Log    PASSED  in receiver_1: Data Check,       Operation# 37  Received.  Data: 00001005  TID: 00  TDest: 0  TUser: 0  TLast: 0
%%         490.0 ns  Log    INFO    in transmitter_1,                Axi Stream Send.  TData: 00001006  TStrb: 1111  TKeep: 1111  TID: 00  TDest: 0  TUser: 0  TLast: 0  Operation# 38
%%         500.0 ns  Log    PASSED  in receiver_1: Data Check,       Operation# 38  Received.  Data: 00001006  TID: 00  TDest: 0  TUser: 0  TLast: 0
%%         500.0 ns  Log    INFO    in transmitter_1,                Axi Stream Send.  TData: 00001007  TStrb: 1111  TKeep: 1111  TID: 00  TDest: 0  TUser: 0  TLast: 0  Operation# 39
%%         510.0 ns  Log    PASSED  in receiver_1: Data Check,       Operation# 39  Received.  Data: 00001007  TID: 00  TDest: 0  TUser: 0  TLast: 0
%%         510.0 ns  Log    INFO    in transmitter_1,                Axi Stream Send.  TData: 00001008  TStrb: 1111  TKeep: 1111  TID: 00  TDest: 0  TUser: 0  TLast: 0  Operation# 40
%%         520.0 ns  Log    PASSED  in receiver_1: Data Check,       Operation# 40  Received.  Data: 00001008  TID: 00  TDest: 0  TUser: 0  TLast: 0
%%         520.0 ns  Log    INFO    in transmitter_1,                Axi Stream Send.  TData: 00001009  TStrb: 1111  TKeep: 1111  TID: 00  TDest: 0  TUser: 0  TLast: 0  Operation# 41
%%         530.0 ns  Log    PASSED  in receiver_1: Data Check,       Operation# 41  Received.  Data: 00001009  TID: 00  TDest: 0  TUser: 0  TLast: 0
%%         530.0 ns  Log    INFO    in transmitter_1,                Axi Stream Send.  TData: 0000100A  TStrb: 1111  TKeep: 1111  TID: 00  TDest: 0  TUser: 0  TLast: 0  Operation# 42
%%         540.0 ns  Log    PASSED  in receiver_1: Data Check,       Operation# 42  Received.  Data: 0000100A  TID: 00  TDest: 0  TUser: 0  TLast: 0
%%         540.0 ns  Log    INFO    in transmitter_1,                Axi Stream Send.  TData: 0000100B  TStrb: 1111  TKeep: 1111  TID: 00  TDest: 0  TUser: 0  TLast: 0  Operation# 43
%%         550.0 ns  Log    PASSED  in receiver_1: Data Check,       Operation# 43  Received.  Data: 0000100B  TID: 00  TDest: 0  TUser: 0  TLast: 0
%%         550.0 ns  Log    INFO    in transmitter_1,                Axi Stream Send.  TData: 0000100C  TStrb: 1111  TKeep: 1111  TID: 00  TDest: 0  TUser: 0  TLast: 0  Operation# 44
%%         560.0 ns  Log    PASSED  in receiver_1: Data Check,       Operation# 44  Received.  Data: 0000100C  TID: 00  TDest: 0  TUser: 0  TLast: 0
%%         560.0 ns  Log    INFO    in transmitter_1,                Axi Stream Send.  TData: 0000100D  TStrb: 1111  TKeep: 1111  TID: 00  TDest: 0  TUser: 0  TLast: 0  Operation# 45
%%         570.0 ns  Log    PASSED  in receiver_1: Data Check,       Operation# 45  Received.  Data: 0000100D  TID: 00  TDest: 0  TUser: 0  TLast: 0
%%         570.0 ns  Log    INFO    in transmitter_1,                Axi Stream Send.  TData: 0000100E  TStrb: 1111  TKeep: 1111  TID: 00  TDest: 0  TUser: 0  TLast: 0  Operation# 46
%%         580.0 ns  Log    PASSED  in receiver_1: Data Check,       Operation# 46  Received.  Data: 0000100E  TID: 00  TDest: 0  TUser: 0  TLast: 0
%%         580.0 ns  Log    INFO    in transmitter_1,                Axi Stream Send.  TData: 0000100F  TStrb: 1111  TKeep: 1111  TID: 00  TDest: 0  TUser: 0  TLast: 0  Operation# 47
%%         590.0 ns  Log    PASSED  in receiver_1: Data Check,       Operation# 47  Received.  Data: 0000100F  TID: 00  TDest: 0  TUser: 0  TLast: 0
%%         590.0 ns  Log    INFO    in transmitter_1,                Axi Stream Send.  TData: 00001010  TStrb: 1111  TKeep: 1111  TID: 00  TDest: 0  TUser: 0  TLast: 0  Operation# 48
%%         600.0 ns  Log    PASSED  in receiver_1: Data Check,       Operation# 48  Received.  Data: 00001010  TID: 00  TDest: 0  TUser: 0  TLast: 0
%%         600.0 ns  Log    INFO    in transmitter_1,                Axi Stream Send.  TData: 00001011  TStrb: 1111  TKeep: 1111  TID: 00  TDest: 0  TUser: 0  TLast: 0  Operation# 49
%%         610.0 ns  Log    PASSED  in receiver_1: Data Check,       Operation# 49  Received.  Data: 00001011  TID: 00  TDest: 0  TUser: 0  TLast: 0
%%         610.0 ns  Log    INFO    in transmitter_1,                Axi Stream Send.  TData: 00001012  TStrb: 1111  TKeep: 1111  TID: 00  TDest: 0  TUser: 0  TLast: 0  Operation# 50
%%         620.0 ns  Log    PASSED  in receiver_1: Data Check,       Operation# 50  Received.  Data: 00001012  TID: 00  TDest: 0  TUser: 0  TLast: 0
%%         620.0 ns  Log    INFO    in transmitter_1,                Axi Stream Send.  TData: 00001013  TStrb: 1111  TKeep: 1111  TID: 00  TDest: 0  TUser: 0  TLast: 0  Operation# 51
%%         630.0 ns  Log    PASSED  in receiver_1: Data Check,       Operation# 51  Received.  Data: 00001013  TID: 00  TDest: 0  TUser: 0  TLast: 0
%%         630.0 ns  Log    INFO    in transmitter_1,                Axi Stream Send.  TData: 00001014  TStrb: 1111  TKeep: 1111  TID: 00  TDest: 0  TUser: 0  TLast: 0  Operation# 52
%%         640.0 ns  Log    PASSED  in receiver_1: Data Check,       Operation# 52  Received.  Data: 00001014  TID: 00  TDest: 0  TUser: 0  TLast: 0
%%         640.0 ns  Log    INFO    in transmitter_1,                Axi Stream Send.  TData: 00001015  TStrb: 1111  TKeep: 1111  TID: 00  TDest: 0  TUser: 0  TLast: 0  Operation# 53
%%         650.0 ns  Log    PASSED  in receiver_1: Data Check,       Operation# 53  Received.  Data: 00001015  TID: 00  TDest: 0  TUser: 0  TLast: 0
%%         650.0 ns  Log    INFO    in transmitter_1,                Axi Stream Send.  TData: 00001016  TStrb: 1111  TKeep: 1111  TID: 00  TDest: 0  TUser: 0  TLast: 0  Operation# 54
%%         660.0 ns  Log    PASSED  in receiver_1: Data Check,       Operation# 54  Received.  Data: 00001016  TID: 00  TDest: 0  TUser: 0  TLast: 0
%%         660.0 ns  Log    INFO    in transmitter_1,                Axi Stream Send.  TData: 00001017  TStrb: 1111  TKeep: 1111  TID: 00  TDest: 0  TUser: 0  TLast: 0  Operation# 55
%%         670.0 ns  Log    PASSED  in receiver_1: Data Check,       Operation# 55  Received.  Data: 00001017  TID: 00  TDest: 0  TUser: 0  TLast: 0
%%         670.0 ns  Log    INFO    in transmitter_1,                Axi Stream Send.  TData: 00001018  TStrb: 1111  TKeep: 1111  TID: 00  TDest: 0  TUser: 0  TLast: 0  Operation# 56
%%         680.0 ns  Log    PASSED  in receiver_1: Data Check,       Operation# 56  Received.  Data: 00001018  TID: 00  TDest: 0  TUser: 0  TLast: 0
%%         680.0 ns  Log    INFO    in transmitter_1,                Axi Stream Send.  TData: 00001019  TStrb: 1111  TKeep: 1111  TID: 00  TDest: 0  TUser: 0  TLast: 0  Operation# 57
%%         690.0 ns  Log    PASSED  in receiver_1: Data Check,       Operation# 57  Received.  Data: 00001019  TID: 00  TDest: 0  TUser: 0  TLast: 0
%%         690.0 ns  Log    INFO    in transmitter_1,                Axi Stream Send.  TData: 0000101A  TStrb: 1111  TKeep: 1111  TID: 00  TDest: 0  TUser: 0  TLast: 0  Operation# 58
%%         700.0 ns  Log    PASSED  in receiver_1: Data Check,       Operation# 58  Received.  Data: 0000101A  TID: 00  TDest: 0  TUser: 0  TLast: 0
%%         700.0 ns  Log    INFO    in transmitter_1,                Axi Stream Send.  TData: 0000101B  TStrb: 1111  TKeep: 1111  TID: 00  TDest: 0  TUser: 0  TLast: 0  Operation# 59
%%         710.0 ns  Log    PASSED  in receiver_1: Data Check,       Operation# 59  Received.  Data: 0000101B  TID: 00  TDest: 0  TUser: 0  TLast: 0
%%         710.0 ns  Log    INFO    in transmitter_1,                Axi Stream Send.  TData: 0000101C  TStrb: 1111  TKeep: 1111  TID: 00  TDest: 0  TUser: 0  TLast: 0  Operation# 60
%%         720.0 ns  Log    PASSED  in receiver_1: Data Check,       Operation# 60  Received.  Data: 0000101C  TID: 00  TDest: 0  TUser: 0  TLast: 0
%%         720.0 ns  Log    INFO    in transmitter_1,                Axi Stream Send.  TData: 0000101D  TStrb: 1111  TKeep: 1111  TID: 00  TDest: 0  TUser: 0  TLast: 0  Operation# 61
%%         730.0 ns  Log    PASSED  in receiver_1: Data Check,       Operation# 61  Received.  Data: 0000101D  TID: 00  TDest: 0  TUser: 0  TLast: 0
%%         730.0 ns  Log    INFO    in transmitter_1,                Axi Stream Send.  TData: 0000101E  TStrb: 1111  TKeep: 1111  TID: 00  TDest: 0  TUser: 0  TLast: 0  Operation# 62
%%         740.0 ns  Log    PASSED  in receiver_1: Data Check,       Operation# 62  Received.  Data: 0000101E  TID: 00  TDest: 0  TUser: 0  TLast: 0
%%         740.0 ns  Log    INFO    in transmitter_1,                Axi Stream Send.  TData: 0000101F  TStrb: 1111  TKeep: 1111  TID: 00  TDest: 0  TUser: 0  TLast: 0  Operation# 63
%%         750.0 ns  Log    PASSED  in receiver_1: Data Check,       Operation# 63  Received.  Data: 0000101F  TID: 00  TDest: 0  TUser: 0  TLast: 0
%%         750.0 ns  Log    INFO    in transmitter_1,                Axi Stream Send.  TData: 00001020  TStrb: 1111  TKeep: 1111  TID: 00  TDest: 0  TUser: 0  TLast: 0  Operation# 64
%%         760.0 ns  Log    PASSED  in receiver_1: Data Check,       Operation# 64  Received.  Data: 00001020  TID: 00  TDest: 0  TUser: 0  TLast: 0
%%         770.0 ns  Log    ALWAYS  in Default,                      Send 32 word burst
%%         770.0 ns  Log    INFO    in transmitter_1,                Axi Stream Send.  TData: 00002001  TStrb: 1111  TKeep: 1111  TID: 00  TDest: 0  TUser: 0  TLast: 0  Operation# 65
%%         780.0 ns  Log    INFO    in transmitter_1,                Axi Stream Send.  TData: 00002002  TStrb: 1111  TKeep: 1111  TID: 00  TDest: 0  TUser: 0  TLast: 0  Operation# 66
%%         790.0 ns  Log    INFO    in transmitter_1,                Axi Stream Send.  TData: 00002003  TStrb: 1111  TKeep: 1111  TID: 00  TDest: 0  TUser: 0  TLast: 0  Operation# 67
%%         800.0 ns  Log    INFO    in transmitter_1,                Axi Stream Send.  TData: 00002004  TStrb: 1111  TKeep: 1111  TID: 00  TDest: 0  TUser: 0  TLast: 0  Operation# 68
%%         810.0 ns  Log    INFO    in transmitter_1,                Axi Stream Send.  TData: 00002005  TStrb: 1111  TKeep: 1111  TID: 00  TDest: 0  TUser: 0  TLast: 0  Operation# 69
%%         820.0 ns  Log    INFO    in transmitter_1,                Axi Stream Send.  TData: 00002006  TStrb: 1111  TKeep: 1111  TID: 00  TDest: 0  TUser: 0  TLast: 0  Operation# 70
%%         830.0 ns  Log    INFO    in transmitter_1,                Axi Stream Send.  TData: 00002007  TStrb: 1111  TKeep: 1111  TID: 00  TDest: 0  TUser: 0  TLast: 0  Operation# 71
%%         840.0 ns  Log    INFO    in transmitter_1,                Axi Stream Send.  TData: 00002008  TStrb: 1111  TKeep: 1111  TID: 00  TDest: 0  TUser: 0  TLast: 0  Operation# 72
%%         850.0 ns  Log    INFO    in transmitter_1,                Axi Stream Send.  TData: 00002009  TStrb: 1111  TKeep: 1111  TID: 00  TDest: 0  TUser: 0  TLast: 0  Operation# 73
%%         860.0 ns  Log    INFO    in transmitter_1,                Axi Stream Send.  TData: 0000200A  TStrb: 1111  TKeep: 1111  TID: 00  TDest: 0  TUser: 0  TLast: 0  Operation# 74
%%         870.0 ns  Log    INFO    in transmitter_1,                Axi Stream Send.  TData: 0000200B  TStrb: 1111  TKeep: 1111  TID: 00  TDest: 0  TUser: 0  TLast: 0  Operation# 75
%%         880.0 ns  Log    INFO    in transmitter_1,                Axi Stream Send.  TData: 0000200C  TStrb: 1111  TKeep: 1111  TID: 00  TDest: 0  TUser: 0  TLast: 0  Operation# 76
%%         890.0 ns  Log    INFO    in transmitter_1,                Axi Stream Send.  TData: 0000200D  TStrb: 1111  TKeep: 1111  TID: 00  TDest: 0  TUser: 0  TLast: 0  Operation# 77
%%         900.0 ns  Log    INFO    in transmitter_1,                Axi Stream Send.  TData: 0000200E  TStrb: 1111  TKeep: 1111  TID: 00  TDest: 0  TUser: 0  TLast: 0  Operation# 78
%%         910.0 ns  Log    INFO    in transmitter_1,                Axi Stream Send.  TData: 0000200F  TStrb: 1111  TKeep: 1111  TID: 00  TDest: 0  TUser: 0  TLast: 0  Operation# 79
%%         920.0 ns  Log    INFO    in transmitter_1,                Axi Stream Send.  TData: 00002010  TStrb: 1111  TKeep: 1111  TID: 00  TDest: 0  TUser: 0  TLast: 0  Operation# 80
%%         930.0 ns  Log    INFO    in transmitter_1,                Axi Stream Send.  TData: 00002011  TStrb: 1111  TKeep: 1111  TID: 00  TDest: 0  TUser: 0  TLast: 0  Operation# 81
%%         940.0 ns  Log    INFO    in transmitter_1,                Axi Stream Send.  TData: 00002012  TStrb: 1111  TKeep: 1111  TID: 00  TDest: 0  TUser: 0  TLast: 0  Operation# 82
%%         950.0 ns  Log    INFO    in transmitter_1,                Axi Stream Send.  TData: 00002013  TStrb: 1111  TKeep: 1111  TID: 00  TDest: 0  TUser: 0  TLast: 0  Operation# 83
%%         960.0 ns  Log    INFO    in transmitter_1,                Axi Stream Send.  TData: 00002014  TStrb: 1111  TKeep: 1111  TID: 00  TDest: 0  TUser: 0  TLast: 0  Operation# 84
%%         970.0 ns  Log    INFO    in transmitter_1,                Axi Stream Send.  TData: 00002015  TStrb: 1111  TKeep: 1111  TID: 00  TDest: 0  TUser: 0  TLast: 0  Operation# 85
%%         980.0 ns  Log    INFO    in transmitter_1,                Axi Stream Send.  TData: 00002016  TStrb: 1111  TKeep: 1111  TID: 00  TDest: 0  TUser: 0  TLast: 0  Operation# 86
%%         990.0 ns  Log    INFO    in transmitter_1,                Axi Stream Send.  TData: 00002017  TStrb: 1111  TKeep: 1111  TID: 00  TDest: 0  TUser: 0  TLast: 0  Operation# 87
%%        1000.0 ns  Log    INFO    in transmitter_1,                Axi Stream Send.  TData: 00002018  TStrb: 1111  TKeep: 1111  TID: 00  TDest: 0  TUser: 0  TLast: 0  Operation# 88
%%        1010.0 ns  Log    INFO    in transmitter_1,                Axi Stream Send.  TData: 00002019  TStrb: 1111  TKeep: 1111  TID: 00  TDest: 0  TUser: 0  TLast: 0  Operation# 89
%%        1020.0 ns  Log    INFO    in transmitter_1,                Axi Stream Send.  TData: 0000201A  TStrb: 1111  TKeep: 1111  TID: 00  TDest: 0  TUser: 0  TLast: 0  Operation# 90
%%        1030.0 ns  Log    INFO    in transmitter_1,                Axi Stream Send.  TData: 0000201B  TStrb: 1111  TKeep: 1111  TID: 00  TDest: 0  TUser: 0  TLast: 0  Operation# 91
%%        1040.0 ns  Log    INFO    in transmitter_1,                Axi Stream Send.  TData: 0000201C  TStrb: 1111  TKeep: 1111  TID: 00  TDest: 0  TUser: 0  TLast: 0  Operation# 92
%%        1050.0 ns  Log    INFO    in transmitter_1,                Axi Stream Send.  TData: 0000201D  TStrb: 1111  TKeep: 1111  TID: 00  TDest: 0  TUser: 0  TLast: 0  Operation# 93
%%        1060.0 ns  Log    INFO    in transmitter_1,                Axi Stream Send.  TData: 0000201E  TStrb: 1111  TKeep: 1111  TID: 00  TDest: 0  TUser: 0  TLast: 0  Operation# 94
%%        1070.0 ns  Log    INFO    in transmitter_1,                Axi Stream Send.  TData: 0000201F  TStrb: 1111  TKeep: 1111  TID: 00  TDest: 0  TUser: 0  TLast: 0  Operation# 95
%%        1080.0 ns  Log    INFO    in transmitter_1,                Axi Stream Send.  TData: 00002020  TStrb: 1111  TKeep: 1111  TID: 00  TDest: 0  TUser: 0  TLast: 1  Operation# 96
%%        1090.0 ns  Log    INFO    in receiver_1,                   Burst Receive.  Operation# 65  Last Data: 00002020  TID: 00  TDest: 0  TUser: 0  TLast: 1
%%        1090.0 ns  Log    PASSED  in Default,                      Receiver: 32 Received Received : 32
%%        1090.0 ns  Log    PASSED  in Default,                      RxData Received : 00002001
%%        1090.0 ns  Log    PASSED  in Default,                      RxData Received : 00002002
%%        1090.0 ns  Log    PASSED  in Default,                      RxData Received : 00002003
%%        1090.0 ns  Log    PASSED  in Default,                      RxData Received : 00002004
%%        1090.0 ns  Log    PASSED  in Default,                      RxData Received : 00002005
%%        1090.0 ns  Log    PASSED  in Default,                      RxData Received : 00002006
%%        1090.0 ns  Log    PASSED  in Default,                      RxData Received : 00002007
%%        1090.0 ns  Log    PASSED  in Default,                      RxData Received : 00002008
%%        1090.0 ns  Log    PASSED  in Default,                      RxData Received : 00002009
%%        1090.0 ns  Log    PASSED  in Default,                      RxData Received : 0000200A
%%        1090.0 ns  Log    PASSED  in Default,                      RxData Received : 0000200B
%%        1090.0 ns  Log    PASSED  in Default,                      RxData Received : 0000200C
%%        1090.0 ns  Log    PASSED  in Default,                      RxData Received : 0000200D
%%        1090.0 ns  Log    PASSED  in Default,                      RxData Received : 0000200E
%%        1090.0 ns  Log    PASSED  in Default,                      RxData Received : 0000200F
%%        1090.0 ns  Log    PASSED  in Default,                      RxData Received : 00002010
%%        1090.0 ns  Log    PASSED  in Default,                      RxData Received : 00002011
%%        1090.0 ns  Log    PASSED  in Default,                      RxData Received : 00002012
%%        1090.0 ns  Log    PASSED  in Default,                      RxData Received : 00002013
%%        1090.0 ns  Log    PASSED  in Default,                      RxData Received : 00002014
%%        1090.0 ns  Log    PASSED  in Default,                      RxData Received : 00002015
%%        1090.0 ns  Log    PASSED  in Default,                      RxData Received : 00002016
%%        1090.0 ns  Log    PASSED  in Default,                      RxData Received : 00002017
%%        1090.0 ns  Log    PASSED  in Default,                      RxData Received : 00002018
%%        1090.0 ns  Log    PASSED  in Default,                      RxData Received : 00002019
%%        1090.0 ns  Log    PASSED  in Default,                      RxData Received : 0000201A
%%        1090.0 ns  Log    PASSED  in Default,                      RxData Received : 0000201B
%%        1090.0 ns  Log    PASSED  in Default,                      RxData Received : 0000201C
%%        1090.0 ns  Log    PASSED  in Default,                      RxData Received : 0000201D
%%        1090.0 ns  Log    PASSED  in Default,                      RxData Received : 0000201E
%%        1090.0 ns  Log    PASSED  in Default,                      RxData Received : 0000201F
%%        1090.0 ns  Log    PASSED  in Default,                      RxData Received : 00002020
%%        1100.0 ns  Log    ALWAYS  in Default,                      Send 32 word burst
%%        1100.0 ns  Log    INFO    in transmitter_1,                Axi Stream Send.  TData: 00003001  TStrb: 1111  TKeep: 1111  TID: 00  TDest: 0  TUser: 0  TLast: 0  Operation# 97
%%        1110.0 ns  Log    INFO    in transmitter_1,                Axi Stream Send.  TData: 00003002  TStrb: 1111  TKeep: 1111  TID: 00  TDest: 0  TUser: 0  TLast: 0  Operation# 98
%%        1120.0 ns  Log    INFO    in transmitter_1,                Axi Stream Send.  TData: 00003003  TStrb: 1111  TKeep: 1111  TID: 00  TDest: 0  TUser: 0  TLast: 0  Operation# 99
%%        1130.0 ns  Log    INFO    in transmitter_1,                Axi Stream Send.  TData: 00003004  TStrb: 1111  TKeep: 1111  TID: 00  TDest: 0  TUser: 0  TLast: 0  Operation# 100
%%        1140.0 ns  Log    INFO    in transmitter_1,                Axi Stream Send.  TData: 00003005  TStrb: 1111  TKeep: 1111  TID: 00  TDest: 0  TUser: 0  TLast: 0  Operation# 101
%%        1150.0 ns  Log    INFO    in transmitter_1,                Axi Stream Send.  TData: 00003006  TStrb: 1111  TKeep: 1111  TID: 00  TDest: 0  TUser: 0  TLast: 0  Operation# 102
%%        1160.0 ns  Log    INFO    in transmitter_1,                Axi Stream Send.  TData: 00003007  TStrb: 1111  TKeep: 1111  TID: 00  TDest: 0  TUser: 0  TLast: 0  Operation# 103
%%        1170.0 ns  Log    INFO    in transmitter_1,                Axi Stream Send.  TData: 00003008  TStrb: 1111  TKeep: 1111  TID: 00  TDest: 0  TUser: 0  TLast: 0  Operation# 104
%%        1180.0 ns  Log    INFO    in transmitter_1,                Axi Stream Send.  TData: 00003009  TStrb: 1111  TKeep: 1111  TID: 00  TDest: 0  TUser: 0  TLast: 0  Operation# 105
%%        1190.0 ns  Log    INFO    in transmitter_1,                Axi Stream Send.  TData: 0000300A  TStrb: 1111  TKeep: 1111  TID: 00  TDest: 0  TUser: 0  TLast: 0  Operation# 106
%%        1200.0 ns  Log    INFO    in transmitter_1,                Axi Stream Send.  TData: 0000300B  TStrb: 1111  TKeep: 1111  TID: 00  TDest: 0  TUser: 0  TLast: 0  Operation# 107
%%        1210.0 ns  Log    INFO    in transmitter_1,                Axi Stream Send.  TData: 0000300C  TStrb: 1111  TKeep: 1111  TID: 00  TDest: 0  TUser: 0  TLast: 0  Operation# 108
%%        1220.0 ns  Log    INFO    in transmitter_1,                Axi Stream Send.  TData: 0000300D  TStrb: 1111  TKeep: 1111  TID: 00  TDest: 0  TUser: 0  TLast: 0  Operation# 109
%%        1230.0 ns  Log    INFO    in transmitter_1,                Axi Stream Send.  TData: 0000300E  TStrb: 1111  TKeep: 1111  TID: 00  TDest: 0  TUser: 0  TLast: 0  Operation# 110
%%        1240.0 ns  Log    INFO    in transmitter_1,                Axi Stream Send.  TData: 0000300F  TStrb: 1111  TKeep: 1111  TID: 00  TDest: 0  TUser: 0  TLast: 0  Operation# 111
%%        1250.0 ns  Log    INFO    in transmitter_1,                Axi Stream Send.  TData: 00003010  TStrb: 1111  TKeep: 1111  TID: 00  TDest: 0  TUser: 0  TLast: 0  Operation# 112
%%        1260.0 ns  Log    INFO    in transmitter_1,                Axi Stream Send.  TData: 00003011  TStrb: 1111  TKeep: 1111  TID: 00  TDest: 0  TUser: 0  TLast: 0  Operation# 113
%%        1270.0 ns  Log    INFO    in transmitter_1,                Axi Stream Send.  TData: 00003012  TStrb: 1111  TKeep: 1111  TID: 00  TDest: 0  TUser: 0  TLast: 0  Operation# 114
%%        1280.0 ns  Log    INFO    in transmitter_1,                Axi Stream Send.  TData: 00003013  TStrb: 1111  TKeep: 1111  TID: 00  TDest: 0  TUser: 0  TLast: 0  Operation# 115
%%        1290.0 ns  Log    INFO    in transmitter_1,                Axi Stream Send.  TData: 00003014  TStrb: 1111  TKeep: 1111  TID: 00  TDest: 0  TUser: 0  TLast: 0  Operation# 116
%%        1300.0 ns  Log    INFO    in transmitter_1,                Axi Stream Send.  TData: 00003015  TStrb: 1111  TKeep: 1111  TID: 00  TDest: 0  TUser: 0  TLast: 0  Operation# 117
%%        1310.0 ns  Log    INFO    in transmitter_1,                Axi Stream Send.  TData: 00003016  TStrb: 1111  TKeep: 1111  TID: 00  TDest: 0  TUser: 0  TLast: 0  Operation# 118
%%        1320.0 ns  Log    INFO    in transmitter_1,                Axi Stream Send.  TData: 00003017  TStrb: 1111  TKeep: 1111  TID: 00  TDest: 0  TUser: 0  TLast: 0  Operation# 119
%%        1330.0 ns  Log    INFO    in transmitter_1,                Axi Stream Send.  TData: 00003018  TStrb: 1111  TKeep: 1111  TID: 00  TDest: 0  TUser: 0  TLast: 0  Operation# 120
%%        1340.0 ns  Log    INFO    in transmitter_1,                Axi Stream Send.  TData: 00003019  TStrb: 1111  TKeep: 1111  TID: 00  TDest: 0  TUser: 0  TLast: 0  Operation# 121
%%        1350.0 ns  Log    INFO    in transmitter_1,                Axi Stream Send.  TData: 0000301A  TStrb: 1111  TKeep: 1111  TID: 00  TDest: 0  TUser: 0  TLast: 0  Operation# 122
%%        1360.0 ns  Log    INFO    in transmitter_1,                Axi Stream Send.  TData: 0000301B  TStrb: 1111  TKeep: 1111  TID: 00  TDest: 0  TUser: 0  TLast: 0  Operation# 123
%%        1370.0 ns  Log    INFO    in transmitter_1,                Axi Stream Send.  TData: 0000301C  TStrb: 1111  TKeep: 1111  TID: 00  TDest: 0  TUser: 0  TLast: 0  Operation# 124
%%        1380.0 ns  Log    INFO    in transmitter_1,                Axi Stream Send.  TData: 0000301D  TStrb: 1111  TKeep: 1111  TID: 00  TDest: 0  TUser: 0  TLast: 0  Operation# 125
%%        1390.0 ns  Log    INFO    in transmitter_1,                Axi Stream Send.  TData: 0000301E  TStrb: 1111  TKeep: 1111  TID: 00  TDest: 0  TUser: 0  TLast: 0  Operation# 126
%%        1400.0 ns  Log    INFO    in transmitter_1,                Axi Stream Send.  TData: 0000301F  TStrb: 1111  TKeep: 1111  TID: 00  TDest: 0  TUser: 0  TLast: 0  Operation# 127
%%        1410.0 ns  Log    INFO    in transmitter_1,                Axi Stream Send.  TData: 00003020  TStrb: 1111  TKeep: 1111  TID: 00  TDest: 0  TUser: 0  TLast: 1  Operation# 128
%%        1420.0 ns  Log    PASSED  in receiver_1: RxBurstFifo,      Received: 00003001   Item Number: 33
%%        1420.0 ns  Log    PASSED  in receiver_1: RxBurstFifo,      Received: 00003002   Item Number: 34
%%        1420.0 ns  Log    PASSED  in receiver_1: RxBurstFifo,      Received: 00003003   Item Number: 35
%%        1420.0 ns  Log    PASSED  in receiver_1: RxBurstFifo,      Received: 00003004   Item Number: 36
%%        1420.0 ns  Log    PASSED  in receiver_1: RxBurstFifo,      Received: 00003005   Item Number: 37
%%        1420.0 ns  Log    PASSED  in receiver_1: RxBurstFifo,      Received: 00003006   Item Number: 38
%%        1420.0 ns  Log    PASSED  in receiver_1: RxBurstFifo,      Received: 00003007   Item Number: 39
%%        1420.0 ns  Log    PASSED  in receiver_1: RxBurstFifo,      Received: 00003008   Item Number: 40
%%        1420.0 ns  Log    PASSED  in receiver_1: RxBurstFifo,      Received: 00003009   Item Number: 41
%%        1420.0 ns  Log    PASSED  in receiver_1: RxBurstFifo,      Received: 0000300A   Item Number: 42
%%        1420.0 ns  Log    PASSED  in receiver_1: RxBurstFifo,      Received: 0000300B   Item Number: 43
%%        1420.0 ns  Log    PASSED  in receiver_1: RxBurstFifo,      Received: 0000300C   Item Number: 44
%%        1420.0 ns  Log    PASSED  in receiver_1: RxBurstFifo,      Received: 0000300D   Item Number: 45
%%        1420.0 ns  Log    PASSED  in receiver_1: RxBurstFifo,      Received: 0000300E   Item Number: 46
%%        1420.0 ns  Log    PASSED  in receiver_1: RxBurstFifo,      Received: 0000300F   Item Number: 47
%%        1420.0 ns  Log    PASSED  in receiver_1: RxBurstFifo,      Received: 00003010   Item Number: 48
%%        1420.0 ns  Log    PASSED  in receiver_1: RxBurstFifo,      Received: 00003011   Item Number: 49
%%        1420.0 ns  Log    PASSED  in receiver_1: RxBurstFifo,      Received: 00003012   Item Number: 50
%%        1420.0 ns  Log    PASSED  in receiver_1: RxBurstFifo,      Received: 00003013   Item Number: 51
%%        1420.0 ns  Log    PASSED  in receiver_1: RxBurstFifo,      Received: 00003014   Item Number: 52
%%        1420.0 ns  Log    PASSED  in receiver_1: RxBurstFifo,      Received: 00003015   Item Number: 53
%%        1420.0 ns  Log    PASSED  in receiver_1: RxBurstFifo,      Received: 00003016   Item Number: 54
%%        1420.0 ns  Log    PASSED  in receiver_1: RxBurstFifo,      Received: 00003017   Item Number: 55
%%        1420.0 ns  Log    PASSED  in receiver_1: RxBurstFifo,      Received: 00003018   Item Number: 56
%%        1420.0 ns  Log    PASSED  in receiver_1: RxBurstFifo,      Received: 00003019   Item Number: 57
%%        1420.0 ns  Log    PASSED  in receiver_1: RxBurstFifo,      Received: 0000301A   Item Number: 58
%%        1420.0 ns  Log    PASSED  in receiver_1: RxBurstFifo,      Received: 0000301B   Item Number: 59
%%        1420.0 ns  Log    PASSED  in receiver_1: RxBurstFifo,      Received: 0000301C   Item Number: 60
%%        1420.0 ns  Log    PASSED  in receiver_1: RxBurstFifo,      Received: 0000301D   Item Number: 61
%%        1420.0 ns  Log    PASSED  in receiver_1: RxBurstFifo,      Received: 0000301E   Item Number: 62
%%        1420.0 ns  Log    PASSED  in receiver_1: RxBurstFifo,      Received: 0000301F   Item Number: 63
%%        1420.0 ns  Log    PASSED  in receiver_1: RxBurstFifo,      Received: 00003020   Item Number: 64
%%        1420.0 ns  Log    INFO    in receiver_1,                   Burst Check.  Operation# 66  Last Data: 00003020  TID: 00  TDest: 0  TUser: 0  TLast: 1
%%        1420.0 ns  Log    PASSED  in receiver_1,                   Burst Check WordCount Received : 32
%%        1420.0 ns  Log    PASSED  in receiver_1,                   ID Received : 00
%%        1420.0 ns  Log    PASSED  in receiver_1,                   DEST Received : 0
%%        1420.0 ns  Log    PASSED  in receiver_1,                   USER Received : 0
%%        1420.0 ns  Log    PASSED  in receiver_1,                   Last Received : 1
%%        1430.0 ns  Log    ALWAYS  in Default,                      SendBurstVector 13 word burst
%%        1430.0 ns  Log    INFO    in transmitter_1,                Axi Stream Send.  TData: 00004001  TStrb: 1111  TKeep: 1111  TID: 00  TDest: 0  TUser: 0  TLast: 0  Operation# 129
%%        1440.0 ns  Log    INFO    in transmitter_1,                Axi Stream Send.  TData: 00004003  TStrb: 1111  TKeep: 1111  TID: 00  TDest: 0  TUser: 0  TLast: 0  Operation# 130
%%        1450.0 ns  Log    INFO    in transmitter_1,                Axi Stream Send.  TData: 00004005  TStrb: 1111  TKeep: 1111  TID: 00  TDest: 0  TUser: 0  TLast: 0  Operation# 131
%%        1460.0 ns  Log    INFO    in transmitter_1,                Axi Stream Send.  TData: 00004007  TStrb: 1111  TKeep: 1111  TID: 00  TDest: 0  TUser: 0  TLast: 0  Operation# 132
%%        1470.0 ns  Log    INFO    in transmitter_1,                Axi Stream Send.  TData: 00004009  TStrb: 1111  TKeep: 1111  TID: 00  TDest: 0  TUser: 0  TLast: 0  Operation# 133
%%        1480.0 ns  Log    INFO    in transmitter_1,                Axi Stream Send.  TData: 00004011  TStrb: 1111  TKeep: 1111  TID: 00  TDest: 0  TUser: 0  TLast: 0  Operation# 134
%%        1490.0 ns  Log    INFO    in transmitter_1,                Axi Stream Send.  TData: 00004013  TStrb: 1111  TKeep: 1111  TID: 00  TDest: 0  TUser: 0  TLast: 0  Operation# 135
%%        1500.0 ns  Log    INFO    in transmitter_1,                Axi Stream Send.  TData: 00004015  TStrb: 1111  TKeep: 1111  TID: 00  TDest: 0  TUser: 0  TLast: 0  Operation# 136
%%        1510.0 ns  Log    INFO    in transmitter_1,                Axi Stream Send.  TData: 00004017  TStrb: 1111  TKeep: 1111  TID: 00  TDest: 0  TUser: 0  TLast: 0  Operation# 137
%%        1520.0 ns  Log    INFO    in transmitter_1,                Axi Stream Send.  TData: 00004019  TStrb: 1111  TKeep: 1111  TID: 00  TDest: 0  TUser: 0  TLast: 0  Operation# 138
%%        1530.0 ns  Log    INFO    in transmitter_1,                Axi Stream Send.  TData: 00004021  TStrb: 1111  TKeep: 1111  TID: 00  TDest: 0  TUser: 0  TLast: 0  Operation# 139
%%        1540.0 ns  Log    INFO    in transmitter_1,                Axi Stream Send.  TData: 00004023  TStrb: 1111  TKeep: 1111  TID: 00  TDest: 0  TUser: 0  TLast: 0  Operation# 140
%%        1550.0 ns  Log    INFO    in transmitter_1,                Axi Stream Send.  TData: 00004025  TStrb: 1111  TKeep: 1111  TID: 00  TDest: 0  TUser: 0  TLast: 1  Operation# 141
%%        1560.0 ns  Log    PASSED  in receiver_1: RxBurstFifo,      Received: 00004001   Item Number: 65
%%        1560.0 ns  Log    PASSED  in receiver_1: RxBurstFifo,      Received: 00004003   Item Number: 66
%%        1560.0 ns  Log    PASSED  in receiver_1: RxBurstFifo,      Received: 00004005   Item Number: 67
%%        1560.0 ns  Log    PASSED  in receiver_1: RxBurstFifo,      Received: 00004007   Item Number: 68
%%        1560.0 ns  Log    PASSED  in receiver_1: RxBurstFifo,      Received: 00004009   Item Number: 69
%%        1560.0 ns  Log    PASSED  in receiver_1: RxBurstFifo,      Received: 00004011   Item Number: 70
%%        1560.0 ns  Log    PASSED  in receiver_1: RxBurstFifo,      Received: 00004013   Item Number: 71
%%        1560.0 ns  Log    PASSED  in receiver_1: RxBurstFifo,      Received: 00004015   Item Number: 72
%%        1560.0 ns  Log    PASSED  in receiver_1: RxBurstFifo,      Received: 00004017   Item Number: 73
%%        1560.0 ns  Log    PASSED  in receiver_1: RxBurstFifo,      Received: 00004019   Item Number: 74
%%        1560.0 ns  Log    PASSED  in receiver_1: RxBurstFifo,      Received: 00004021   Item Number: 75
%%        1560.0 ns  Log    PASSED  in receiver_1: RxBurstFifo,      Received: 00004023   Item Number: 76
%%        1560.0 ns  Log    PASSED  in receiver_1: RxBurstFifo,      Received: 00004025   Item Number: 77
%%        1560.0 ns  Log    INFO    in receiver_1,                   Burst Check.  Operation# 67  Last Data: 00004025  TID: 00  TDest: 0  TUser: 0  TLast: 1
%%        1560.0 ns  Log    PASSED  in receiver_1,                   Burst Check WordCount Received : 13
%%        1560.0 ns  Log    PASSED  in receiver_1,                   ID Received : 00
%%        1560.0 ns  Log    PASSED  in receiver_1,                   DEST Received : 0
%%        1560.0 ns  Log    PASSED  in receiver_1,                   USER Received : 0
%%        1560.0 ns  Log    PASSED  in receiver_1,                   Last Received : 1
%%        1570.0 ns  Log    ALWAYS  in Default,                      SendBurstIncrement 16 word burst
%%        1570.0 ns  Log    INFO    in transmitter_1,                Axi Stream Send.  TData: 00005000  TStrb: 1111  TKeep: 1111  TID: 00  TDest: 0  TUser: 0  TLast: 0  Operation# 142
%%        1580.0 ns  Log    INFO    in transmitter_1,                Axi Stream Send.  TData: 00005001  TStrb: 1111  TKeep: 1111  TID: 00  TDest: 0  TUser: 0  TLast: 0  Operation# 143
%%        1590.0 ns  Log    INFO    in transmitter_1,                Axi Stream Send.  TData: 00005002  TStrb: 1111  TKeep: 1111  TID: 00  TDest: 0  TUser: 0  TLast: 0  Operation# 144
%%        1600.0 ns  Log    INFO    in transmitter_1,                Axi Stream Send.  TData: 00005003  TStrb: 1111  TKeep: 1111  TID: 00  TDest: 0  TUser: 0  TLast: 0  Operation# 145
%%        1610.0 ns  Log    INFO    in transmitter_1,                Axi Stream Send.  TData: 00005004  TStrb: 1111  TKeep: 1111  TID: 00  TDest: 0  TUser: 0  TLast: 0  Operation# 146
%%        1620.0 ns  Log    INFO    in transmitter_1,                Axi Stream Send.  TData: 00005005  TStrb: 1111  TKeep: 1111  TID: 00  TDest: 0  TUser: 0  TLast: 0  Operation# 147
%%        1630.0 ns  Log    INFO    in transmitter_1,                Axi Stream Send.  TData: 00005006  TStrb: 1111  TKeep: 1111  TID: 00  TDest: 0  TUser: 0  TLast: 0  Operation# 148
%%        1640.0 ns  Log    INFO    in transmitter_1,                Axi Stream Send.  TData: 00005007  TStrb: 1111  TKeep: 1111  TID: 00  TDest: 0  TUser: 0  TLast: 0  Operation# 149
%%        1650.0 ns  Log    INFO    in transmitter_1,                Axi Stream Send.  TData: 00005008  TStrb: 1111  TKeep: 1111  TID: 00  TDest: 0  TUser: 0  TLast: 0  Operation# 150
%%        1660.0 ns  Log    INFO    in transmitter_1,                Axi Stream Send.  TData: 00005009  TStrb: 1111  TKeep: 1111  TID: 00  TDest: 0  TUser: 0  TLast: 0  Operation# 151
%%        1670.0 ns  Log    INFO    in transmitter_1,                Axi Stream Send.  TData: 0000500A  TStrb: 1111  TKeep: 1111  TID: 00  TDest: 0  TUser: 0  TLast: 0  Operation# 152
%%        1680.0 ns  Log    INFO    in transmitter_1,                Axi Stream Send.  TData: 0000500B  TStrb: 1111  TKeep: 1111  TID: 00  TDest: 0  TUser: 0  TLast: 0  Operation# 153
%%        1690.0 ns  Log    INFO    in transmitter_1,                Axi Stream Send.  TData: 0000500C  TStrb: 1111  TKeep: 1111  TID: 00  TDest: 0  TUser: 0  TLast: 0  Operation# 154
%%        1700.0 ns  Log    INFO    in transmitter_1,                Axi Stream Send.  TData: 0000500D  TStrb: 1111  TKeep: 1111  TID: 00  TDest: 0  TUser: 0  TLast: 0  Operation# 155
%%        1710.0 ns  Log    INFO    in transmitter_1,                Axi Stream Send.  TData: 0000500E  TStrb: 1111  TKeep: 1111  TID: 00  TDest: 0  TUser: 0  TLast: 0  Operation# 156
%%        1720.0 ns  Log    INFO    in transmitter_1,                Axi Stream Send.  TData: 0000500F  TStrb: 1111  TKeep: 1111  TID: 00  TDest: 0  TUser: 0  TLast: 1  Operation# 157
%%        1730.0 ns  Log    PASSED  in receiver_1: RxBurstFifo,      Received: 00005000   Item Number: 78
%%        1730.0 ns  Log    PASSED  in receiver_1: RxBurstFifo,      Received: 00005001   Item Number: 79
%%        1730.0 ns  Log    PASSED  in receiver_1: RxBurstFifo,      Received: 00005002   Item Number: 80
%%        1730.0 ns  Log    PASSED  in receiver_1: RxBurstFifo,      Received: 00005003   Item Number: 81
%%        1730.0 ns  Log    PASSED  in receiver_1: RxBurstFifo,      Received: 00005004   Item Number: 82
%%        1730.0 ns  Log    PASSED  in receiver_1: RxBurstFifo,      Received: 00005005   Item Number: 83
%%        1730.0 ns  Log    PASSED  in receiver_1: RxBurstFifo,      Received: 00005006   Item Number: 84
%%        1730.0 ns  Log    PASSED  in receiver_1: RxBurstFifo,      Received: 00005007   Item Number: 85
%%        1730.0 ns  Log    PASSED  in receiver_1: RxBurstFifo,      Received: 00005008   Item Number: 86
%%        1730.0 ns  Log    PASSED  in receiver_1: RxBurstFifo,      Received: 00005009   Item Number: 87
%%        1730.0 ns  Log    PASSED  in receiver_1: RxBurstFifo,      Received: 0000500A   Item Number: 88
%%        1730.0 ns  Log    PASSED  in receiver_1: RxBurstFifo,      Received: 0000500B   Item Number: 89
%%        1730.0 ns  Log    PASSED  in receiver_1: RxBurstFifo,      Received: 0000500C   Item Number: 90
%%        1730.0 ns  Log    PASSED  in receiver_1: RxBurstFifo,      Received: 0000500D   Item Number: 91
%%        1730.0 ns  Log    PASSED  in receiver_1: RxBurstFifo,      Received: 0000500E   Item Number: 92
%%        1730.0 ns  Log    PASSED  in receiver_1: RxBurstFifo,      Received: 0000500F   Item Number: 93
%%        1730.0 ns  Log    INFO    in receiver_1,                   Burst Check.  Operation# 68  Last Data: 0000500F  TID: 00  TDest: 0  TUser: 0  TLast: 1
%%        1730.0 ns  Log    PASSED  in receiver_1,                   Burst Check WordCount Received : 16
%%        1730.0 ns  Log    PASSED  in receiver_1,                   ID Received : 00
%%        1730.0 ns  Log    PASSED  in receiver_1,                   DEST Received : 0
%%        1730.0 ns  Log    PASSED  in receiver_1,                   USER Received : 0
%%        1730.0 ns  Log    PASSED  in receiver_1,                   Last Received : 1
%%        1740.0 ns  Log    ALWAYS  in Default,                      SendBurstRandom 24 word burst
%%        1740.0 ns  Log    INFO    in transmitter_1,                Axi Stream Send.  TData: 00006000  TStrb: 1111  TKeep: 1111  TID: 00  TDest: 0  TUser: 0  TLast: 0  Operation# 158
%%        1750.0 ns  Log    INFO    in transmitter_1,                Axi Stream Send.  TData: 9160289B  TStrb: 1111  TKeep: 1111  TID: 00  TDest: 0  TUser: 0  TLast: 0  Operation# 159
%%        1760.0 ns  Log    INFO    in transmitter_1,                Axi Stream Send.  TData: 830A55F5  TStrb: 1111  TKeep: 1111  TID: 00  TDest: 0  TUser: 0  TLast: 0  Operation# 160
%%        1770.0 ns  Log    INFO    in transmitter_1,                Axi Stream Send.  TData: F8D3AEC0  TStrb: 1111  TKeep: 1111  TID: 00  TDest: 0  TUser: 0  TLast: 0  Operation# 161
%%        1780.0 ns  Log    INFO    in transmitter_1,                Axi Stream Send.  TData: D4F41145  TStrb: 1111  TKeep: 1111  TID: 00  TDest: 0  TUser: 0  TLast: 0  Operation# 162
%%        1790.0 ns  Log    INFO    in transmitter_1,                Axi Stream Send.  TData: 52084B38  TStrb: 1111  TKeep: 1111  TID: 00  TDest: 0  TUser: 0  TLast: 0  Operation# 163
%%        1800.0 ns  Log    INFO    in transmitter_1,                Axi Stream Send.  TData: C8636AD9  TStrb: 1111  TKeep: 1111  TID: 00  TDest: 0  TUser: 0  TLast: 0  Operation# 164
%%        1810.0 ns  Log    INFO    in transmitter_1,                Axi Stream Send.  TData: D624B1A5  TStrb: 1111  TKeep: 1111  TID: 00  TDest: 0  TUser: 0  TLast: 0  Operation# 165
%%        1820.0 ns  Log    INFO    in transmitter_1,                Axi Stream Send.  TData: 9B0B1AD7  TStrb: 1111  TKeep: 1111  TID: 00  TDest: 0  TUser: 0  TLast: 0  Operation# 166
%%        1830.0 ns  Log    INFO    in transmitter_1,                Axi Stream Send.  TData: AD636F6D  TStrb: 1111  TKeep: 1111  TID: 00  TDest: 0  TUser: 0  TLast: 0  Operation# 167
%%        1840.0 ns  Log    INFO    in transmitter_1,                Axi Stream Send.  TData: 07F8C510  TStrb: 1111  TKeep: 1111  TID: 00  TDest: 0  TUser: 0  TLast: 0  Operation# 168
%%        1850.0 ns  Log    INFO    in transmitter_1,                Axi Stream Send.  TData: 6BF7DC61  TStrb: 1111  TKeep: 1111  TID: 00  TDest: 0  TUser: 0  TLast: 0  Operation# 169
%%        1860.0 ns  Log    INFO    in transmitter_1,                Axi Stream Send.  TData: AD8E69DD  TStrb: 1111  TKeep: 1111  TID: 00  TDest: 0  TUser: 0  TLast: 0  Operation# 170
%%        1870.0 ns  Log    INFO    in transmitter_1,                Axi Stream Send.  TData: 59C51967  TStrb: 1111  TKeep: 1111  TID: 00  TDest: 0  TUser: 0  TLast: 0  Operation# 171
%%        1880.0 ns  Log    INFO    in transmitter_1,                Axi Stream Send.  TData: 2DB26897  TStrb: 1111  TKeep: 1111  TID: 00  TDest: 0  TUser: 0  TLast: 0  Operation# 172
%%        1890.0 ns  Log    INFO    in transmitter_1,                Axi Stream Send.  TData: 351DD0E5  TStrb: 1111  TKeep: 1111  TID: 00  TDest: 0  TUser: 0  TLast: 0  Operation# 173
%%        1900.0 ns  Log    INFO    in transmitter_1,                Axi Stream Send.  TData: 865656E5  TStrb: 1111  TKeep: 1111  TID: 00  TDest: 0  TUser: 0  TLast: 0  Operation# 174
%%        1910.0 ns  Log    INFO    in transmitter_1,                Axi Stream Send.  TData: 51C7ACFB  TStrb: 1111  TKeep: 1111  TID: 00  TDest: 0  TUser: 0  TLast: 0  Operation# 175
%%        1920.0 ns  Log    INFO    in transmitter_1,                Axi Stream Send.  TData: 313CBC5E  TStrb: 1111  TKeep: 1111  TID: 00  TDest: 0  TUser: 0  TLast: 0  Operation# 176
%%        1930.0 ns  Log    INFO    in transmitter_1,                Axi Stream Send.  TData: CBF1EB6B  TStrb: 1111  TKeep: 1111  TID: 00  TDest: 0  TUser: 0  TLast: 0  Operation# 177
%%        1940.0 ns  Log    INFO    in transmitter_1,                Axi Stream Send.  TData: BA0C0B00  TStrb: 1111  TKeep: 1111  TID: 00  TDest: 0  TUser: 0  TLast: 0  Operation# 178
%%        1950.0 ns  Log    INFO    in transmitter_1,                Axi Stream Send.  TData: C516E9EE  TStrb: 1111  TKeep: 1111  TID: 00  TDest: 0  TUser: 0  TLast: 0  Operation# 179
%%        1960.0 ns  Log    INFO    in transmitter_1,                Axi Stream Send.  TData: 1CCB73E3  TStrb: 1111  TKeep: 1111  TID: 00  TDest: 0  TUser: 0  TLast: 0  Operation# 180
%%        1970.0 ns  Log    INFO    in transmitter_1,                Axi Stream Send.  TData: 2A0AF428  TStrb: 1111  TKeep: 1111  TID: 00  TDest: 0  TUser: 0  TLast: 1  Operation# 181
%%        1980.0 ns  Log    PASSED  in receiver_1: RxBurstFifo,      Received: 00006000   Item Number: 94
%%        1980.0 ns  Log    PASSED  in receiver_1: RxBurstFifo,      Received: 9160289B   Item Number: 95
%%        1980.0 ns  Log    PASSED  in receiver_1: RxBurstFifo,      Received: 830A55F5   Item Number: 96
%%        1980.0 ns  Log    PASSED  in receiver_1: RxBurstFifo,      Received: F8D3AEC0   Item Number: 97
%%        1980.0 ns  Log    PASSED  in receiver_1: RxBurstFifo,      Received: D4F41145   Item Number: 98
%%        1980.0 ns  Log    PASSED  in receiver_1: RxBurstFifo,      Received: 52084B38   Item Number: 99
%%        1980.0 ns  Log    PASSED  in receiver_1: RxBurstFifo,      Received: C8636AD9   Item Number: 100
%%        1980.0 ns  Log    PASSED  in receiver_1: RxBurstFifo,      Received: D624B1A5   Item Number: 101
%%        1980.0 ns  Log    PASSED  in receiver_1: RxBurstFifo,      Received: 9B0B1AD7   Item Number: 102
%%        1980.0 ns  Log    PASSED  in receiver_1: RxBurstFifo,      Received: AD636F6D   Item Number: 103
%%        1980.0 ns  Log    PASSED  in receiver_1: RxBurstFifo,      Received: 07F8C510   Item Number: 104
%%        1980.0 ns  Log    PASSED  in receiver_1: RxBurstFifo,      Received: 6BF7DC61   Item Number: 105
%%        1980.0 ns  Log    PASSED  in receiver_1: RxBurstFifo,      Received: AD8E69DD   Item Number: 106
%%        1980.0 ns  Log    PASSED  in receiver_1: RxBurstFifo,      Received: 59C51967   Item Number: 107
%%        1980.0 ns  Log    PASSED  in receiver_1: RxBurstFifo,      Received: 2DB26897   Item Number: 108
%%        1980.0 ns  Log    PASSED  in receiver_1: RxBurstFifo,      Received: 351DD0E5   Item Number: 109
%%        1980.0 ns  Log    PASSED  in receiver_1: RxBurstFifo,      Received: 865656E5   Item Number: 110
%%        1980.0 ns  Log    PASSED  in receiver_1: RxBurstFifo,      Received: 51C7ACFB   Item Number: 111
%%        1980.0 ns  Log    PASSED  in receiver_1: RxBurstFifo,      Received: 313CBC5E   Item Number: 112
%%        1980.0 ns  Log    PASSED  in receiver_1: RxBurstFifo,      Received: CBF1EB6B   Item Number: 113
%%        1980.0 ns  Log    PASSED  in receiver_1: RxBurstFifo,      Received: BA0C0B00   Item Number: 114
%%        1980.0 ns  Log    PASSED  in receiver_1: RxBurstFifo,      Received: C516E9EE   Item Number: 115
%%        1980.0 ns  Log    PASSED  in receiver_1: RxBurstFifo,      Received: 1CCB73E3   Item Number: 116
%%        1980.0 ns  Log    PASSED  in receiver_1: RxBurstFifo,      Received: 2A0AF428   Item Number: 117
%%        1980.0 ns  Log    INFO    in receiver_1,                   Burst Check.  Operation# 69  Last Data: 2A0AF428  TID: 00  TDest: 0  TUser: 0  TLast: 1
%%        1980.0 ns  Log    PASSED  in receiver_1,                   Burst Check WordCount Received : 24
%%        1980.0 ns  Log    PASSED  in receiver_1,                   ID Received : 00
%%        1980.0 ns  Log    PASSED  in receiver_1,                   DEST Received : 0
%%        1980.0 ns  Log    PASSED  in receiver_1,                   USER Received : 0
%%        1980.0 ns  Log    PASSED  in receiver_1,                   Last Received : 1
%%        1990.0 ns  Log    ALWAYS  in Default,                      SendBurstRandom 42 word burst
%%        1990.0 ns  Log    INFO    in transmitter_1,                Axi Stream Send.  TData: 00007014  TStrb: 1111  TKeep: 1111  TID: 00  TDest: 0  TUser: 0  TLast: 0  Operation# 182
%%        2000.0 ns  Log    INFO    in transmitter_1,                Axi Stream Send.  TData: 00007001  TStrb: 1111  TKeep: 1111  TID: 00  TDest: 0  TUser: 0  TLast: 0  Operation# 183
%%        2010.0 ns  Log    INFO    in transmitter_1,                Axi Stream Send.  TData: 00007010  TStrb: 1111  TKeep: 1111  TID: 00  TDest: 0  TUser: 0  TLast: 0  Operation# 184
%%        2020.0 ns  Log    INFO    in transmitter_1,                Axi Stream Send.  TData: 00007033  TStrb: 1111  TKeep: 1111  TID: 00  TDest: 0  TUser: 0  TLast: 0  Operation# 185
%%        2030.0 ns  Log    INFO    in transmitter_1,                Axi Stream Send.  TData: 00007012  TStrb: 1111  TKeep: 1111  TID: 00  TDest: 0  TUser: 0  TLast: 0  Operation# 186
%%        2040.0 ns  Log    INFO    in transmitter_1,                Axi Stream Send.  TData: 00007011  TStrb: 1111  TKeep: 1111  TID: 00  TDest: 0  TUser: 0  TLast: 0  Operation# 187
%%        2050.0 ns  Log    INFO    in transmitter_1,                Axi Stream Send.  TData: 00007002  TStrb: 1111  TKeep: 1111  TID: 00  TDest: 0  TUser: 0  TLast: 0  Operation# 188
%%        2060.0 ns  Log    INFO    in transmitter_1,                Axi Stream Send.  TData: 00007005  TStrb: 1111  TKeep: 1111  TID: 00  TDest: 0  TUser: 0  TLast: 0  Operation# 189
%%        2070.0 ns  Log    INFO    in transmitter_1,                Axi Stream Send.  TData: 00007026  TStrb: 1111  TKeep: 1111  TID: 00  TDest: 0  TUser: 0  TLast: 0  Operation# 190
%%        2080.0 ns  Log    INFO    in transmitter_1,                Axi Stream Send.  TData: 00007016  TStrb: 1111  TKeep: 1111  TID: 00  TDest: 0  TUser: 0  TLast: 0  Operation# 191
%%        2090.0 ns  Log    INFO    in transmitter_1,                Axi Stream Send.  TData: 00007007  TStrb: 1111  TKeep: 1111  TID: 00  TDest: 0  TUser: 0  TLast: 0  Operation# 192
%%        2100.0 ns  Log    INFO    in transmitter_1,                Axi Stream Send.  TData: 00007021  TStrb: 1111  TKeep: 1111  TID: 00  TDest: 0  TUser: 0  TLast: 0  Operation# 193
%%        2110.0 ns  Log    INFO    in transmitter_1,                Axi Stream Send.  TData: 00007032  TStrb: 1111  TKeep: 1111  TID: 00  TDest: 0  TUser: 0  TLast: 0  Operation# 194
%%        2120.0 ns  Log    INFO    in transmitter_1,                Axi Stream Send.  TData: 00007031  TStrb: 1111  TKeep: 1111  TID: 00  TDest: 0  TUser: 0  TLast: 0  Operation# 195
%%        2130.0 ns  Log    INFO    in transmitter_1,                Axi Stream Send.  TData: 00007017  TStrb: 1111  TKeep: 1111  TID: 00  TDest: 0  TUser: 0  TLast: 0  Operation# 196
%%        2140.0 ns  Log    INFO    in transmitter_1,                Axi Stream Send.  TData: 00007000  TStrb: 1111  TKeep: 1111  TID: 00  TDest: 0  TUser: 0  TLast: 0  Operation# 197
%%        2150.0 ns  Log    INFO    in transmitter_1,                Axi Stream Send.  TData: 00007034  TStrb: 1111  TKeep: 1111  TID: 00  TDest: 0  TUser: 0  TLast: 0  Operation# 198
%%        2160.0 ns  Log    INFO    in transmitter_1,                Axi Stream Send.  TData: 00007006  TStrb: 1111  TKeep: 1111  TID: 00  TDest: 0  TUser: 0  TLast: 0  Operation# 199
%%        2170.0 ns  Log    INFO    in transmitter_1,                Axi Stream Send.  TData: 00007013  TStrb: 1111  TKeep: 1111  TID: 00  TDest: 0  TUser: 0  TLast: 0  Operation# 200
%%        2180.0 ns  Log    INFO    in transmitter_1,                Axi Stream Send.  TData: 00007004  TStrb: 1111  TKeep: 1111  TID: 00  TDest: 0  TUser: 0  TLast: 0  Operation# 201
%%        2190.0 ns  Log    INFO    in transmitter_1,                Axi Stream Send.  TData: 00007022  TStrb: 1111  TKeep: 1111  TID: 00  TDest: 0  TUser: 0  TLast: 0  Operation# 202
%%        2200.0 ns  Log    INFO    in transmitter_1,                Axi Stream Send.  TData: 00007027  TStrb: 1111  TKeep: 1111  TID: 00  TDest: 0  TUser: 0  TLast: 0  Operation# 203
%%        2210.0 ns  Log    INFO    in transmitter_1,                Axi Stream Send.  TData: 00007030  TStrb: 1111  TKeep: 1111  TID: 00  TDest: 0  TUser: 0  TLast: 0  Operation# 204
%%        2220.0 ns  Log    INFO    in transmitter_1,                Axi Stream Send.  TData: 00007037  TStrb: 1111  TKeep: 1111  TID: 00  TDest: 0  TUser: 0  TLast: 0  Operation# 205
%%        2230.0 ns  Log    INFO    in transmitter_1,                Axi Stream Send.  TData: 00007035  TStrb: 1111  TKeep: 1111  TID: 00  TDest: 0  TUser: 0  TLast: 0  Operation# 206
%%        2240.0 ns  Log    INFO    in transmitter_1,                Axi Stream Send.  TData: 00007024  TStrb: 1111  TKeep: 1111  TID: 00  TDest: 0  TUser: 0  TLast: 0  Operation# 207
%%        2250.0 ns  Log    INFO    in transmitter_1,                Axi Stream Send.  TData: 00007003  TStrb: 1111  TKeep: 1111  TID: 00  TDest: 0  TUser: 0  TLast: 0  Operation# 208
%%        2260.0 ns  Log    INFO    in transmitter_1,                Axi Stream Send.  TData: 00007025  TStrb: 1111  TKeep: 1111  TID: 00  TDest: 0  TUser: 0  TLast: 0  Operation# 209
%%        2270.0 ns  Log    INFO    in transmitter_1,                Axi Stream Send.  TData: 00007036  TStrb: 1111  TKeep: 1111  TID: 00  TDest: 0  TUser: 0  TLast: 0  Operation# 210
%%        2280.0 ns  Log    INFO    in transmitter_1,                Axi Stream Send.  TData: 00007023  TStrb: 1111  TKeep: 1111  TID: 00  TDest: 0  TUser: 0  TLast: 0  Operation# 211
%%        2290.0 ns  Log    INFO    in transmitter_1,                Axi Stream Send.  TData: 00007015  TStrb: 1111  TKeep: 1111  TID: 00  TDest: 0  TUser: 0  TLast: 0  Operation# 212
%%        2300.0 ns  Log    INFO    in transmitter_1,                Axi Stream Send.  TData: 00007020  TStrb: 1111  TKeep: 1111  TID: 00  TDest: 0  TUser: 0  TLast: 0  Operation# 213
%%        2310.0 ns  Log    INFO    in transmitter_1,                Axi Stream Send.  TData: 00007013  TStrb: 1111  TKeep: 1111  TID: 00  TDest: 0  TUser: 0  TLast: 0  Operation# 214
%%        2320.0 ns  Log    INFO    in transmitter_1,                Axi Stream Send.  TData: 00007037  TStrb: 1111  TKeep: 1111  TID: 00  TDest: 0  TUser: 0  TLast: 0  Operation# 215
%%        2330.0 ns  Log    INFO    in transmitter_1,                Axi Stream Send.  TData: 00007010  TStrb: 1111  TKeep: 1111  TID: 00  TDest: 0  TUser: 0  TLast: 0  Operation# 216
%%        2340.0 ns  Log    INFO    in transmitter_1,                Axi Stream Send.  TData: 00007025  TStrb: 1111  TKeep: 1111  TID: 00  TDest: 0  TUser: 0  TLast: 0  Operation# 217
%%        2350.0 ns  Log    INFO    in transmitter_1,                Axi Stream Send.  TData: 00007025  TStrb: 1111  TKeep: 1111  TID: 00  TDest: 0  TUser: 0  TLast: 0  Operation# 218
%%        2360.0 ns  Log    INFO    in transmitter_1,                Axi Stream Send.  TData: 00007010  TStrb: 1111  TKeep: 1111  TID: 00  TDest: 0  TUser: 0  TLast: 0  Operation# 219
%%        2370.0 ns  Log    INFO    in transmitter_1,                Axi Stream Send.  TData: 00007017  TStrb: 1111  TKeep: 1111  TID: 00  TDest: 0  TUser: 0  TLast: 0  Operation# 220
%%        2380.0 ns  Log    INFO    in transmitter_1,                Axi Stream Send.  TData: 00007025  TStrb: 1111  TKeep: 1111  TID: 00  TDest: 0  TUser: 0  TLast: 0  Operation# 221
%%        2390.0 ns  Log    INFO    in transmitter_1,                Axi Stream Send.  TData: 00007026  TStrb: 1111  TKeep: 1111  TID: 00  TDest: 0  TUser: 0  TLast: 0  Operation# 222
%%        2400.0 ns  Log    INFO    in transmitter_1,                Axi Stream Send.  TData: 00007011  TStrb: 1111  TKeep: 1111  TID: 00  TDest: 0  TUser: 0  TLast: 1  Operation# 223
%%        2410.0 ns  Log    PASSED  in receiver_1: RxBurstFifo,      Received: 00007014   Item Number: 118
%%        2410.0 ns  Log    PASSED  in receiver_1: RxBurstFifo,      Received: 00007001   Item Number: 119
%%        2410.0 ns  Log    PASSED  in receiver_1: RxBurstFifo,      Received: 00007010   Item Number: 120
%%        2410.0 ns  Log    PASSED  in receiver_1: RxBurstFifo,      Received: 00007033   Item Number: 121
%%        2410.0 ns  Log    PASSED  in receiver_1: RxBurstFifo,      Received: 00007012   Item Number: 122
%%        2410.0 ns  Log    PASSED  in receiver_1: RxBurstFifo,      Received: 00007011   Item Number: 123
%%        2410.0 ns  Log    PASSED  in receiver_1: RxBurstFifo,      Received: 00007002   Item Number: 124
%%        2410.0 ns  Log    PASSED  in receiver_1: RxBurstFifo,      Received: 00007005   Item Number: 125
%%        2410.0 ns  Log    PASSED  in receiver_1: RxBurstFifo,      Received: 00007026   Item Number: 126
%%        2410.0 ns  Log    PASSED  in receiver_1: RxBurstFifo,      Received: 00007016   Item Number: 127
%%        2410.0 ns  Log    PASSED  in receiver_1: RxBurstFifo,      Received: 00007007   Item Number: 128
%%        2410.0 ns  Log    PASSED  in receiver_1: RxBurstFifo,      Received: 00007021   Item Number: 129
%%        2410.0 ns  Log    PASSED  in receiver_1: RxBurstFifo,      Received: 00007032   Item Number: 130
%%        2410.0 ns  Log    PASSED  in receiver_1: RxBurstFifo,      Received: 00007031   Item Number: 131
%%        2410.0 ns  Log    PASSED  in receiver_1: RxBurstFifo,      Received: 00007017   Item Number: 132
%%        2410.0 ns  Log    PASSED  in receiver_1: RxBurstFifo,      Received: 00007000   Item Number: 133
%%        2410.0 ns  Log    PASSED  in receiver_1: RxBurstFifo,      Received: 00007034   Item Number: 134
%%        2410.0 ns  Log    PASSED  in receiver_1: RxBurstFifo,      Received: 00007006   Item Number: 135
%%        2410.0 ns  Log    PASSED  in receiver_1: RxBurstFifo,      Received: 00007013   Item Number: 136
%%        2410.0 ns  Log    PASSED  in receiver_1: RxBurstFifo,      Received: 00007004   Item Number: 137
%%        2410.0 ns  Log    PASSED  in receiver_1: RxBurstFifo,      Received: 00007022   Item Number: 138
%%        2410.0 ns  Log    PASSED  in receiver_1: RxBurstFifo,      Received: 00007027   Item Number: 139
%%        2410.0 ns  Log    PASSED  in receiver_1: RxBurstFifo,      Received: 00007030   Item Number: 140
%%        2410.0 ns  Log    PASSED  in receiver_1: RxBurstFifo,      Received: 00007037   Item Number: 141
%%        2410.0 ns  Log    PASSED  in receiver_1: RxBurstFifo,      Received: 00007035   Item Number: 142
%%        2410.0 ns  Log    PASSED  in receiver_1: RxBurstFifo,      Received: 00007024   Item Number: 143
%%        2410.0 ns  Log    PASSED  in receiver_1: RxBurstFifo,      Received: 00007003   Item Number: 144
%%        2410.0 ns  Log    PASSED  in receiver_1: RxBurstFifo,      Received: 00007025   Item Number: 145
%%        2410.0 ns  Log    PASSED  in receiver_1: RxBurstFifo,      Received: 00007036   Item Number: 146
%%        2410.0 ns  Log    PASSED  in receiver_1: RxBurstFifo,      Received: 00007023   Item Number: 147
%%        2410.0 ns  Log    PASSED  in receiver_1: RxBurstFifo,      Received: 00007015   Item Number: 148
%%        2410.0 ns  Log    PASSED  in receiver_1: RxBurstFifo,      Received: 00007020   Item Number: 149
%%        2410.0 ns  Log    PASSED  in receiver_1: RxBurstFifo,      Received: 00007013   Item Number: 150
%%        2410.0 ns  Log    PASSED  in receiver_1: RxBurstFifo,      Received: 00007037   Item Number: 151
%%        2410.0 ns  Log    PASSED  in receiver_1: RxBurstFifo,      Received: 00007010   Item Number: 152
%%        2410.0 ns  Log    PASSED  in receiver_1: RxBurstFifo,      Received: 00007025   Item Number: 153
%%        2410.0 ns  Log    PASSED  in receiver_1: RxBurstFifo,      Received: 00007025   Item Number: 154
%%        2410.0 ns  Log    PASSED  in receiver_1: RxBurstFifo,      Received: 00007010   Item Number: 155
%%        2410.0 ns  Log    PASSED  in receiver_1: RxBurstFifo,      Received: 00007017   Item Number: 156
%%        2410.0 ns  Log    PASSED  in receiver_1: RxBurstFifo,      Received: 00007025   Item Number: 157
%%        2410.0 ns  Log    PASSED  in receiver_1: RxBurstFifo,      Received: 00007026   Item Number: 158
%%        2410.0 ns  Log    PASSED  in receiver_1: RxBurstFifo,      Received: 00007011   Item Number: 159
%%        2410.0 ns  Log    INFO    in receiver_1,                   Burst Check.  Operation# 70  Last Data: 00007011  TID: 00  TDest: 0  TUser: 0  TLast: 1
%%        2410.0 ns  Log    PASSED  in receiver_1,                   Burst Check WordCount Received : 42
%%        2410.0 ns  Log    PASSED  in receiver_1,                   ID Received : 00
%%        2410.0 ns  Log    PASSED  in receiver_1,                   DEST Received : 0
%%        2410.0 ns  Log    PASSED  in receiver_1,                   USER Received : 0
%%        2410.0 ns  Log    PASSED  in receiver_1,                   Last Received : 1
%%        2420.0 ns  Log    ALWAYS  in Default,                      Combining Patterns:  Vector, Increment, Random, Intelligent Coverage
%%        2420.0 ns  Log    INFO    in transmitter_1,                Axi Stream Send.  TData: 0000A001  TStrb: 1111  TKeep: 1111  TID: 00  TDest: 0  TUser: 0  TLast: 0  Operation# 224
%%        2430.0 ns  Log    INFO    in transmitter_1,                Axi Stream Send.  TData: 0000A003  TStrb: 1111  TKeep: 1111  TID: 00  TDest: 0  TUser: 0  TLast: 0  Operation# 225
%%        2440.0 ns  Log    INFO    in transmitter_1,                Axi Stream Send.  TData: 0000A005  TStrb: 1111  TKeep: 1111  TID: 00  TDest: 0  TUser: 0  TLast: 0  Operation# 226
%%        2450.0 ns  Log    INFO    in transmitter_1,                Axi Stream Send.  TData: 0000A007  TStrb: 1111  TKeep: 1111  TID: 00  TDest: 0  TUser: 0  TLast: 0  Operation# 227
%%        2460.0 ns  Log    INFO    in transmitter_1,                Axi Stream Send.  TData: 0000A009  TStrb: 1111  TKeep: 1111  TID: 00  TDest: 0  TUser: 0  TLast: 0  Operation# 228
%%        2470.0 ns  Log    INFO    in transmitter_1,                Axi Stream Send.  TData: 0000A011  TStrb: 1111  TKeep: 1111  TID: 00  TDest: 0  TUser: 0  TLast: 0  Operation# 229
%%        2480.0 ns  Log    INFO    in transmitter_1,                Axi Stream Send.  TData: 0000A013  TStrb: 1111  TKeep: 1111  TID: 00  TDest: 0  TUser: 0  TLast: 0  Operation# 230
%%        2490.0 ns  Log    INFO    in transmitter_1,                Axi Stream Send.  TData: 0000A015  TStrb: 1111  TKeep: 1111  TID: 00  TDest: 0  TUser: 0  TLast: 0  Operation# 231
%%        2500.0 ns  Log    INFO    in transmitter_1,                Axi Stream Send.  TData: 0000A017  TStrb: 1111  TKeep: 1111  TID: 00  TDest: 0  TUser: 0  TLast: 0  Operation# 232
%%        2510.0 ns  Log    INFO    in transmitter_1,                Axi Stream Send.  TData: 0000A019  TStrb: 1111  TKeep: 1111  TID: 00  TDest: 0  TUser: 0  TLast: 0  Operation# 233
%%        2520.0 ns  Log    INFO    in transmitter_1,                Axi Stream Send.  TData: 0000A100  TStrb: 1111  TKeep: 1111  TID: 00  TDest: 0  TUser: 0  TLast: 0  Operation# 234
%%        2530.0 ns  Log    INFO    in transmitter_1,                Axi Stream Send.  TData: 0000A101  TStrb: 1111  TKeep: 1111  TID: 00  TDest: 0  TUser: 0  TLast: 0  Operation# 235
%%        2540.0 ns  Log    INFO    in transmitter_1,                Axi Stream Send.  TData: 0000A102  TStrb: 1111  TKeep: 1111  TID: 00  TDest: 0  TUser: 0  TLast: 0  Operation# 236
%%        2550.0 ns  Log    INFO    in transmitter_1,                Axi Stream Send.  TData: 0000A103  TStrb: 1111  TKeep: 1111  TID: 00  TDest: 0  TUser: 0  TLast: 0  Operation# 237
%%        2560.0 ns  Log    INFO    in transmitter_1,                Axi Stream Send.  TData: 0000A104  TStrb: 1111  TKeep: 1111  TID: 00  TDest: 0  TUser: 0  TLast: 0  Operation# 238
%%        2570.0 ns  Log    INFO    in transmitter_1,                Axi Stream Send.  TData: 0000A105  TStrb: 1111  TKeep: 1111  TID: 00  TDest: 0  TUser: 0  TLast: 0  Operation# 239
%%        2580.0 ns  Log    INFO    in transmitter_1,                Axi Stream Send.  TData: 0000A106  TStrb: 1111  TKeep: 1111  TID: 00  TDest: 0  TUser: 0  TLast: 0  Operation# 240
%%        2590.0 ns  Log    INFO    in transmitter_1,                Axi Stream Send.  TData: 0000A107  TStrb: 1111  TKeep: 1111  TID: 00  TDest: 0  TUser: 0  TLast: 0  Operation# 241
%%        2600.0 ns  Log    INFO    in transmitter_1,                Axi Stream Send.  TData: 0000A108  TStrb: 1111  TKeep: 1111  TID: 00  TDest: 0  TUser: 0  TLast: 0  Operation# 242
%%        2610.0 ns  Log    INFO    in transmitter_1,                Axi Stream Send.  TData: 0000A109  TStrb: 1111  TKeep: 1111  TID: 00  TDest: 0  TUser: 0  TLast: 0  Operation# 243
%%        2620.0 ns  Log    INFO    in transmitter_1,                Axi Stream Send.  TData: 0000A200  TStrb: 1111  TKeep: 1111  TID: 00  TDest: 0  TUser: 0  TLast: 0  Operation# 244
%%        2630.0 ns  Log    INFO    in transmitter_1,                Axi Stream Send.  TData: B6B01DB7  TStrb: 1111  TKeep: 1111  TID: 00  TDest: 0  TUser: 0  TLast: 0  Operation# 245
%%        2640.0 ns  Log    INFO    in transmitter_1,                Axi Stream Send.  TData: ACD93B8C  TStrb: 1111  TKeep: 1111  TID: 00  TDest: 0  TUser: 0  TLast: 0  Operation# 246
%%        2650.0 ns  Log    INFO    in transmitter_1,                Axi Stream Send.  TData: C8605A86  TStrb: 1111  TKeep: 1111  TID: 00  TDest: 0  TUser: 0  TLast: 0  Operation# 247
%%        2660.0 ns  Log    INFO    in transmitter_1,                Axi Stream Send.  TData: 2C10B375  TStrb: 1111  TKeep: 1111  TID: 00  TDest: 0  TUser: 0  TLast: 0  Operation# 248
%%        2670.0 ns  Log    INFO    in transmitter_1,                Axi Stream Send.  TData: D13FE523  TStrb: 1111  TKeep: 1111  TID: 00  TDest: 0  TUser: 0  TLast: 0  Operation# 249
%%        2680.0 ns  Log    INFO    in transmitter_1,                Axi Stream Send.  TData: 0000A014  TStrb: 1111  TKeep: 1111  TID: 00  TDest: 0  TUser: 0  TLast: 0  Operation# 250
%%        2690.0 ns  Log    INFO    in transmitter_1,                Axi Stream Send.  TData: 0000A001  TStrb: 1111  TKeep: 1111  TID: 00  TDest: 0  TUser: 0  TLast: 0  Operation# 251
%%        2700.0 ns  Log    INFO    in transmitter_1,                Axi Stream Send.  TData: 0000A010  TStrb: 1111  TKeep: 1111  TID: 00  TDest: 0  TUser: 0  TLast: 0  Operation# 252
%%        2710.0 ns  Log    INFO    in transmitter_1,                Axi Stream Send.  TData: 0000A033  TStrb: 1111  TKeep: 1111  TID: 00  TDest: 0  TUser: 0  TLast: 0  Operation# 253
%%        2720.0 ns  Log    INFO    in transmitter_1,                Axi Stream Send.  TData: 0000A012  TStrb: 1111  TKeep: 1111  TID: 00  TDest: 0  TUser: 0  TLast: 0  Operation# 254
%%        2730.0 ns  Log    INFO    in transmitter_1,                Axi Stream Send.  TData: 0000A011  TStrb: 1111  TKeep: 1111  TID: 00  TDest: 0  TUser: 0  TLast: 0  Operation# 255
%%        2740.0 ns  Log    INFO    in transmitter_1,                Axi Stream Send.  TData: 0000A002  TStrb: 1111  TKeep: 1111  TID: 00  TDest: 0  TUser: 0  TLast: 0  Operation# 256
%%        2750.0 ns  Log    INFO    in transmitter_1,                Axi Stream Send.  TData: 0000A005  TStrb: 1111  TKeep: 1111  TID: 00  TDest: 0  TUser: 0  TLast: 0  Operation# 257
%%        2760.0 ns  Log    INFO    in transmitter_1,                Axi Stream Send.  TData: 0000A026  TStrb: 1111  TKeep: 1111  TID: 00  TDest: 0  TUser: 0  TLast: 0  Operation# 258
%%        2770.0 ns  Log    INFO    in transmitter_1,                Axi Stream Send.  TData: 0000A016  TStrb: 1111  TKeep: 1111  TID: 00  TDest: 0  TUser: 0  TLast: 0  Operation# 259
%%        2780.0 ns  Log    INFO    in transmitter_1,                Axi Stream Send.  TData: 0000A007  TStrb: 1111  TKeep: 1111  TID: 00  TDest: 0  TUser: 0  TLast: 0  Operation# 260
%%        2790.0 ns  Log    INFO    in transmitter_1,                Axi Stream Send.  TData: 0000A021  TStrb: 1111  TKeep: 1111  TID: 00  TDest: 0  TUser: 0  TLast: 0  Operation# 261
%%        2800.0 ns  Log    INFO    in transmitter_1,                Axi Stream Send.  TData: 0000A032  TStrb: 1111  TKeep: 1111  TID: 00  TDest: 0  TUser: 0  TLast: 0  Operation# 262
%%        2810.0 ns  Log    INFO    in transmitter_1,                Axi Stream Send.  TData: 0000A031  TStrb: 1111  TKeep: 1111  TID: 00  TDest: 0  TUser: 0  TLast: 0  Operation# 263
%%        2820.0 ns  Log    INFO    in transmitter_1,                Axi Stream Send.  TData: 0000A017  TStrb: 1111  TKeep: 1111  TID: 00  TDest: 0  TUser: 0  TLast: 0  Operation# 264
%%        2830.0 ns  Log    INFO    in transmitter_1,                Axi Stream Send.  TData: 0000A000  TStrb: 1111  TKeep: 1111  TID: 00  TDest: 0  TUser: 0  TLast: 1  Operation# 265
%%        2840.0 ns  Log    PASSED  in receiver_1: RxBurstFifo,      Received: 0000A001   Item Number: 160
%%        2840.0 ns  Log    PASSED  in receiver_1: RxBurstFifo,      Received: 0000A003   Item Number: 161
%%        2840.0 ns  Log    PASSED  in receiver_1: RxBurstFifo,      Received: 0000A005   Item Number: 162
%%        2840.0 ns  Log    PASSED  in receiver_1: RxBurstFifo,      Received: 0000A007   Item Number: 163
%%        2840.0 ns  Log    PASSED  in receiver_1: RxBurstFifo,      Received: 0000A009   Item Number: 164
%%        2840.0 ns  Log    PASSED  in receiver_1: RxBurstFifo,      Received: 0000A011   Item Number: 165
%%        2840.0 ns  Log    PASSED  in receiver_1: RxBurstFifo,      Received: 0000A013   Item Number: 166
%%        2840.0 ns  Log    PASSED  in receiver_1: RxBurstFifo,      Received: 0000A015   Item Number: 167
%%        2840.0 ns  Log    PASSED  in receiver_1: RxBurstFifo,      Received: 0000A017   Item Number: 168
%%        2840.0 ns  Log    PASSED  in receiver_1: RxBurstFifo,      Received: 0000A019   Item Number: 169
%%        2840.0 ns  Log    PASSED  in receiver_1: RxBurstFifo,      Received: 0000A100   Item Number: 170
%%        2840.0 ns  Log    PASSED  in receiver_1: RxBurstFifo,      Received: 0000A101   Item Number: 171
%%        2840.0 ns  Log    PASSED  in receiver_1: RxBurstFifo,      Received: 0000A102   Item Number: 172
%%        2840.0 ns  Log    PASSED  in receiver_1: RxBurstFifo,      Received: 0000A103   Item Number: 173
%%        2840.0 ns  Log    PASSED  in receiver_1: RxBurstFifo,      Received: 0000A104   Item Number: 174
%%        2840.0 ns  Log    PASSED  in receiver_1: RxBurstFifo,      Received: 0000A105   Item Number: 175
%%        2840.0 ns  Log    PASSED  in receiver_1: RxBurstFifo,      Received: 0000A106   Item Number: 176
%%        2840.0 ns  Log    PASSED  in receiver_1: RxBurstFifo,      Received: 0000A107   Item Number: 177
%%        2840.0 ns  Log    PASSED  in receiver_1: RxBurstFifo,      Received: 0000A108   Item Number: 178
%%        2840.0 ns  Log    PASSED  in receiver_1: RxBurstFifo,      Received: 0000A109   Item Number: 179
%%        2840.0 ns  Log    PASSED  in receiver_1: RxBurstFifo,      Received: 0000A200   Item Number: 180
%%        2840.0 ns  Log    PASSED  in receiver_1: RxBurstFifo,      Received: B6B01DB7   Item Number: 181
%%        2840.0 ns  Log    PASSED  in receiver_1: RxBurstFifo,      Received: ACD93B8C   Item Number: 182
%%        2840.0 ns  Log    PASSED  in receiver_1: RxBurstFifo,      Received: C8605A86   Item Number: 183
%%        2840.0 ns  Log    PASSED  in receiver_1: RxBurstFifo,      Received: 2C10B375   Item Number: 184
%%        2840.0 ns  Log    PASSED  in receiver_1: RxBurstFifo,      Received: D13FE523   Item Number: 185
%%        2840.0 ns  Log    PASSED  in receiver_1: RxBurstFifo,      Received: 0000A014   Item Number: 186
%%        2840.0 ns  Log    PASSED  in receiver_1: RxBurstFifo,      Received: 0000A001   Item Number: 187
%%        2840.0 ns  Log    PASSED  in receiver_1: RxBurstFifo,      Received: 0000A010   Item Number: 188
%%        2840.0 ns  Log    PASSED  in receiver_1: RxBurstFifo,      Received: 0000A033   Item Number: 189
%%        2840.0 ns  Log    PASSED  in receiver_1: RxBurstFifo,      Received: 0000A012   Item Number: 190
%%        2840.0 ns  Log    PASSED  in receiver_1: RxBurstFifo,      Received: 0000A011   Item Number: 191
%%        2840.0 ns  Log    PASSED  in receiver_1: RxBurstFifo,      Received: 0000A002   Item Number: 192
%%        2840.0 ns  Log    PASSED  in receiver_1: RxBurstFifo,      Received: 0000A005   Item Number: 193
%%        2840.0 ns  Log    PASSED  in receiver_1: RxBurstFifo,      Received: 0000A026   Item Number: 194
%%        2840.0 ns  Log    PASSED  in receiver_1: RxBurstFifo,      Received: 0000A016   Item Number: 195
%%        2840.0 ns  Log    PASSED  in receiver_1: RxBurstFifo,      Received: 0000A007   Item Number: 196
%%        2840.0 ns  Log    PASSED  in receiver_1: RxBurstFifo,      Received: 0000A021   Item Number: 197
%%        2840.0 ns  Log    PASSED  in receiver_1: RxBurstFifo,      Received: 0000A032   Item Number: 198
%%        2840.0 ns  Log    PASSED  in receiver_1: RxBurstFifo,      Received: 0000A031   Item Number: 199
%%        2840.0 ns  Log    PASSED  in receiver_1: RxBurstFifo,      Received: 0000A017   Item Number: 200
%%        2840.0 ns  Log    PASSED  in receiver_1: RxBurstFifo,      Received: 0000A000   Item Number: 201
%%        2840.0 ns  Log    INFO    in receiver_1,                   Burst Check.  Operation# 71  Last Data: 0000A000  TID: 00  TDest: 0  TUser: 0  TLast: 1
%%        2840.0 ns  Log    PASSED  in receiver_1,                   Burst Check WordCount Received : 42
%%        2840.0 ns  Log    PASSED  in receiver_1,                   ID Received : 00
%%        2840.0 ns  Log    PASSED  in receiver_1,                   DEST Received : 0
%%        2840.0 ns  Log    PASSED  in receiver_1,                   USER Received : 0
%%        2840.0 ns  Log    PASSED  in receiver_1,                   Last Received : 1
%%        2850.0 ns  Log    ALWAYS  in Default,                      Combining Patterns:  Vector, Increment, Random, Intelligent Coverage
%%        2850.0 ns  Log    INFO    in transmitter_1,                Axi Stream Send.  TData: 0000B001  TStrb: 1111  TKeep: 1111  TID: 00  TDest: 0  TUser: 0  TLast: 0  Operation# 266
%%        2860.0 ns  Log    INFO    in transmitter_1,                Axi Stream Send.  TData: 0000B003  TStrb: 1111  TKeep: 1111  TID: 00  TDest: 0  TUser: 0  TLast: 0  Operation# 267
%%        2870.0 ns  Log    INFO    in transmitter_1,                Axi Stream Send.  TData: 0000B005  TStrb: 1111  TKeep: 1111  TID: 00  TDest: 0  TUser: 0  TLast: 0  Operation# 268
%%        2880.0 ns  Log    INFO    in transmitter_1,                Axi Stream Send.  TData: 0000B007  TStrb: 1111  TKeep: 1111  TID: 00  TDest: 0  TUser: 0  TLast: 0  Operation# 269
%%        2890.0 ns  Log    INFO    in transmitter_1,                Axi Stream Send.  TData: 0000B009  TStrb: 1111  TKeep: 1111  TID: 00  TDest: 0  TUser: 0  TLast: 0  Operation# 270
%%        2900.0 ns  Log    INFO    in transmitter_1,                Axi Stream Send.  TData: 0000B011  TStrb: 1111  TKeep: 1111  TID: 00  TDest: 0  TUser: 0  TLast: 0  Operation# 271
%%        2910.0 ns  Log    INFO    in transmitter_1,                Axi Stream Send.  TData: 0000B013  TStrb: 1111  TKeep: 1111  TID: 00  TDest: 0  TUser: 0  TLast: 0  Operation# 272
%%        2920.0 ns  Log    INFO    in transmitter_1,                Axi Stream Send.  TData: 0000B015  TStrb: 1111  TKeep: 1111  TID: 00  TDest: 0  TUser: 0  TLast: 0  Operation# 273
%%        2930.0 ns  Log    INFO    in transmitter_1,                Axi Stream Send.  TData: 0000B017  TStrb: 1111  TKeep: 1111  TID: 00  TDest: 0  TUser: 0  TLast: 0  Operation# 274
%%        2940.0 ns  Log    INFO    in transmitter_1,                Axi Stream Send.  TData: 0000B019  TStrb: 1111  TKeep: 1111  TID: 00  TDest: 0  TUser: 0  TLast: 0  Operation# 275
%%        2950.0 ns  Log    INFO    in transmitter_1,                Axi Stream Send.  TData: 0000A100  TStrb: 1111  TKeep: 1111  TID: 00  TDest: 0  TUser: 0  TLast: 0  Operation# 276
%%        2960.0 ns  Log    INFO    in transmitter_1,                Axi Stream Send.  TData: 0000A101  TStrb: 1111  TKeep: 1111  TID: 00  TDest: 0  TUser: 0  TLast: 0  Operation# 277
%%        2970.0 ns  Log    INFO    in transmitter_1,                Axi Stream Send.  TData: 0000A102  TStrb: 1111  TKeep: 1111  TID: 00  TDest: 0  TUser: 0  TLast: 0  Operation# 278
%%        2980.0 ns  Log    INFO    in transmitter_1,                Axi Stream Send.  TData: 0000A103  TStrb: 1111  TKeep: 1111  TID: 00  TDest: 0  TUser: 0  TLast: 0  Operation# 279
%%        2990.0 ns  Log    INFO    in transmitter_1,                Axi Stream Send.  TData: 0000A104  TStrb: 1111  TKeep: 1111  TID: 00  TDest: 0  TUser: 0  TLast: 0  Operation# 280
%%        3000.0 ns  Log    INFO    in transmitter_1,                Axi Stream Send.  TData: 0000A105  TStrb: 1111  TKeep: 1111  TID: 00  TDest: 0  TUser: 0  TLast: 0  Operation# 281
%%        3010.0 ns  Log    INFO    in transmitter_1,                Axi Stream Send.  TData: 0000A106  TStrb: 1111  TKeep: 1111  TID: 00  TDest: 0  TUser: 0  TLast: 0  Operation# 282
%%        3020.0 ns  Log    INFO    in transmitter_1,                Axi Stream Send.  TData: 0000A107  TStrb: 1111  TKeep: 1111  TID: 00  TDest: 0  TUser: 0  TLast: 0  Operation# 283
%%        3030.0 ns  Log    INFO    in transmitter_1,                Axi Stream Send.  TData: 0000A108  TStrb: 1111  TKeep: 1111  TID: 00  TDest: 0  TUser: 0  TLast: 0  Operation# 284
%%        3040.0 ns  Log    INFO    in transmitter_1,                Axi Stream Send.  TData: 0000A109  TStrb: 1111  TKeep: 1111  TID: 00  TDest: 0  TUser: 0  TLast: 0  Operation# 285
%%        3050.0 ns  Log    INFO    in transmitter_1,                Axi Stream Send.  TData: 0000A200  TStrb: 1111  TKeep: 1111  TID: 00  TDest: 0  TUser: 0  TLast: 0  Operation# 286
%%        3060.0 ns  Log    INFO    in transmitter_1,                Axi Stream Send.  TData: B6B01DB7  TStrb: 1111  TKeep: 1111  TID: 00  TDest: 0  TUser: 0  TLast: 0  Operation# 287
%%        3070.0 ns  Log    INFO    in transmitter_1,                Axi Stream Send.  TData: ACD93B8C  TStrb: 1111  TKeep: 1111  TID: 00  TDest: 0  TUser: 0  TLast: 0  Operation# 288
%%        3080.0 ns  Log    INFO    in transmitter_1,                Axi Stream Send.  TData: C8605A86  TStrb: 1111  TKeep: 1111  TID: 00  TDest: 0  TUser: 0  TLast: 0  Operation# 289
%%        3090.0 ns  Log    INFO    in transmitter_1,                Axi Stream Send.  TData: 2C10B375  TStrb: 1111  TKeep: 1111  TID: 00  TDest: 0  TUser: 0  TLast: 0  Operation# 290
%%        3100.0 ns  Log    INFO    in transmitter_1,                Axi Stream Send.  TData: D13FE523  TStrb: 1111  TKeep: 1111  TID: 00  TDest: 0  TUser: 0  TLast: 0  Operation# 291
%%        3110.0 ns  Log    INFO    in transmitter_1,                Axi Stream Send.  TData: 0000B014  TStrb: 1111  TKeep: 1111  TID: 00  TDest: 0  TUser: 0  TLast: 0  Operation# 292
%%        3120.0 ns  Log    INFO    in transmitter_1,                Axi Stream Send.  TData: 0000B001  TStrb: 1111  TKeep: 1111  TID: 00  TDest: 0  TUser: 0  TLast: 0  Operation# 293
%%        3130.0 ns  Log    INFO    in transmitter_1,                Axi Stream Send.  TData: 0000B010  TStrb: 1111  TKeep: 1111  TID: 00  TDest: 0  TUser: 0  TLast: 0  Operation# 294
%%        3140.0 ns  Log    INFO    in transmitter_1,                Axi Stream Send.  TData: 0000B033  TStrb: 1111  TKeep: 1111  TID: 00  TDest: 0  TUser: 0  TLast: 0  Operation# 295
%%        3150.0 ns  Log    INFO    in transmitter_1,                Axi Stream Send.  TData: 0000B012  TStrb: 1111  TKeep: 1111  TID: 00  TDest: 0  TUser: 0  TLast: 0  Operation# 296
%%        3160.0 ns  Log    INFO    in transmitter_1,                Axi Stream Send.  TData: 0000B011  TStrb: 1111  TKeep: 1111  TID: 00  TDest: 0  TUser: 0  TLast: 0  Operation# 297
%%        3170.0 ns  Log    INFO    in transmitter_1,                Axi Stream Send.  TData: 0000B002  TStrb: 1111  TKeep: 1111  TID: 00  TDest: 0  TUser: 0  TLast: 0  Operation# 298
%%        3180.0 ns  Log    INFO    in transmitter_1,                Axi Stream Send.  TData: 0000B005  TStrb: 1111  TKeep: 1111  TID: 00  TDest: 0  TUser: 0  TLast: 0  Operation# 299
%%        3190.0 ns  Log    INFO    in transmitter_1,                Axi Stream Send.  TData: 0000B026  TStrb: 1111  TKeep: 1111  TID: 00  TDest: 0  TUser: 0  TLast: 0  Operation# 300
%%        3200.0 ns  Log    INFO    in transmitter_1,                Axi Stream Send.  TData: 0000B016  TStrb: 1111  TKeep: 1111  TID: 00  TDest: 0  TUser: 0  TLast: 0  Operation# 301
%%        3210.0 ns  Log    INFO    in transmitter_1,                Axi Stream Send.  TData: 0000B007  TStrb: 1111  TKeep: 1111  TID: 00  TDest: 0  TUser: 0  TLast: 0  Operation# 302
%%        3220.0 ns  Log    INFO    in transmitter_1,                Axi Stream Send.  TData: 0000B021  TStrb: 1111  TKeep: 1111  TID: 00  TDest: 0  TUser: 0  TLast: 0  Operation# 303
%%        3230.0 ns  Log    INFO    in transmitter_1,                Axi Stream Send.  TData: 0000B032  TStrb: 1111  TKeep: 1111  TID: 00  TDest: 0  TUser: 0  TLast: 0  Operation# 304
%%        3240.0 ns  Log    INFO    in transmitter_1,                Axi Stream Send.  TData: 0000B031  TStrb: 1111  TKeep: 1111  TID: 00  TDest: 0  TUser: 0  TLast: 0  Operation# 305
%%        3250.0 ns  Log    INFO    in transmitter_1,                Axi Stream Send.  TData: 0000B017  TStrb: 1111  TKeep: 1111  TID: 00  TDest: 0  TUser: 0  TLast: 0  Operation# 306
%%        3260.0 ns  Log    INFO    in transmitter_1,                Axi Stream Send.  TData: 0000B000  TStrb: 1111  TKeep: 1111  TID: 00  TDest: 0  TUser: 0  TLast: 1  Operation# 307
%%        3270.0 ns  Log    INFO    in receiver_1,                   Burst Receive.  Operation# 72  Last Data: 0000B000  TID: 00  TDest: 0  TUser: 0  TLast: 1
%%        3270.0 ns  Log    PASSED  in receiver_1: RxBurstFifo,      Received: 0000B001   Item Number: 202
%%        3270.0 ns  Log    PASSED  in receiver_1: RxBurstFifo,      Received: 0000B003   Item Number: 203
%%        3270.0 ns  Log    PASSED  in receiver_1: RxBurstFifo,      Received: 0000B005   Item Number: 204
%%        3270.0 ns  Log    PASSED  in receiver_1: RxBurstFifo,      Received: 0000B007   Item Number: 205
%%        3270.0 ns  Log    PASSED  in receiver_1: RxBurstFifo,      Received: 0000B009   Item Number: 206
%%        3270.0 ns  Log    PASSED  in receiver_1: RxBurstFifo,      Received: 0000B011   Item Number: 207
%%        3270.0 ns  Log    PASSED  in receiver_1: RxBurstFifo,      Received: 0000B013   Item Number: 208
%%        3270.0 ns  Log    PASSED  in receiver_1: RxBurstFifo,      Received: 0000B015   Item Number: 209
%%        3270.0 ns  Log    PASSED  in receiver_1: RxBurstFifo,      Received: 0000B017   Item Number: 210
%%        3270.0 ns  Log    PASSED  in receiver_1: RxBurstFifo,      Received: 0000B019   Item Number: 211
%%        3270.0 ns  Log    PASSED  in receiver_1: RxBurstFifo,      Received: 0000A100   Item Number: 212
%%        3270.0 ns  Log    PASSED  in receiver_1: RxBurstFifo,      Received: 0000A101   Item Number: 213
%%        3270.0 ns  Log    PASSED  in receiver_1: RxBurstFifo,      Received: 0000A102   Item Number: 214
%%        3270.0 ns  Log    PASSED  in receiver_1: RxBurstFifo,      Received: 0000A103   Item Number: 215
%%        3270.0 ns  Log    PASSED  in receiver_1: RxBurstFifo,      Received: 0000A104   Item Number: 216
%%        3270.0 ns  Log    PASSED  in receiver_1: RxBurstFifo,      Received: 0000A105   Item Number: 217
%%        3270.0 ns  Log    PASSED  in receiver_1: RxBurstFifo,      Received: 0000A106   Item Number: 218
%%        3270.0 ns  Log    PASSED  in receiver_1: RxBurstFifo,      Received: 0000A107   Item Number: 219
%%        3270.0 ns  Log    PASSED  in receiver_1: RxBurstFifo,      Received: 0000A108   Item Number: 220
%%        3270.0 ns  Log    PASSED  in receiver_1: RxBurstFifo,      Received: 0000A109   Item Number: 221
%%        3270.0 ns  Log    PASSED  in receiver_1: RxBurstFifo,      Received: 0000A200   Item Number: 222
%%        3270.0 ns  Log    PASSED  in receiver_1: RxBurstFifo,      Received: B6B01DB7   Item Number: 223
%%        3270.0 ns  Log    PASSED  in receiver_1: RxBurstFifo,      Received: ACD93B8C   Item Number: 224
%%        3270.0 ns  Log    PASSED  in receiver_1: RxBurstFifo,      Received: C8605A86   Item Number: 225
%%        3270.0 ns  Log    PASSED  in receiver_1: RxBurstFifo,      Received: 2C10B375   Item Number: 226
%%        3270.0 ns  Log    PASSED  in receiver_1: RxBurstFifo,      Received: D13FE523   Item Number: 227
%%        3270.0 ns  Log    PASSED  in receiver_1: RxBurstFifo,      Received: 0000B014   Item Number: 228
%%        3270.0 ns  Log    PASSED  in receiver_1: RxBurstFifo,      Received: 0000B001   Item Number: 229
%%        3270.0 ns  Log    PASSED  in receiver_1: RxBurstFifo,      Received: 0000B010   Item Number: 230
%%        3270.0 ns  Log    PASSED  in receiver_1: RxBurstFifo,      Received: 0000B033   Item Number: 231
%%        3270.0 ns  Log    PASSED  in receiver_1: RxBurstFifo,      Received: 0000B012   Item Number: 232
%%        3270.0 ns  Log    PASSED  in receiver_1: RxBurstFifo,      Received: 0000B011   Item Number: 233
%%        3270.0 ns  Log    PASSED  in receiver_1: RxBurstFifo,      Received: 0000B002   Item Number: 234
%%        3270.0 ns  Log    PASSED  in receiver_1: RxBurstFifo,      Received: 0000B005   Item Number: 235
%%        3270.0 ns  Log    PASSED  in receiver_1: RxBurstFifo,      Received: 0000B026   Item Number: 236
%%        3270.0 ns  Log    PASSED  in receiver_1: RxBurstFifo,      Received: 0000B016   Item Number: 237
%%        3270.0 ns  Log    PASSED  in receiver_1: RxBurstFifo,      Received: 0000B007   Item Number: 238
%%        3270.0 ns  Log    PASSED  in receiver_1: RxBurstFifo,      Received: 0000B021   Item Number: 239
%%        3270.0 ns  Log    PASSED  in receiver_1: RxBurstFifo,      Received: 0000B032   Item Number: 240
%%        3270.0 ns  Log    PASSED  in receiver_1: RxBurstFifo,      Received: 0000B031   Item Number: 241
%%        3270.0 ns  Log    PASSED  in receiver_1: RxBurstFifo,      Received: 0000B017   Item Number: 242
%%        3270.0 ns  Log    PASSED  in receiver_1: RxBurstFifo,      Received: 0000B000   Item Number: 243
%%        3280.0 ns  Log    ALWAYS  in Default,                      SendBurstVector 5 word burst
