%% Log    ALWAYS    in Default,   Transmit 32 Bytes -- word aligned at 110 ns
%% Log    INFO      in transmitter_1,   Axi Stream Send.  TData: 00000003  TStrb: 1111  TKeep: 1111  TID: 00  TDest: 0  TUser: 0  TLast: 0  Operation# 1 at 110 ns
%% Log    INFO      in transmitter_1,   Axi Stream Send.  TData: 00000004  TStrb: 1111  TKeep: 1111  TID: 00  TDest: 0  TUser: 0  TLast: 0  Operation# 2 at 120 ns
%% Log    INFO      in transmitter_1,   Axi Stream Send.  TData: 00000005  TStrb: 1111  TKeep: 1111  TID: 00  TDest: 0  TUser: 0  TLast: 0  Operation# 3 at 130 ns
%% Log    INFO      in transmitter_1,   Axi Stream Send.  TData: 00000006  TStrb: 1111  TKeep: 1111  TID: 00  TDest: 0  TUser: 0  TLast: 0  Operation# 4 at 140 ns
%% Log    INFO      in transmitter_1,   Axi Stream Send.  TData: 00000007  TStrb: 1111  TKeep: 1111  TID: 00  TDest: 0  TUser: 0  TLast: 0  Operation# 5 at 150 ns
%% Log    ALWAYS    in Default,   Transmit 30 Bytes -- unaligned at 150 ns
%% Log    INFO      in transmitter_1,   Axi Stream Send.  TData: 00000008  TStrb: 1111  TKeep: 1111  TID: 00  TDest: 0  TUser: 0  TLast: 0  Operation# 6 at 160 ns
%% Log    INFO      in transmitter_1,   Axi Stream Send.  TData: 00000009  TStrb: 1111  TKeep: 1111  TID: 00  TDest: 0  TUser: 0  TLast: 0  Operation# 7 at 170 ns
%% Log    INFO      in transmitter_1,   Axi Stream Send.  TData: 0000000A  TStrb: 1111  TKeep: 1111  TID: 00  TDest: 0  TUser: 0  TLast: 0  Operation# 8 at 180 ns
%% Log    INFO      in transmitter_1,   Axi Stream Send.  TData: 0000000B  TStrb: 1111  TKeep: 1111  TID: 00  TDest: 0  TUser: 0  TLast: 0  Operation# 9 at 190 ns
%% Log    ALWAYS    in Default,   Transmit 34 Bytes -- unaligned at 190 ns
%% Log    ALWAYS    in Default,   Transmit 32 Bytes. Starting with 0 at 190 ns
%% Log    ALWAYS    in Default,   Transmit 37 Bytes. Starting with 32 at 190 ns
%% Log    ALWAYS    in Default,   Transmit 42 Bytes. Starting with 64 at 190 ns
%% Log    ALWAYS    in Default,   Transmit 47 Bytes. Starting with 96 at 190 ns
%% Log    ALWAYS    in Default,   Transmit 52 Bytes. Starting with 128 at 190 ns
%% Log    ALWAYS    in Default,   Transmit 57 Bytes. Starting with 160 at 190 ns
%% Log    ALWAYS    in Default,   Transmit 62 Bytes. Starting with 192 at 190 ns
%% Log    INFO      in transmitter_1,   Axi Stream Send.  TData: 0000000C  TStrb: 1111  TKeep: 1111  TID: 00  TDest: 0  TUser: 0  TLast: 0  Operation# 10 at 200 ns
%% Log    INFO      in transmitter_1,   Axi Stream Send.  TData: 0000000D  TStrb: 1111  TKeep: 1111  TID: 00  TDest: 0  TUser: 0  TLast: 0  Operation# 11 at 210 ns
%% Log    INFO      in transmitter_1,   Axi Stream Send.  TData: 0000000E  TStrb: 1111  TKeep: 1111  TID: 00  TDest: 0  TUser: 0  TLast: 0  Operation# 12 at 220 ns
%% Log    INFO      in transmitter_1,   Axi Stream Send.  TData: 0000000F  TStrb: 1111  TKeep: 1111  TID: 00  TDest: 0  TUser: 0  TLast: 0  Operation# 13 at 230 ns
%% Log    INFO      in transmitter_1,   Axi Stream Send.  TData: 00000010  TStrb: 1111  TKeep: 1111  TID: 00  TDest: 0  TUser: 0  TLast: 0  Operation# 14 at 240 ns
%% Log    INFO      in transmitter_1,   Axi Stream Send.  TData: 00000011  TStrb: 1111  TKeep: 1111  TID: 00  TDest: 0  TUser: 0  TLast: 0  Operation# 15 at 250 ns
%% Log    INFO      in transmitter_1,   Axi Stream Send.  TData: 00000012  TStrb: 1111  TKeep: 1111  TID: 00  TDest: 0  TUser: 0  TLast: 0  Operation# 16 at 260 ns
%% Log    INFO      in transmitter_1,   Axi Stream Send.  TData: 00000013  TStrb: 1111  TKeep: 1111  TID: 00  TDest: 0  TUser: 0  TLast: 0  Operation# 17 at 270 ns
%% Log    INFO      in transmitter_1,   Axi Stream Send.  TData: 00000014  TStrb: 1111  TKeep: 1111  TID: 00  TDest: 0  TUser: 0  TLast: 0  Operation# 18 at 280 ns
%% Log    INFO      in transmitter_1,   Axi Stream Send.  TData: 00000015  TStrb: 1111  TKeep: 1111  TID: 00  TDest: 0  TUser: 0  TLast: 0  Operation# 19 at 290 ns
%% Log    INFO      in transmitter_1,   Axi Stream Send.  TData: 00000016  TStrb: 1111  TKeep: 1111  TID: 00  TDest: 0  TUser: 0  TLast: 0  Operation# 20 at 300 ns
%% Log    INFO      in transmitter_1,   Axi Stream Send.  TData: 00000017  TStrb: 1111  TKeep: 1111  TID: 00  TDest: 0  TUser: 0  TLast: 0  Operation# 21 at 310 ns
%% Log    INFO      in transmitter_1,   Axi Stream Send.  TData: 00000018  TStrb: 1111  TKeep: 1111  TID: 00  TDest: 0  TUser: 0  TLast: 0  Operation# 22 at 320 ns
%% Log    INFO      in transmitter_1,   Axi Stream Send.  TData: 00000019  TStrb: 1111  TKeep: 1111  TID: 00  TDest: 0  TUser: 0  TLast: 0  Operation# 23 at 330 ns
%% Log    INFO      in transmitter_1,   Axi Stream Send.  TData: 0000001A  TStrb: 1111  TKeep: 1111  TID: 00  TDest: 0  TUser: 0  TLast: 0  Operation# 24 at 340 ns
%% Log    INFO      in transmitter_1,   Axi Stream Send.  TData: 0000001B  TStrb: 1111  TKeep: 1111  TID: 00  TDest: 0  TUser: 0  TLast: 0  Operation# 25 at 350 ns
%% Log    INFO      in transmitter_1,   Axi Stream Send.  TData: 0000001C  TStrb: 1111  TKeep: 1111  TID: 00  TDest: 0  TUser: 0  TLast: 0  Operation# 26 at 360 ns
%% Log    INFO      in transmitter_1,   Axi Stream Send.  TData: 0000001D  TStrb: 1111  TKeep: 1111  TID: 00  TDest: 0  TUser: 0  TLast: 0  Operation# 27 at 370 ns
%% Log    INFO      in transmitter_1,   Axi Stream Send.  TData: 0000001E  TStrb: 1111  TKeep: 1111  TID: 00  TDest: 0  TUser: 0  TLast: 0  Operation# 28 at 380 ns
%% Log    INFO      in transmitter_1,   Axi Stream Send.  TData: 0000001F  TStrb: 1111  TKeep: 1111  TID: 00  TDest: 0  TUser: 0  TLast: 0  Operation# 29 at 390 ns
%% Log    INFO      in transmitter_1,   Axi Stream Send.  TData: 00000020  TStrb: 1111  TKeep: 1111  TID: 00  TDest: 0  TUser: 0  TLast: 0  Operation# 30 at 400 ns
%% Log    INFO      in transmitter_1,   Axi Stream Send.  TData: 00000021  TStrb: 1111  TKeep: 1111  TID: 00  TDest: 0  TUser: 0  TLast: 0  Operation# 31 at 410 ns
%% Log    INFO      in transmitter_1,   Axi Stream Send.  TData: 00000022  TStrb: 1111  TKeep: 1111  TID: 00  TDest: 0  TUser: 0  TLast: 1  Operation# 32 at 420 ns
%% Log    INFO      in transmitter_1,   Axi Stream Send.  TData: 00000001  TStrb: 1111  TKeep: 1111  TID: 00  TDest: 0  TUser: 0  TLast: 0  Operation# 33 at 430 ns
%% Log    PASSED    in receiver_1: RxBurstFifo,      Received: 00000003   Item Number: 1 at 430 ns
%% Log    PASSED    in receiver_1: RxBurstFifo,      Received: 00000004   Item Number: 2 at 430 ns
%% Log    PASSED    in receiver_1: RxBurstFifo,      Received: 00000005   Item Number: 3 at 430 ns
%% Log    PASSED    in receiver_1: RxBurstFifo,      Received: 00000006   Item Number: 4 at 430 ns
%% Log    PASSED    in receiver_1: RxBurstFifo,      Received: 00000007   Item Number: 5 at 430 ns
%% Log    PASSED    in receiver_1: RxBurstFifo,      Received: 00000008   Item Number: 6 at 430 ns
%% Log    PASSED    in receiver_1: RxBurstFifo,      Received: 00000009   Item Number: 7 at 430 ns
%% Log    PASSED    in receiver_1: RxBurstFifo,      Received: 0000000A   Item Number: 8 at 430 ns
%% Log    PASSED    in receiver_1: RxBurstFifo,      Received: 0000000B   Item Number: 9 at 430 ns
%% Log    PASSED    in receiver_1: RxBurstFifo,      Received: 0000000C   Item Number: 10 at 430 ns
%% Log    PASSED    in receiver_1: RxBurstFifo,      Received: 0000000D   Item Number: 11 at 430 ns
%% Log    PASSED    in receiver_1: RxBurstFifo,      Received: 0000000E   Item Number: 12 at 430 ns
%% Log    PASSED    in receiver_1: RxBurstFifo,      Received: 0000000F   Item Number: 13 at 430 ns
%% Log    PASSED    in receiver_1: RxBurstFifo,      Received: 00000010   Item Number: 14 at 430 ns
%% Log    PASSED    in receiver_1: RxBurstFifo,      Received: 00000011   Item Number: 15 at 430 ns
%% Log    PASSED    in receiver_1: RxBurstFifo,      Received: 00000012   Item Number: 16 at 430 ns
%% Log    PASSED    in receiver_1: RxBurstFifo,      Received: 00000013   Item Number: 17 at 430 ns
%% Log    PASSED    in receiver_1: RxBurstFifo,      Received: 00000014   Item Number: 18 at 430 ns
%% Log    PASSED    in receiver_1: RxBurstFifo,      Received: 00000015   Item Number: 19 at 430 ns
%% Log    PASSED    in receiver_1: RxBurstFifo,      Received: 00000016   Item Number: 20 at 430 ns
%% Log    PASSED    in receiver_1: RxBurstFifo,      Received: 00000017   Item Number: 21 at 430 ns
%% Log    PASSED    in receiver_1: RxBurstFifo,      Received: 00000018   Item Number: 22 at 430 ns
%% Log    PASSED    in receiver_1: RxBurstFifo,      Received: 00000019   Item Number: 23 at 430 ns
%% Log    PASSED    in receiver_1: RxBurstFifo,      Received: 0000001A   Item Number: 24 at 430 ns
%% Log    PASSED    in receiver_1: RxBurstFifo,      Received: 0000001B   Item Number: 25 at 430 ns
%% Log    PASSED    in receiver_1: RxBurstFifo,      Received: 0000001C   Item Number: 26 at 430 ns
%% Log    PASSED    in receiver_1: RxBurstFifo,      Received: 0000001D   Item Number: 27 at 430 ns
%% Log    PASSED    in receiver_1: RxBurstFifo,      Received: 0000001E   Item Number: 28 at 430 ns
%% Log    PASSED    in receiver_1: RxBurstFifo,      Received: 0000001F   Item Number: 29 at 430 ns
%% Log    PASSED    in receiver_1: RxBurstFifo,      Received: 00000020   Item Number: 30 at 430 ns
%% Log    PASSED    in receiver_1: RxBurstFifo,      Received: 00000021   Item Number: 31 at 430 ns
%% Log    PASSED    in receiver_1: RxBurstFifo,      Received: 00000022   Item Number: 32 at 430 ns
%% Log    INFO      in receiver_1,   Burst Check.  Operation# 1  Last Data: 00000022  TID: 00  TDest: 0  TUser: 0  TLast: 1 at 430 ns
%% Log    PASSED    in receiver_1,   Burst Check WordCount Received : 32 at 430 ns
%% Log    PASSED    in receiver_1,   ID Received : 00 at 430 ns
%% Log    PASSED    in receiver_1,   DEST Received : 0 at 430 ns
%% Log    PASSED    in receiver_1,   USER Received : 0 at 430 ns
%% Log    PASSED    in receiver_1,   Last Received : 1 at 430 ns
%% Log    PASSED    in Default,   TryCount 40 at 430 ns
%% Log    INFO      in transmitter_1,   Axi Stream Send.  TData: 00000003  TStrb: 1111  TKeep: 1111  TID: 00  TDest: 0  TUser: 0  TLast: 0  Operation# 34 at 440 ns
%% Log    INFO      in transmitter_1,   Axi Stream Send.  TData: 00000005  TStrb: 1111  TKeep: 1111  TID: 00  TDest: 0  TUser: 0  TLast: 0  Operation# 35 at 450 ns
%% Log    INFO      in transmitter_1,   Axi Stream Send.  TData: 00000007  TStrb: 1111  TKeep: 1111  TID: 00  TDest: 0  TUser: 0  TLast: 0  Operation# 36 at 460 ns
%% Log    INFO      in transmitter_1,   Axi Stream Send.  TData: 00000009  TStrb: 1111  TKeep: 1111  TID: 00  TDest: 0  TUser: 0  TLast: 0  Operation# 37 at 470 ns
%% Log    INFO      in transmitter_1,   Axi Stream Send.  TData: 0000000B  TStrb: 1111  TKeep: 1111  TID: 00  TDest: 0  TUser: 0  TLast: 0  Operation# 38 at 480 ns
%% Log    INFO      in transmitter_1,   Axi Stream Send.  TData: 0000000D  TStrb: 1111  TKeep: 1111  TID: 00  TDest: 0  TUser: 0  TLast: 0  Operation# 39 at 490 ns
%% Log    INFO      in transmitter_1,   Axi Stream Send.  TData: 0000000F  TStrb: 1111  TKeep: 1111  TID: 00  TDest: 0  TUser: 0  TLast: 0  Operation# 40 at 500 ns
%% Log    INFO      in transmitter_1,   Axi Stream Send.  TData: 00000011  TStrb: 1111  TKeep: 1111  TID: 00  TDest: 0  TUser: 0  TLast: 0  Operation# 41 at 510 ns
%% Log    INFO      in transmitter_1,   Axi Stream Send.  TData: 00000013  TStrb: 1111  TKeep: 1111  TID: 00  TDest: 0  TUser: 0  TLast: 0  Operation# 42 at 520 ns
%% Log    INFO      in transmitter_1,   Axi Stream Send.  TData: 00000015  TStrb: 1111  TKeep: 1111  TID: 00  TDest: 0  TUser: 0  TLast: 0  Operation# 43 at 530 ns
%% Log    INFO      in transmitter_1,   Axi Stream Send.  TData: 00000017  TStrb: 1111  TKeep: 1111  TID: 00  TDest: 0  TUser: 0  TLast: 0  Operation# 44 at 540 ns
%% Log    INFO      in transmitter_1,   Axi Stream Send.  TData: 00000019  TStrb: 1111  TKeep: 1111  TID: 00  TDest: 0  TUser: 0  TLast: 0  Operation# 45 at 550 ns
%% Log    INFO      in transmitter_1,   Axi Stream Send.  TData: 0000001B  TStrb: 1111  TKeep: 1111  TID: 00  TDest: 0  TUser: 0  TLast: 0  Operation# 46 at 560 ns
%% Log    INFO      in transmitter_1,   Axi Stream Send.  TData: 0000001D  TStrb: 1111  TKeep: 1111  TID: 00  TDest: 0  TUser: 0  TLast: 0  Operation# 47 at 570 ns
%% Log    INFO      in transmitter_1,   Axi Stream Send.  TData: 0000001F  TStrb: 1111  TKeep: 1111  TID: 00  TDest: 0  TUser: 0  TLast: 0  Operation# 48 at 580 ns
%% Log    INFO      in transmitter_1,   Axi Stream Send.  TData: 00000021  TStrb: 1111  TKeep: 1111  TID: 00  TDest: 0  TUser: 0  TLast: 0  Operation# 49 at 590 ns
%% Log    INFO      in transmitter_1,   Axi Stream Send.  TData: 00000023  TStrb: 1111  TKeep: 1111  TID: 00  TDest: 0  TUser: 0  TLast: 0  Operation# 50 at 600 ns
%% Log    INFO      in transmitter_1,   Axi Stream Send.  TData: 00000025  TStrb: 1111  TKeep: 1111  TID: 00  TDest: 0  TUser: 0  TLast: 0  Operation# 51 at 610 ns
%% Log    INFO      in transmitter_1,   Axi Stream Send.  TData: 00000027  TStrb: 1111  TKeep: 1111  TID: 00  TDest: 0  TUser: 0  TLast: 0  Operation# 52 at 620 ns
%% Log    INFO      in transmitter_1,   Axi Stream Send.  TData: 00000029  TStrb: 1111  TKeep: 1111  TID: 00  TDest: 0  TUser: 0  TLast: 0  Operation# 53 at 630 ns
%% Log    INFO      in transmitter_1,   Axi Stream Send.  TData: 0000002B  TStrb: 1111  TKeep: 1111  TID: 00  TDest: 0  TUser: 0  TLast: 0  Operation# 54 at 640 ns
%% Log    INFO      in transmitter_1,   Axi Stream Send.  TData: 0000002D  TStrb: 1111  TKeep: 1111  TID: 00  TDest: 0  TUser: 0  TLast: 0  Operation# 55 at 650 ns
%% Log    INFO      in transmitter_1,   Axi Stream Send.  TData: 0000002F  TStrb: 1111  TKeep: 1111  TID: 00  TDest: 0  TUser: 0  TLast: 0  Operation# 56 at 660 ns
%% Log    INFO      in transmitter_1,   Axi Stream Send.  TData: 00000031  TStrb: 1111  TKeep: 1111  TID: 00  TDest: 0  TUser: 0  TLast: 0  Operation# 57 at 670 ns
%% Log    INFO      in transmitter_1,   Axi Stream Send.  TData: 00000033  TStrb: 1111  TKeep: 1111  TID: 00  TDest: 0  TUser: 0  TLast: 0  Operation# 58 at 680 ns
%% Log    INFO      in transmitter_1,   Axi Stream Send.  TData: 00000035  TStrb: 1111  TKeep: 1111  TID: 00  TDest: 0  TUser: 0  TLast: 0  Operation# 59 at 690 ns
%% Log    INFO      in transmitter_1,   Axi Stream Send.  TData: 00000037  TStrb: 1111  TKeep: 1111  TID: 00  TDest: 0  TUser: 0  TLast: 0  Operation# 60 at 700 ns
%% Log    INFO      in transmitter_1,   Axi Stream Send.  TData: 00000039  TStrb: 1111  TKeep: 1111  TID: 00  TDest: 0  TUser: 0  TLast: 0  Operation# 61 at 710 ns
%% Log    INFO      in transmitter_1,   Axi Stream Send.  TData: 0000003B  TStrb: 1111  TKeep: 1111  TID: 00  TDest: 0  TUser: 0  TLast: 1  Operation# 62 at 720 ns
%% Log    INFO      in transmitter_1,   Axi Stream Send.  TData: 00000007  TStrb: 1111  TKeep: 1111  TID: 00  TDest: 0  TUser: 0  TLast: 0  Operation# 63 at 730 ns
%% Log    PASSED    in receiver_1: RxBurstFifo,      Received: 00000001   Item Number: 33 at 730 ns
%% Log    PASSED    in receiver_1: RxBurstFifo,      Received: 00000003   Item Number: 34 at 730 ns
%% Log    PASSED    in receiver_1: RxBurstFifo,      Received: 00000005   Item Number: 35 at 730 ns
%% Log    PASSED    in receiver_1: RxBurstFifo,      Received: 00000007   Item Number: 36 at 730 ns
%% Log    PASSED    in receiver_1: RxBurstFifo,      Received: 00000009   Item Number: 37 at 730 ns
%% Log    PASSED    in receiver_1: RxBurstFifo,      Received: 0000000B   Item Number: 38 at 730 ns
%% Log    PASSED    in receiver_1: RxBurstFifo,      Received: 0000000D   Item Number: 39 at 730 ns
%% Log    PASSED    in receiver_1: RxBurstFifo,      Received: 0000000F   Item Number: 40 at 730 ns
%% Log    PASSED    in receiver_1: RxBurstFifo,      Received: 00000011   Item Number: 41 at 730 ns
%% Log    PASSED    in receiver_1: RxBurstFifo,      Received: 00000013   Item Number: 42 at 730 ns
%% Log    PASSED    in receiver_1: RxBurstFifo,      Received: 00000015   Item Number: 43 at 730 ns
%% Log    PASSED    in receiver_1: RxBurstFifo,      Received: 00000017   Item Number: 44 at 730 ns
%% Log    PASSED    in receiver_1: RxBurstFifo,      Received: 00000019   Item Number: 45 at 730 ns
%% Log    PASSED    in receiver_1: RxBurstFifo,      Received: 0000001B   Item Number: 46 at 730 ns
%% Log    PASSED    in receiver_1: RxBurstFifo,      Received: 0000001D   Item Number: 47 at 730 ns
%% Log    PASSED    in receiver_1: RxBurstFifo,      Received: 0000001F   Item Number: 48 at 730 ns
%% Log    PASSED    in receiver_1: RxBurstFifo,      Received: 00000021   Item Number: 49 at 730 ns
%% Log    PASSED    in receiver_1: RxBurstFifo,      Received: 00000023   Item Number: 50 at 730 ns
%% Log    PASSED    in receiver_1: RxBurstFifo,      Received: 00000025   Item Number: 51 at 730 ns
%% Log    PASSED    in receiver_1: RxBurstFifo,      Received: 00000027   Item Number: 52 at 730 ns
%% Log    PASSED    in receiver_1: RxBurstFifo,      Received: 00000029   Item Number: 53 at 730 ns
%% Log    PASSED    in receiver_1: RxBurstFifo,      Received: 0000002B   Item Number: 54 at 730 ns
%% Log    PASSED    in receiver_1: RxBurstFifo,      Received: 0000002D   Item Number: 55 at 730 ns
%% Log    PASSED    in receiver_1: RxBurstFifo,      Received: 0000002F   Item Number: 56 at 730 ns
%% Log    PASSED    in receiver_1: RxBurstFifo,      Received: 00000031   Item Number: 57 at 730 ns
%% Log    PASSED    in receiver_1: RxBurstFifo,      Received: 00000033   Item Number: 58 at 730 ns
%% Log    PASSED    in receiver_1: RxBurstFifo,      Received: 00000035   Item Number: 59 at 730 ns
%% Log    PASSED    in receiver_1: RxBurstFifo,      Received: 00000037   Item Number: 60 at 730 ns
%% Log    PASSED    in receiver_1: RxBurstFifo,      Received: 00000039   Item Number: 61 at 730 ns
%% Log    PASSED    in receiver_1: RxBurstFifo,      Received: 0000003B   Item Number: 62 at 730 ns
%% Log    INFO      in receiver_1,   Burst Check.  Operation# 2  Last Data: 0000003B  TID: 00  TDest: 0  TUser: 0  TLast: 1 at 730 ns
%% Log    PASSED    in receiver_1,   Burst Check WordCount Received : 30 at 730 ns
%% Log    PASSED    in receiver_1,   ID Received : 00 at 730 ns
%% Log    PASSED    in receiver_1,   DEST Received : 0 at 730 ns
%% Log    PASSED    in receiver_1,   USER Received : 0 at 730 ns
%% Log    PASSED    in receiver_1,   Last Received : 1 at 730 ns
%% Log    PASSED    in Default,   TryCount 26 at 730 ns
%% Log    INFO      in transmitter_1,   Axi Stream Send.  TData: D212BD36  TStrb: 1111  TKeep: 1111  TID: 00  TDest: 0  TUser: 0  TLast: 0  Operation# 64 at 740 ns
%% Log    INFO      in transmitter_1,   Axi Stream Send.  TData: 57A2241D  TStrb: 1111  TKeep: 1111  TID: 00  TDest: 0  TUser: 0  TLast: 0  Operation# 65 at 750 ns
%% Log    INFO      in transmitter_1,   Axi Stream Send.  TData: 69A8E241  TStrb: 1111  TKeep: 1111  TID: 00  TDest: 0  TUser: 0  TLast: 0  Operation# 66 at 760 ns
%% Log    INFO      in transmitter_1,   Axi Stream Send.  TData: 5BD71872  TStrb: 1111  TKeep: 1111  TID: 00  TDest: 0  TUser: 0  TLast: 0  Operation# 67 at 770 ns
%% Log    INFO      in transmitter_1,   Axi Stream Send.  TData: 63E8B2A0  TStrb: 1111  TKeep: 1111  TID: 00  TDest: 0  TUser: 0  TLast: 0  Operation# 68 at 780 ns
%% Log    INFO      in transmitter_1,   Axi Stream Send.  TData: 6ECC4363  TStrb: 1111  TKeep: 1111  TID: 00  TDest: 0  TUser: 0  TLast: 0  Operation# 69 at 790 ns
%% Log    INFO      in transmitter_1,   Axi Stream Send.  TData: 95D9F7AA  TStrb: 1111  TKeep: 1111  TID: 00  TDest: 0  TUser: 0  TLast: 0  Operation# 70 at 800 ns
%% Log    INFO      in transmitter_1,   Axi Stream Send.  TData: 2CC54527  TStrb: 1111  TKeep: 1111  TID: 00  TDest: 0  TUser: 0  TLast: 0  Operation# 71 at 810 ns
%% Log    INFO      in transmitter_1,   Axi Stream Send.  TData: 598DA423  TStrb: 1111  TKeep: 1111  TID: 00  TDest: 0  TUser: 0  TLast: 0  Operation# 72 at 820 ns
%% Log    INFO      in transmitter_1,   Axi Stream Send.  TData: EDB81754  TStrb: 1111  TKeep: 1111  TID: 00  TDest: 0  TUser: 0  TLast: 0  Operation# 73 at 830 ns
%% Log    INFO      in transmitter_1,   Axi Stream Send.  TData: 00CB763E  TStrb: 1111  TKeep: 1111  TID: 00  TDest: 0  TUser: 0  TLast: 0  Operation# 74 at 840 ns
%% Log    INFO      in transmitter_1,   Axi Stream Send.  TData: DC0D1078  TStrb: 1111  TKeep: 1111  TID: 00  TDest: 0  TUser: 0  TLast: 0  Operation# 75 at 850 ns
%% Log    INFO      in transmitter_1,   Axi Stream Send.  TData: 4FE9D7FB  TStrb: 1111  TKeep: 1111  TID: 00  TDest: 0  TUser: 0  TLast: 0  Operation# 76 at 860 ns
%% Log    INFO      in transmitter_1,   Axi Stream Send.  TData: 9AC00349  TStrb: 1111  TKeep: 1111  TID: 00  TDest: 0  TUser: 0  TLast: 0  Operation# 77 at 870 ns
%% Log    INFO      in transmitter_1,   Axi Stream Send.  TData: 99CF7D6B  TStrb: 1111  TKeep: 1111  TID: 00  TDest: 0  TUser: 0  TLast: 0  Operation# 78 at 880 ns
%% Log    INFO      in transmitter_1,   Axi Stream Send.  TData: 6B7648E2  TStrb: 1111  TKeep: 1111  TID: 00  TDest: 0  TUser: 0  TLast: 0  Operation# 79 at 890 ns
%% Log    INFO      in transmitter_1,   Axi Stream Send.  TData: C9CF8704  TStrb: 1111  TKeep: 1111  TID: 00  TDest: 0  TUser: 0  TLast: 0  Operation# 80 at 900 ns
%% Log    INFO      in transmitter_1,   Axi Stream Send.  TData: 666D022B  TStrb: 1111  TKeep: 1111  TID: 00  TDest: 0  TUser: 0  TLast: 0  Operation# 81 at 910 ns
%% Log    INFO      in transmitter_1,   Axi Stream Send.  TData: 8BF72BC4  TStrb: 1111  TKeep: 1111  TID: 00  TDest: 0  TUser: 0  TLast: 0  Operation# 82 at 920 ns
%% Log    INFO      in transmitter_1,   Axi Stream Send.  TData: 42A2C67C  TStrb: 1111  TKeep: 1111  TID: 00  TDest: 0  TUser: 0  TLast: 0  Operation# 83 at 930 ns
%% Log    INFO      in transmitter_1,   Axi Stream Send.  TData: 4FE5F946  TStrb: 1111  TKeep: 1111  TID: 00  TDest: 0  TUser: 0  TLast: 0  Operation# 84 at 940 ns
%% Log    INFO      in transmitter_1,   Axi Stream Send.  TData: 8A6B08D2  TStrb: 1111  TKeep: 1111  TID: 00  TDest: 0  TUser: 0  TLast: 0  Operation# 85 at 950 ns
%% Log    INFO      in transmitter_1,   Axi Stream Send.  TData: B6AB7A63  TStrb: 1111  TKeep: 1111  TID: 00  TDest: 0  TUser: 0  TLast: 0  Operation# 86 at 960 ns
%% Log    INFO      in transmitter_1,   Axi Stream Send.  TData: E0407FC9  TStrb: 1111  TKeep: 1111  TID: 00  TDest: 0  TUser: 0  TLast: 0  Operation# 87 at 970 ns
%% Log    INFO      in transmitter_1,   Axi Stream Send.  TData: 9028653B  TStrb: 1111  TKeep: 1111  TID: 00  TDest: 0  TUser: 0  TLast: 0  Operation# 88 at 980 ns
%% Log    INFO      in transmitter_1,   Axi Stream Send.  TData: E4355C9A  TStrb: 1111  TKeep: 1111  TID: 00  TDest: 0  TUser: 0  TLast: 0  Operation# 89 at 990 ns
%% Log    INFO      in transmitter_1,   Axi Stream Send.  TData: 94068752  TStrb: 1111  TKeep: 1111  TID: 00  TDest: 0  TUser: 0  TLast: 0  Operation# 90 at 1000 ns
%% Log    INFO      in transmitter_1,   Axi Stream Send.  TData: 2E3B5613  TStrb: 1111  TKeep: 1111  TID: 00  TDest: 0  TUser: 0  TLast: 0  Operation# 91 at 1010 ns
%% Log    INFO      in transmitter_1,   Axi Stream Send.  TData: ABE134D3  TStrb: 1111  TKeep: 1111  TID: 00  TDest: 0  TUser: 0  TLast: 0  Operation# 92 at 1020 ns
%% Log    INFO      in transmitter_1,   Axi Stream Send.  TData: 3C61861F  TStrb: 1111  TKeep: 1111  TID: 00  TDest: 0  TUser: 0  TLast: 0  Operation# 93 at 1030 ns
%% Log    INFO      in transmitter_1,   Axi Stream Send.  TData: A24B239C  TStrb: 1111  TKeep: 1111  TID: 00  TDest: 0  TUser: 0  TLast: 0  Operation# 94 at 1040 ns
%% Log    INFO      in transmitter_1,   Axi Stream Send.  TData: AC948192  TStrb: 1111  TKeep: 1111  TID: 00  TDest: 0  TUser: 0  TLast: 0  Operation# 95 at 1050 ns
%% Log    INFO      in transmitter_1,   Axi Stream Send.  TData: FC30C515  TStrb: 1111  TKeep: 1111  TID: 00  TDest: 0  TUser: 0  TLast: 1  Operation# 96 at 1060 ns
%% Log    INFO      in transmitter_1,   Axi Stream Send.  TData: 00000000  TStrb: 1111  TKeep: 1111  TID: 00  TDest: 0  TUser: 0  TLast: 0  Operation# 97 at 1070 ns
%% Log    PASSED    in receiver_1: RxBurstFifo,      Received: 00000007   Item Number: 63 at 1070 ns
%% Log    PASSED    in receiver_1: RxBurstFifo,      Received: D212BD36   Item Number: 64 at 1070 ns
%% Log    PASSED    in receiver_1: RxBurstFifo,      Received: 57A2241D   Item Number: 65 at 1070 ns
%% Log    PASSED    in receiver_1: RxBurstFifo,      Received: 69A8E241   Item Number: 66 at 1070 ns
%% Log    PASSED    in receiver_1: RxBurstFifo,      Received: 5BD71872   Item Number: 67 at 1070 ns
%% Log    PASSED    in receiver_1: RxBurstFifo,      Received: 63E8B2A0   Item Number: 68 at 1070 ns
%% Log    PASSED    in receiver_1: RxBurstFifo,      Received: 6ECC4363   Item Number: 69 at 1070 ns
%% Log    PASSED    in receiver_1: RxBurstFifo,      Received: 95D9F7AA   Item Number: 70 at 1070 ns
%% Log    PASSED    in receiver_1: RxBurstFifo,      Received: 2CC54527   Item Number: 71 at 1070 ns
%% Log    PASSED    in receiver_1: RxBurstFifo,      Received: 598DA423   Item Number: 72 at 1070 ns
%% Log    PASSED    in receiver_1: RxBurstFifo,      Received: EDB81754   Item Number: 73 at 1070 ns
%% Log    PASSED    in receiver_1: RxBurstFifo,      Received: 00CB763E   Item Number: 74 at 1070 ns
%% Log    PASSED    in receiver_1: RxBurstFifo,      Received: DC0D1078   Item Number: 75 at 1070 ns
%% Log    PASSED    in receiver_1: RxBurstFifo,      Received: 4FE9D7FB   Item Number: 76 at 1070 ns
%% Log    PASSED    in receiver_1: RxBurstFifo,      Received: 9AC00349   Item Number: 77 at 1070 ns
%% Log    PASSED    in receiver_1: RxBurstFifo,      Received: 99CF7D6B   Item Number: 78 at 1070 ns
%% Log    PASSED    in receiver_1: RxBurstFifo,      Received: 6B7648E2   Item Number: 79 at 1070 ns
%% Log    PASSED    in receiver_1: RxBurstFifo,      Received: C9CF8704   Item Number: 80 at 1070 ns
%% Log    PASSED    in receiver_1: RxBurstFifo,      Received: 666D022B   Item Number: 81 at 1070 ns
%% Log    PASSED    in receiver_1: RxBurstFifo,      Received: 8BF72BC4   Item Number: 82 at 1070 ns
%% Log    PASSED    in receiver_1: RxBurstFifo,      Received: 42A2C67C   Item Number: 83 at 1070 ns
%% Log    PASSED    in receiver_1: RxBurstFifo,      Received: 4FE5F946   Item Number: 84 at 1070 ns
%% Log    PASSED    in receiver_1: RxBurstFifo,      Received: 8A6B08D2   Item Number: 85 at 1070 ns
%% Log    PASSED    in receiver_1: RxBurstFifo,      Received: B6AB7A63   Item Number: 86 at 1070 ns
%% Log    PASSED    in receiver_1: RxBurstFifo,      Received: E0407FC9   Item Number: 87 at 1070 ns
%% Log    PASSED    in receiver_1: RxBurstFifo,      Received: 9028653B   Item Number: 88 at 1070 ns
%% Log    PASSED    in receiver_1: RxBurstFifo,      Received: E4355C9A   Item Number: 89 at 1070 ns
%% Log    PASSED    in receiver_1: RxBurstFifo,      Received: 94068752   Item Number: 90 at 1070 ns
%% Log    PASSED    in receiver_1: RxBurstFifo,      Received: 2E3B5613   Item Number: 91 at 1070 ns
%% Log    PASSED    in receiver_1: RxBurstFifo,      Received: ABE134D3   Item Number: 92 at 1070 ns
%% Log    PASSED    in receiver_1: RxBurstFifo,      Received: 3C61861F   Item Number: 93 at 1070 ns
%% Log    PASSED    in receiver_1: RxBurstFifo,      Received: A24B239C   Item Number: 94 at 1070 ns
%% Log    PASSED    in receiver_1: RxBurstFifo,      Received: AC948192   Item Number: 95 at 1070 ns
%% Log    PASSED    in receiver_1: RxBurstFifo,      Received: FC30C515   Item Number: 96 at 1070 ns
%% Log    INFO      in receiver_1,   Burst Check.  Operation# 3  Last Data: FC30C515  TID: 00  TDest: 0  TUser: 0  TLast: 1 at 1070 ns
%% Log    PASSED    in receiver_1,   Burst Check WordCount Received : 34 at 1070 ns
%% Log    PASSED    in receiver_1,   ID Received : 00 at 1070 ns
%% Log    PASSED    in receiver_1,   DEST Received : 0 at 1070 ns
%% Log    PASSED    in receiver_1,   USER Received : 0 at 1070 ns
%% Log    PASSED    in receiver_1,   Last Received : 1 at 1070 ns
%% Log    PASSED    in Default,   TryCount 30 at 1070 ns
%% Log    INFO      in transmitter_1,   Axi Stream Send.  TData: 00000001  TStrb: 1111  TKeep: 1111  TID: 00  TDest: 0  TUser: 0  TLast: 0  Operation# 98 at 1080 ns
%% Log    INFO      in transmitter_1,   Axi Stream Send.  TData: 00000002  TStrb: 1111  TKeep: 1111  TID: 00  TDest: 0  TUser: 0  TLast: 0  Operation# 99 at 1090 ns
%% Log    INFO      in transmitter_1,   Axi Stream Send.  TData: 00000003  TStrb: 1111  TKeep: 1111  TID: 00  TDest: 0  TUser: 0  TLast: 0  Operation# 100 at 1100 ns
%% Log    INFO      in transmitter_1,   Axi Stream Send.  TData: 00000004  TStrb: 1111  TKeep: 1111  TID: 00  TDest: 0  TUser: 0  TLast: 0  Operation# 101 at 1110 ns
%% Log    INFO      in transmitter_1,   Axi Stream Send.  TData: 00000005  TStrb: 1111  TKeep: 1111  TID: 00  TDest: 0  TUser: 0  TLast: 0  Operation# 102 at 1120 ns
%% Log    INFO      in transmitter_1,   Axi Stream Send.  TData: 00000006  TStrb: 1111  TKeep: 1111  TID: 00  TDest: 0  TUser: 0  TLast: 0  Operation# 103 at 1130 ns
%% Log    INFO      in transmitter_1,   Axi Stream Send.  TData: 00000007  TStrb: 1111  TKeep: 1111  TID: 00  TDest: 0  TUser: 0  TLast: 0  Operation# 104 at 1140 ns
%% Log    INFO      in transmitter_1,   Axi Stream Send.  TData: 00000008  TStrb: 1111  TKeep: 1111  TID: 00  TDest: 0  TUser: 0  TLast: 0  Operation# 105 at 1150 ns
%% Log    INFO      in transmitter_1,   Axi Stream Send.  TData: 00000009  TStrb: 1111  TKeep: 1111  TID: 00  TDest: 0  TUser: 0  TLast: 0  Operation# 106 at 1160 ns
%% Log    INFO      in transmitter_1,   Axi Stream Send.  TData: 0000000A  TStrb: 1111  TKeep: 1111  TID: 00  TDest: 0  TUser: 0  TLast: 0  Operation# 107 at 1170 ns
%% Log    INFO      in transmitter_1,   Axi Stream Send.  TData: 0000000B  TStrb: 1111  TKeep: 1111  TID: 00  TDest: 0  TUser: 0  TLast: 0  Operation# 108 at 1180 ns
%% Log    INFO      in transmitter_1,   Axi Stream Send.  TData: 0000000C  TStrb: 1111  TKeep: 1111  TID: 00  TDest: 0  TUser: 0  TLast: 0  Operation# 109 at 1190 ns
%% Log    INFO      in transmitter_1,   Axi Stream Send.  TData: 0000000D  TStrb: 1111  TKeep: 1111  TID: 00  TDest: 0  TUser: 0  TLast: 0  Operation# 110 at 1200 ns
%% Log    INFO      in transmitter_1,   Axi Stream Send.  TData: 0000000E  TStrb: 1111  TKeep: 1111  TID: 00  TDest: 0  TUser: 0  TLast: 0  Operation# 111 at 1210 ns
%% Log    INFO      in transmitter_1,   Axi Stream Send.  TData: 0000000F  TStrb: 1111  TKeep: 1111  TID: 00  TDest: 0  TUser: 0  TLast: 0  Operation# 112 at 1220 ns
%% Log    INFO      in transmitter_1,   Axi Stream Send.  TData: 00000010  TStrb: 1111  TKeep: 1111  TID: 00  TDest: 0  TUser: 0  TLast: 0  Operation# 113 at 1230 ns
%% Log    INFO      in transmitter_1,   Axi Stream Send.  TData: 00000011  TStrb: 1111  TKeep: 1111  TID: 00  TDest: 0  TUser: 0  TLast: 0  Operation# 114 at 1240 ns
%% Log    INFO      in transmitter_1,   Axi Stream Send.  TData: 00000012  TStrb: 1111  TKeep: 1111  TID: 00  TDest: 0  TUser: 0  TLast: 0  Operation# 115 at 1250 ns
%% Log    INFO      in transmitter_1,   Axi Stream Send.  TData: 00000013  TStrb: 1111  TKeep: 1111  TID: 00  TDest: 0  TUser: 0  TLast: 0  Operation# 116 at 1260 ns
%% Log    INFO      in transmitter_1,   Axi Stream Send.  TData: 00000014  TStrb: 1111  TKeep: 1111  TID: 00  TDest: 0  TUser: 0  TLast: 0  Operation# 117 at 1270 ns
%% Log    INFO      in transmitter_1,   Axi Stream Send.  TData: 00000015  TStrb: 1111  TKeep: 1111  TID: 00  TDest: 0  TUser: 0  TLast: 0  Operation# 118 at 1280 ns
%% Log    INFO      in transmitter_1,   Axi Stream Send.  TData: 00000016  TStrb: 1111  TKeep: 1111  TID: 00  TDest: 0  TUser: 0  TLast: 0  Operation# 119 at 1290 ns
%% Log    INFO      in transmitter_1,   Axi Stream Send.  TData: 00000017  TStrb: 1111  TKeep: 1111  TID: 00  TDest: 0  TUser: 0  TLast: 0  Operation# 120 at 1300 ns
%% Log    INFO      in transmitter_1,   Axi Stream Send.  TData: 00000018  TStrb: 1111  TKeep: 1111  TID: 00  TDest: 0  TUser: 0  TLast: 0  Operation# 121 at 1310 ns
%% Log    INFO      in transmitter_1,   Axi Stream Send.  TData: 00000019  TStrb: 1111  TKeep: 1111  TID: 00  TDest: 0  TUser: 0  TLast: 0  Operation# 122 at 1320 ns
%% Log    INFO      in transmitter_1,   Axi Stream Send.  TData: 0000001A  TStrb: 1111  TKeep: 1111  TID: 00  TDest: 0  TUser: 0  TLast: 0  Operation# 123 at 1330 ns
%% Log    INFO      in transmitter_1,   Axi Stream Send.  TData: 0000001B  TStrb: 1111  TKeep: 1111  TID: 00  TDest: 0  TUser: 0  TLast: 0  Operation# 124 at 1340 ns
%% Log    INFO      in transmitter_1,   Axi Stream Send.  TData: 0000001C  TStrb: 1111  TKeep: 1111  TID: 00  TDest: 0  TUser: 0  TLast: 0  Operation# 125 at 1350 ns
%% Log    INFO      in transmitter_1,   Axi Stream Send.  TData: 0000001D  TStrb: 1111  TKeep: 1111  TID: 00  TDest: 0  TUser: 0  TLast: 0  Operation# 126 at 1360 ns
%% Log    INFO      in transmitter_1,   Axi Stream Send.  TData: 0000001E  TStrb: 1111  TKeep: 1111  TID: 00  TDest: 0  TUser: 0  TLast: 0  Operation# 127 at 1370 ns
%% Log    INFO      in transmitter_1,   Axi Stream Send.  TData: 0000001F  TStrb: 1111  TKeep: 1111  TID: 00  TDest: 0  TUser: 0  TLast: 1  Operation# 128 at 1380 ns
%% Log    INFO      in transmitter_1,   Axi Stream Send.  TData: 00000020  TStrb: 1111  TKeep: 1111  TID: 00  TDest: 0  TUser: 0  TLast: 0  Operation# 129 at 1390 ns
%% Log    PASSED    in receiver_1: RxBurstFifo,      Received: 00000000   Item Number: 97 at 1390 ns
%% Log    PASSED    in receiver_1: RxBurstFifo,      Received: 00000001   Item Number: 98 at 1390 ns
%% Log    PASSED    in receiver_1: RxBurstFifo,      Received: 00000002   Item Number: 99 at 1390 ns
%% Log    PASSED    in receiver_1: RxBurstFifo,      Received: 00000003   Item Number: 100 at 1390 ns
%% Log    PASSED    in receiver_1: RxBurstFifo,      Received: 00000004   Item Number: 101 at 1390 ns
%% Log    PASSED    in receiver_1: RxBurstFifo,      Received: 00000005   Item Number: 102 at 1390 ns
%% Log    PASSED    in receiver_1: RxBurstFifo,      Received: 00000006   Item Number: 103 at 1390 ns
%% Log    PASSED    in receiver_1: RxBurstFifo,      Received: 00000007   Item Number: 104 at 1390 ns
%% Log    PASSED    in receiver_1: RxBurstFifo,      Received: 00000008   Item Number: 105 at 1390 ns
%% Log    PASSED    in receiver_1: RxBurstFifo,      Received: 00000009   Item Number: 106 at 1390 ns
%% Log    PASSED    in receiver_1: RxBurstFifo,      Received: 0000000A   Item Number: 107 at 1390 ns
%% Log    PASSED    in receiver_1: RxBurstFifo,      Received: 0000000B   Item Number: 108 at 1390 ns
%% Log    PASSED    in receiver_1: RxBurstFifo,      Received: 0000000C   Item Number: 109 at 1390 ns
%% Log    PASSED    in receiver_1: RxBurstFifo,      Received: 0000000D   Item Number: 110 at 1390 ns
%% Log    PASSED    in receiver_1: RxBurstFifo,      Received: 0000000E   Item Number: 111 at 1390 ns
%% Log    PASSED    in receiver_1: RxBurstFifo,      Received: 0000000F   Item Number: 112 at 1390 ns
%% Log    PASSED    in receiver_1: RxBurstFifo,      Received: 00000010   Item Number: 113 at 1390 ns
%% Log    PASSED    in receiver_1: RxBurstFifo,      Received: 00000011   Item Number: 114 at 1390 ns
%% Log    PASSED    in receiver_1: RxBurstFifo,      Received: 00000012   Item Number: 115 at 1390 ns
%% Log    PASSED    in receiver_1: RxBurstFifo,      Received: 00000013   Item Number: 116 at 1390 ns
%% Log    PASSED    in receiver_1: RxBurstFifo,      Received: 00000014   Item Number: 117 at 1390 ns
%% Log    PASSED    in receiver_1: RxBurstFifo,      Received: 00000015   Item Number: 118 at 1390 ns
%% Log    PASSED    in receiver_1: RxBurstFifo,      Received: 00000016   Item Number: 119 at 1390 ns
%% Log    PASSED    in receiver_1: RxBurstFifo,      Received: 00000017   Item Number: 120 at 1390 ns
%% Log    PASSED    in receiver_1: RxBurstFifo,      Received: 00000018   Item Number: 121 at 1390 ns
%% Log    PASSED    in receiver_1: RxBurstFifo,      Received: 00000019   Item Number: 122 at 1390 ns
%% Log    PASSED    in receiver_1: RxBurstFifo,      Received: 0000001A   Item Number: 123 at 1390 ns
%% Log    PASSED    in receiver_1: RxBurstFifo,      Received: 0000001B   Item Number: 124 at 1390 ns
%% Log    PASSED    in receiver_1: RxBurstFifo,      Received: 0000001C   Item Number: 125 at 1390 ns
%% Log    PASSED    in receiver_1: RxBurstFifo,      Received: 0000001D   Item Number: 126 at 1390 ns
%% Log    PASSED    in receiver_1: RxBurstFifo,      Received: 0000001E   Item Number: 127 at 1390 ns
%% Log    PASSED    in receiver_1: RxBurstFifo,      Received: 0000001F   Item Number: 128 at 1390 ns
%% Log    INFO      in receiver_1,   Burst Check.  Operation# 4  Last Data: 0000001F  TID: 00  TDest: 0  TUser: 0  TLast: 1 at 1390 ns
%% Log    PASSED    in receiver_1,   Burst Check WordCount Received : 32 at 1390 ns
%% Log    PASSED    in receiver_1,   ID Received : 00 at 1390 ns
%% Log    PASSED    in receiver_1,   DEST Received : 0 at 1390 ns
%% Log    PASSED    in receiver_1,   USER Received : 0 at 1390 ns
%% Log    PASSED    in receiver_1,   Last Received : 1 at 1390 ns
%% Log    PASSED    in Default,   TryCount 32 at 1390 ns
%% Log    INFO      in transmitter_1,   Axi Stream Send.  TData: 00000021  TStrb: 1111  TKeep: 1111  TID: 00  TDest: 0  TUser: 0  TLast: 0  Operation# 130 at 1400 ns
%% Log    INFO      in transmitter_1,   Axi Stream Send.  TData: 00000022  TStrb: 1111  TKeep: 1111  TID: 00  TDest: 0  TUser: 0  TLast: 0  Operation# 131 at 1410 ns
%% Log    INFO      in transmitter_1,   Axi Stream Send.  TData: 00000023  TStrb: 1111  TKeep: 1111  TID: 00  TDest: 0  TUser: 0  TLast: 0  Operation# 132 at 1420 ns
%% Log    INFO      in transmitter_1,   Axi Stream Send.  TData: 00000024  TStrb: 1111  TKeep: 1111  TID: 00  TDest: 0  TUser: 0  TLast: 0  Operation# 133 at 1430 ns
%% Log    INFO      in transmitter_1,   Axi Stream Send.  TData: 00000025  TStrb: 1111  TKeep: 1111  TID: 00  TDest: 0  TUser: 0  TLast: 0  Operation# 134 at 1440 ns
%% Log    INFO      in transmitter_1,   Axi Stream Send.  TData: 00000026  TStrb: 1111  TKeep: 1111  TID: 00  TDest: 0  TUser: 0  TLast: 0  Operation# 135 at 1450 ns
%% Log    INFO      in transmitter_1,   Axi Stream Send.  TData: 00000027  TStrb: 1111  TKeep: 1111  TID: 00  TDest: 0  TUser: 0  TLast: 0  Operation# 136 at 1460 ns
%% Log    INFO      in transmitter_1,   Axi Stream Send.  TData: 00000028  TStrb: 1111  TKeep: 1111  TID: 00  TDest: 0  TUser: 0  TLast: 0  Operation# 137 at 1470 ns
%% Log    INFO      in transmitter_1,   Axi Stream Send.  TData: 00000029  TStrb: 1111  TKeep: 1111  TID: 00  TDest: 0  TUser: 0  TLast: 0  Operation# 138 at 1480 ns
%% Log    INFO      in transmitter_1,   Axi Stream Send.  TData: 0000002A  TStrb: 1111  TKeep: 1111  TID: 00  TDest: 0  TUser: 0  TLast: 0  Operation# 139 at 1490 ns
%% Log    INFO      in transmitter_1,   Axi Stream Send.  TData: 0000002B  TStrb: 1111  TKeep: 1111  TID: 00  TDest: 0  TUser: 0  TLast: 0  Operation# 140 at 1500 ns
%% Log    INFO      in transmitter_1,   Axi Stream Send.  TData: 0000002C  TStrb: 1111  TKeep: 1111  TID: 00  TDest: 0  TUser: 0  TLast: 0  Operation# 141 at 1510 ns
%% Log    INFO      in transmitter_1,   Axi Stream Send.  TData: 0000002D  TStrb: 1111  TKeep: 1111  TID: 00  TDest: 0  TUser: 0  TLast: 0  Operation# 142 at 1520 ns
%% Log    INFO      in transmitter_1,   Axi Stream Send.  TData: 0000002E  TStrb: 1111  TKeep: 1111  TID: 00  TDest: 0  TUser: 0  TLast: 0  Operation# 143 at 1530 ns
%% Log    INFO      in transmitter_1,   Axi Stream Send.  TData: 0000002F  TStrb: 1111  TKeep: 1111  TID: 00  TDest: 0  TUser: 0  TLast: 0  Operation# 144 at 1540 ns
%% Log    INFO      in transmitter_1,   Axi Stream Send.  TData: 00000030  TStrb: 1111  TKeep: 1111  TID: 00  TDest: 0  TUser: 0  TLast: 0  Operation# 145 at 1550 ns
%% Log    INFO      in transmitter_1,   Axi Stream Send.  TData: 00000031  TStrb: 1111  TKeep: 1111  TID: 00  TDest: 0  TUser: 0  TLast: 0  Operation# 146 at 1560 ns
%% Log    INFO      in transmitter_1,   Axi Stream Send.  TData: 00000032  TStrb: 1111  TKeep: 1111  TID: 00  TDest: 0  TUser: 0  TLast: 0  Operation# 147 at 1570 ns
%% Log    INFO      in transmitter_1,   Axi Stream Send.  TData: 00000033  TStrb: 1111  TKeep: 1111  TID: 00  TDest: 0  TUser: 0  TLast: 0  Operation# 148 at 1580 ns
%% Log    INFO      in transmitter_1,   Axi Stream Send.  TData: 00000034  TStrb: 1111  TKeep: 1111  TID: 00  TDest: 0  TUser: 0  TLast: 0  Operation# 149 at 1590 ns
%% Log    INFO      in transmitter_1,   Axi Stream Send.  TData: 00000035  TStrb: 1111  TKeep: 1111  TID: 00  TDest: 0  TUser: 0  TLast: 0  Operation# 150 at 1600 ns
%% Log    INFO      in transmitter_1,   Axi Stream Send.  TData: 00000036  TStrb: 1111  TKeep: 1111  TID: 00  TDest: 0  TUser: 0  TLast: 0  Operation# 151 at 1610 ns
%% Log    INFO      in transmitter_1,   Axi Stream Send.  TData: 00000037  TStrb: 1111  TKeep: 1111  TID: 00  TDest: 0  TUser: 0  TLast: 0  Operation# 152 at 1620 ns
%% Log    INFO      in transmitter_1,   Axi Stream Send.  TData: 00000038  TStrb: 1111  TKeep: 1111  TID: 00  TDest: 0  TUser: 0  TLast: 0  Operation# 153 at 1630 ns
%% Log    INFO      in transmitter_1,   Axi Stream Send.  TData: 00000039  TStrb: 1111  TKeep: 1111  TID: 00  TDest: 0  TUser: 0  TLast: 0  Operation# 154 at 1640 ns
%% Log    INFO      in transmitter_1,   Axi Stream Send.  TData: 0000003A  TStrb: 1111  TKeep: 1111  TID: 00  TDest: 0  TUser: 0  TLast: 0  Operation# 155 at 1650 ns
%% Log    INFO      in transmitter_1,   Axi Stream Send.  TData: 0000003B  TStrb: 1111  TKeep: 1111  TID: 00  TDest: 0  TUser: 0  TLast: 0  Operation# 156 at 1660 ns
%% Log    INFO      in transmitter_1,   Axi Stream Send.  TData: 0000003C  TStrb: 1111  TKeep: 1111  TID: 00  TDest: 0  TUser: 0  TLast: 0  Operation# 157 at 1670 ns
%% Log    INFO      in transmitter_1,   Axi Stream Send.  TData: 0000003D  TStrb: 1111  TKeep: 1111  TID: 00  TDest: 0  TUser: 0  TLast: 0  Operation# 158 at 1680 ns
%% Log    INFO      in transmitter_1,   Axi Stream Send.  TData: 0000003E  TStrb: 1111  TKeep: 1111  TID: 00  TDest: 0  TUser: 0  TLast: 0  Operation# 159 at 1690 ns
%% Log    INFO      in transmitter_1,   Axi Stream Send.  TData: 0000003F  TStrb: 1111  TKeep: 1111  TID: 00  TDest: 0  TUser: 0  TLast: 0  Operation# 160 at 1700 ns
%% Log    INFO      in transmitter_1,   Axi Stream Send.  TData: 00000040  TStrb: 1111  TKeep: 1111  TID: 00  TDest: 0  TUser: 0  TLast: 0  Operation# 161 at 1710 ns
%% Log    INFO      in transmitter_1,   Axi Stream Send.  TData: 00000041  TStrb: 1111  TKeep: 1111  TID: 00  TDest: 0  TUser: 0  TLast: 0  Operation# 162 at 1720 ns
%% Log    INFO      in transmitter_1,   Axi Stream Send.  TData: 00000042  TStrb: 1111  TKeep: 1111  TID: 00  TDest: 0  TUser: 0  TLast: 0  Operation# 163 at 1730 ns
%% Log    INFO      in transmitter_1,   Axi Stream Send.  TData: 00000043  TStrb: 1111  TKeep: 1111  TID: 00  TDest: 0  TUser: 0  TLast: 0  Operation# 164 at 1740 ns
%% Log    INFO      in transmitter_1,   Axi Stream Send.  TData: 00000044  TStrb: 1111  TKeep: 1111  TID: 00  TDest: 0  TUser: 0  TLast: 1  Operation# 165 at 1750 ns
%% Log    INFO      in transmitter_1,   Axi Stream Send.  TData: 00000040  TStrb: 1111  TKeep: 1111  TID: 00  TDest: 0  TUser: 0  TLast: 0  Operation# 166 at 1760 ns
%% Log    PASSED    in receiver_1: RxBurstFifo,      Received: 00000020   Item Number: 129 at 1760 ns
%% Log    PASSED    in receiver_1: RxBurstFifo,      Received: 00000021   Item Number: 130 at 1760 ns
%% Log    PASSED    in receiver_1: RxBurstFifo,      Received: 00000022   Item Number: 131 at 1760 ns
%% Log    PASSED    in receiver_1: RxBurstFifo,      Received: 00000023   Item Number: 132 at 1760 ns
%% Log    PASSED    in receiver_1: RxBurstFifo,      Received: 00000024   Item Number: 133 at 1760 ns
%% Log    PASSED    in receiver_1: RxBurstFifo,      Received: 00000025   Item Number: 134 at 1760 ns
%% Log    PASSED    in receiver_1: RxBurstFifo,      Received: 00000026   Item Number: 135 at 1760 ns
%% Log    PASSED    in receiver_1: RxBurstFifo,      Received: 00000027   Item Number: 136 at 1760 ns
%% Log    PASSED    in receiver_1: RxBurstFifo,      Received: 00000028   Item Number: 137 at 1760 ns
%% Log    PASSED    in receiver_1: RxBurstFifo,      Received: 00000029   Item Number: 138 at 1760 ns
%% Log    PASSED    in receiver_1: RxBurstFifo,      Received: 0000002A   Item Number: 139 at 1760 ns
%% Log    PASSED    in receiver_1: RxBurstFifo,      Received: 0000002B   Item Number: 140 at 1760 ns
%% Log    PASSED    in receiver_1: RxBurstFifo,      Received: 0000002C   Item Number: 141 at 1760 ns
%% Log    PASSED    in receiver_1: RxBurstFifo,      Received: 0000002D   Item Number: 142 at 1760 ns
%% Log    PASSED    in receiver_1: RxBurstFifo,      Received: 0000002E   Item Number: 143 at 1760 ns
%% Log    PASSED    in receiver_1: RxBurstFifo,      Received: 0000002F   Item Number: 144 at 1760 ns
%% Log    PASSED    in receiver_1: RxBurstFifo,      Received: 00000030   Item Number: 145 at 1760 ns
%% Log    PASSED    in receiver_1: RxBurstFifo,      Received: 00000031   Item Number: 146 at 1760 ns
%% Log    PASSED    in receiver_1: RxBurstFifo,      Received: 00000032   Item Number: 147 at 1760 ns
%% Log    PASSED    in receiver_1: RxBurstFifo,      Received: 00000033   Item Number: 148 at 1760 ns
%% Log    PASSED    in receiver_1: RxBurstFifo,      Received: 00000034   Item Number: 149 at 1760 ns
%% Log    PASSED    in receiver_1: RxBurstFifo,      Received: 00000035   Item Number: 150 at 1760 ns
%% Log    PASSED    in receiver_1: RxBurstFifo,      Received: 00000036   Item Number: 151 at 1760 ns
%% Log    PASSED    in receiver_1: RxBurstFifo,      Received: 00000037   Item Number: 152 at 1760 ns
%% Log    PASSED    in receiver_1: RxBurstFifo,      Received: 00000038   Item Number: 153 at 1760 ns
%% Log    PASSED    in receiver_1: RxBurstFifo,      Received: 00000039   Item Number: 154 at 1760 ns
%% Log    PASSED    in receiver_1: RxBurstFifo,      Received: 0000003A   Item Number: 155 at 1760 ns
%% Log    PASSED    in receiver_1: RxBurstFifo,      Received: 0000003B   Item Number: 156 at 1760 ns
%% Log    PASSED    in receiver_1: RxBurstFifo,      Received: 0000003C   Item Number: 157 at 1760 ns
%% Log    PASSED    in receiver_1: RxBurstFifo,      Received: 0000003D   Item Number: 158 at 1760 ns
%% Log    PASSED    in receiver_1: RxBurstFifo,      Received: 0000003E   Item Number: 159 at 1760 ns
%% Log    PASSED    in receiver_1: RxBurstFifo,      Received: 0000003F   Item Number: 160 at 1760 ns
%% Log    PASSED    in receiver_1: RxBurstFifo,      Received: 00000040   Item Number: 161 at 1760 ns
%% Log    PASSED    in receiver_1: RxBurstFifo,      Received: 00000041   Item Number: 162 at 1760 ns
%% Log    PASSED    in receiver_1: RxBurstFifo,      Received: 00000042   Item Number: 163 at 1760 ns
%% Log    PASSED    in receiver_1: RxBurstFifo,      Received: 00000043   Item Number: 164 at 1760 ns
%% Log    PASSED    in receiver_1: RxBurstFifo,      Received: 00000044   Item Number: 165 at 1760 ns
%% Log    INFO      in receiver_1,   Burst Check.  Operation# 5  Last Data: 00000044  TID: 00  TDest: 0  TUser: 0  TLast: 1 at 1760 ns
%% Log    PASSED    in receiver_1,   Burst Check WordCount Received : 37 at 1760 ns
%% Log    PASSED    in receiver_1,   ID Received : 00 at 1760 ns
%% Log    PASSED    in receiver_1,   DEST Received : 0 at 1760 ns
%% Log    PASSED    in receiver_1,   USER Received : 0 at 1760 ns
%% Log    PASSED    in receiver_1,   Last Received : 1 at 1760 ns
%% Log    PASSED    in Default,   TryCount 37 at 1760 ns
%% Log    INFO      in transmitter_1,   Axi Stream Send.  TData: 00000041  TStrb: 1111  TKeep: 1111  TID: 00  TDest: 0  TUser: 0  TLast: 0  Operation# 167 at 1770 ns
%% Log    INFO      in transmitter_1,   Axi Stream Send.  TData: 00000042  TStrb: 1111  TKeep: 1111  TID: 00  TDest: 0  TUser: 0  TLast: 0  Operation# 168 at 1780 ns
%% Log    INFO      in transmitter_1,   Axi Stream Send.  TData: 00000043  TStrb: 1111  TKeep: 1111  TID: 00  TDest: 0  TUser: 0  TLast: 0  Operation# 169 at 1790 ns
%% Log    INFO      in transmitter_1,   Axi Stream Send.  TData: 00000044  TStrb: 1111  TKeep: 1111  TID: 00  TDest: 0  TUser: 0  TLast: 0  Operation# 170 at 1800 ns
%% Log    INFO      in transmitter_1,   Axi Stream Send.  TData: 00000045  TStrb: 1111  TKeep: 1111  TID: 00  TDest: 0  TUser: 0  TLast: 0  Operation# 171 at 1810 ns
%% Log    INFO      in transmitter_1,   Axi Stream Send.  TData: 00000046  TStrb: 1111  TKeep: 1111  TID: 00  TDest: 0  TUser: 0  TLast: 0  Operation# 172 at 1820 ns
%% Log    INFO      in transmitter_1,   Axi Stream Send.  TData: 00000047  TStrb: 1111  TKeep: 1111  TID: 00  TDest: 0  TUser: 0  TLast: 0  Operation# 173 at 1830 ns
%% Log    INFO      in transmitter_1,   Axi Stream Send.  TData: 00000048  TStrb: 1111  TKeep: 1111  TID: 00  TDest: 0  TUser: 0  TLast: 0  Operation# 174 at 1840 ns
%% Log    INFO      in transmitter_1,   Axi Stream Send.  TData: 00000049  TStrb: 1111  TKeep: 1111  TID: 00  TDest: 0  TUser: 0  TLast: 0  Operation# 175 at 1850 ns
%% Log    INFO      in transmitter_1,   Axi Stream Send.  TData: 0000004A  TStrb: 1111  TKeep: 1111  TID: 00  TDest: 0  TUser: 0  TLast: 0  Operation# 176 at 1860 ns
%% Log    INFO      in transmitter_1,   Axi Stream Send.  TData: 0000004B  TStrb: 1111  TKeep: 1111  TID: 00  TDest: 0  TUser: 0  TLast: 0  Operation# 177 at 1870 ns
%% Log    INFO      in transmitter_1,   Axi Stream Send.  TData: 0000004C  TStrb: 1111  TKeep: 1111  TID: 00  TDest: 0  TUser: 0  TLast: 0  Operation# 178 at 1880 ns
%% Log    INFO      in transmitter_1,   Axi Stream Send.  TData: 0000004D  TStrb: 1111  TKeep: 1111  TID: 00  TDest: 0  TUser: 0  TLast: 0  Operation# 179 at 1890 ns
%% Log    INFO      in transmitter_1,   Axi Stream Send.  TData: 0000004E  TStrb: 1111  TKeep: 1111  TID: 00  TDest: 0  TUser: 0  TLast: 0  Operation# 180 at 1900 ns
%% Log    INFO      in transmitter_1,   Axi Stream Send.  TData: 0000004F  TStrb: 1111  TKeep: 1111  TID: 00  TDest: 0  TUser: 0  TLast: 0  Operation# 181 at 1910 ns
%% Log    INFO      in transmitter_1,   Axi Stream Send.  TData: 00000050  TStrb: 1111  TKeep: 1111  TID: 00  TDest: 0  TUser: 0  TLast: 0  Operation# 182 at 1920 ns
%% Log    INFO      in transmitter_1,   Axi Stream Send.  TData: 00000051  TStrb: 1111  TKeep: 1111  TID: 00  TDest: 0  TUser: 0  TLast: 0  Operation# 183 at 1930 ns
%% Log    INFO      in transmitter_1,   Axi Stream Send.  TData: 00000052  TStrb: 1111  TKeep: 1111  TID: 00  TDest: 0  TUser: 0  TLast: 0  Operation# 184 at 1940 ns
%% Log    INFO      in transmitter_1,   Axi Stream Send.  TData: 00000053  TStrb: 1111  TKeep: 1111  TID: 00  TDest: 0  TUser: 0  TLast: 0  Operation# 185 at 1950 ns
%% Log    INFO      in transmitter_1,   Axi Stream Send.  TData: 00000054  TStrb: 1111  TKeep: 1111  TID: 00  TDest: 0  TUser: 0  TLast: 0  Operation# 186 at 1960 ns
%% Log    INFO      in transmitter_1,   Axi Stream Send.  TData: 00000055  TStrb: 1111  TKeep: 1111  TID: 00  TDest: 0  TUser: 0  TLast: 0  Operation# 187 at 1970 ns
%% Log    INFO      in transmitter_1,   Axi Stream Send.  TData: 00000056  TStrb: 1111  TKeep: 1111  TID: 00  TDest: 0  TUser: 0  TLast: 0  Operation# 188 at 1980 ns
%% Log    INFO      in transmitter_1,   Axi Stream Send.  TData: 00000057  TStrb: 1111  TKeep: 1111  TID: 00  TDest: 0  TUser: 0  TLast: 0  Operation# 189 at 1990 ns
%% Log    INFO      in transmitter_1,   Axi Stream Send.  TData: 00000058  TStrb: 1111  TKeep: 1111  TID: 00  TDest: 0  TUser: 0  TLast: 0  Operation# 190 at 2000 ns
%% Log    INFO      in transmitter_1,   Axi Stream Send.  TData: 00000059  TStrb: 1111  TKeep: 1111  TID: 00  TDest: 0  TUser: 0  TLast: 0  Operation# 191 at 2010 ns
%% Log    INFO      in transmitter_1,   Axi Stream Send.  TData: 0000005A  TStrb: 1111  TKeep: 1111  TID: 00  TDest: 0  TUser: 0  TLast: 0  Operation# 192 at 2020 ns
%% Log    INFO      in transmitter_1,   Axi Stream Send.  TData: 0000005B  TStrb: 1111  TKeep: 1111  TID: 00  TDest: 0  TUser: 0  TLast: 0  Operation# 193 at 2030 ns
%% Log    INFO      in transmitter_1,   Axi Stream Send.  TData: 0000005C  TStrb: 1111  TKeep: 1111  TID: 00  TDest: 0  TUser: 0  TLast: 0  Operation# 194 at 2040 ns
%% Log    INFO      in transmitter_1,   Axi Stream Send.  TData: 0000005D  TStrb: 1111  TKeep: 1111  TID: 00  TDest: 0  TUser: 0  TLast: 0  Operation# 195 at 2050 ns
%% Log    INFO      in transmitter_1,   Axi Stream Send.  TData: 0000005E  TStrb: 1111  TKeep: 1111  TID: 00  TDest: 0  TUser: 0  TLast: 0  Operation# 196 at 2060 ns
%% Log    INFO      in transmitter_1,   Axi Stream Send.  TData: 0000005F  TStrb: 1111  TKeep: 1111  TID: 00  TDest: 0  TUser: 0  TLast: 0  Operation# 197 at 2070 ns
%% Log    INFO      in transmitter_1,   Axi Stream Send.  TData: 00000060  TStrb: 1111  TKeep: 1111  TID: 00  TDest: 0  TUser: 0  TLast: 0  Operation# 198 at 2080 ns
%% Log    INFO      in transmitter_1,   Axi Stream Send.  TData: 00000061  TStrb: 1111  TKeep: 1111  TID: 00  TDest: 0  TUser: 0  TLast: 0  Operation# 199 at 2090 ns
%% Log    INFO      in transmitter_1,   Axi Stream Send.  TData: 00000062  TStrb: 1111  TKeep: 1111  TID: 00  TDest: 0  TUser: 0  TLast: 0  Operation# 200 at 2100 ns
%% Log    INFO      in transmitter_1,   Axi Stream Send.  TData: 00000063  TStrb: 1111  TKeep: 1111  TID: 00  TDest: 0  TUser: 0  TLast: 0  Operation# 201 at 2110 ns
%% Log    INFO      in transmitter_1,   Axi Stream Send.  TData: 00000064  TStrb: 1111  TKeep: 1111  TID: 00  TDest: 0  TUser: 0  TLast: 0  Operation# 202 at 2120 ns
%% Log    INFO      in transmitter_1,   Axi Stream Send.  TData: 00000065  TStrb: 1111  TKeep: 1111  TID: 00  TDest: 0  TUser: 0  TLast: 0  Operation# 203 at 2130 ns
%% Log    INFO      in transmitter_1,   Axi Stream Send.  TData: 00000066  TStrb: 1111  TKeep: 1111  TID: 00  TDest: 0  TUser: 0  TLast: 0  Operation# 204 at 2140 ns
%% Log    INFO      in transmitter_1,   Axi Stream Send.  TData: 00000067  TStrb: 1111  TKeep: 1111  TID: 00  TDest: 0  TUser: 0  TLast: 0  Operation# 205 at 2150 ns
%% Log    INFO      in transmitter_1,   Axi Stream Send.  TData: 00000068  TStrb: 1111  TKeep: 1111  TID: 00  TDest: 0  TUser: 0  TLast: 0  Operation# 206 at 2160 ns
%% Log    INFO      in transmitter_1,   Axi Stream Send.  TData: 00000069  TStrb: 1111  TKeep: 1111  TID: 00  TDest: 0  TUser: 0  TLast: 1  Operation# 207 at 2170 ns
%% Log    INFO      in transmitter_1,   Axi Stream Send.  TData: 00000060  TStrb: 1111  TKeep: 1111  TID: 00  TDest: 0  TUser: 0  TLast: 0  Operation# 208 at 2180 ns
%% Log    PASSED    in receiver_1: RxBurstFifo,      Received: 00000040   Item Number: 166 at 2180 ns
%% Log    PASSED    in receiver_1: RxBurstFifo,      Received: 00000041   Item Number: 167 at 2180 ns
%% Log    PASSED    in receiver_1: RxBurstFifo,      Received: 00000042   Item Number: 168 at 2180 ns
%% Log    PASSED    in receiver_1: RxBurstFifo,      Received: 00000043   Item Number: 169 at 2180 ns
%% Log    PASSED    in receiver_1: RxBurstFifo,      Received: 00000044   Item Number: 170 at 2180 ns
%% Log    PASSED    in receiver_1: RxBurstFifo,      Received: 00000045   Item Number: 171 at 2180 ns
%% Log    PASSED    in receiver_1: RxBurstFifo,      Received: 00000046   Item Number: 172 at 2180 ns
%% Log    PASSED    in receiver_1: RxBurstFifo,      Received: 00000047   Item Number: 173 at 2180 ns
%% Log    PASSED    in receiver_1: RxBurstFifo,      Received: 00000048   Item Number: 174 at 2180 ns
%% Log    PASSED    in receiver_1: RxBurstFifo,      Received: 00000049   Item Number: 175 at 2180 ns
%% Log    PASSED    in receiver_1: RxBurstFifo,      Received: 0000004A   Item Number: 176 at 2180 ns
%% Log    PASSED    in receiver_1: RxBurstFifo,      Received: 0000004B   Item Number: 177 at 2180 ns
%% Log    PASSED    in receiver_1: RxBurstFifo,      Received: 0000004C   Item Number: 178 at 2180 ns
%% Log    PASSED    in receiver_1: RxBurstFifo,      Received: 0000004D   Item Number: 179 at 2180 ns
%% Log    PASSED    in receiver_1: RxBurstFifo,      Received: 0000004E   Item Number: 180 at 2180 ns
%% Log    PASSED    in receiver_1: RxBurstFifo,      Received: 0000004F   Item Number: 181 at 2180 ns
%% Log    PASSED    in receiver_1: RxBurstFifo,      Received: 00000050   Item Number: 182 at 2180 ns
%% Log    PASSED    in receiver_1: RxBurstFifo,      Received: 00000051   Item Number: 183 at 2180 ns
%% Log    PASSED    in receiver_1: RxBurstFifo,      Received: 00000052   Item Number: 184 at 2180 ns
%% Log    PASSED    in receiver_1: RxBurstFifo,      Received: 00000053   Item Number: 185 at 2180 ns
%% Log    PASSED    in receiver_1: RxBurstFifo,      Received: 00000054   Item Number: 186 at 2180 ns
%% Log    PASSED    in receiver_1: RxBurstFifo,      Received: 00000055   Item Number: 187 at 2180 ns
%% Log    PASSED    in receiver_1: RxBurstFifo,      Received: 00000056   Item Number: 188 at 2180 ns
%% Log    PASSED    in receiver_1: RxBurstFifo,      Received: 00000057   Item Number: 189 at 2180 ns
%% Log    PASSED    in receiver_1: RxBurstFifo,      Received: 00000058   Item Number: 190 at 2180 ns
%% Log    PASSED    in receiver_1: RxBurstFifo,      Received: 00000059   Item Number: 191 at 2180 ns
%% Log    PASSED    in receiver_1: RxBurstFifo,      Received: 0000005A   Item Number: 192 at 2180 ns
%% Log    PASSED    in receiver_1: RxBurstFifo,      Received: 0000005B   Item Number: 193 at 2180 ns
%% Log    PASSED    in receiver_1: RxBurstFifo,      Received: 0000005C   Item Number: 194 at 2180 ns
%% Log    PASSED    in receiver_1: RxBurstFifo,      Received: 0000005D   Item Number: 195 at 2180 ns
%% Log    PASSED    in receiver_1: RxBurstFifo,      Received: 0000005E   Item Number: 196 at 2180 ns
%% Log    PASSED    in receiver_1: RxBurstFifo,      Received: 0000005F   Item Number: 197 at 2180 ns
%% Log    PASSED    in receiver_1: RxBurstFifo,      Received: 00000060   Item Number: 198 at 2180 ns
%% Log    PASSED    in receiver_1: RxBurstFifo,      Received: 00000061   Item Number: 199 at 2180 ns
%% Log    PASSED    in receiver_1: RxBurstFifo,      Received: 00000062   Item Number: 200 at 2180 ns
%% Log    PASSED    in receiver_1: RxBurstFifo,      Received: 00000063   Item Number: 201 at 2180 ns
%% Log    PASSED    in receiver_1: RxBurstFifo,      Received: 00000064   Item Number: 202 at 2180 ns
%% Log    PASSED    in receiver_1: RxBurstFifo,      Received: 00000065   Item Number: 203 at 2180 ns
%% Log    PASSED    in receiver_1: RxBurstFifo,      Received: 00000066   Item Number: 204 at 2180 ns
%% Log    PASSED    in receiver_1: RxBurstFifo,      Received: 00000067   Item Number: 205 at 2180 ns
%% Log    PASSED    in receiver_1: RxBurstFifo,      Received: 00000068   Item Number: 206 at 2180 ns
%% Log    PASSED    in receiver_1: RxBurstFifo,      Received: 00000069   Item Number: 207 at 2180 ns
%% Log    INFO      in receiver_1,   Burst Check.  Operation# 6  Last Data: 00000069  TID: 00  TDest: 0  TUser: 0  TLast: 1 at 2180 ns
%% Log    PASSED    in receiver_1,   Burst Check WordCount Received : 42 at 2180 ns
%% Log    PASSED    in receiver_1,   ID Received : 00 at 2180 ns
%% Log    PASSED    in receiver_1,   DEST Received : 0 at 2180 ns
%% Log    PASSED    in receiver_1,   USER Received : 0 at 2180 ns
%% Log    PASSED    in receiver_1,   Last Received : 1 at 2180 ns
%% Log    PASSED    in Default,   TryCount 42 at 2180 ns
%% Log    INFO      in transmitter_1,   Axi Stream Send.  TData: 00000061  TStrb: 1111  TKeep: 1111  TID: 00  TDest: 0  TUser: 0  TLast: 0  Operation# 209 at 2190 ns
%% Log    INFO      in transmitter_1,   Axi Stream Send.  TData: 00000062  TStrb: 1111  TKeep: 1111  TID: 00  TDest: 0  TUser: 0  TLast: 0  Operation# 210 at 2200 ns
%% Log    INFO      in transmitter_1,   Axi Stream Send.  TData: 00000063  TStrb: 1111  TKeep: 1111  TID: 00  TDest: 0  TUser: 0  TLast: 0  Operation# 211 at 2210 ns
%% Log    INFO      in transmitter_1,   Axi Stream Send.  TData: 00000064  TStrb: 1111  TKeep: 1111  TID: 00  TDest: 0  TUser: 0  TLast: 0  Operation# 212 at 2220 ns
%% Log    INFO      in transmitter_1,   Axi Stream Send.  TData: 00000065  TStrb: 1111  TKeep: 1111  TID: 00  TDest: 0  TUser: 0  TLast: 0  Operation# 213 at 2230 ns
%% Log    INFO      in transmitter_1,   Axi Stream Send.  TData: 00000066  TStrb: 1111  TKeep: 1111  TID: 00  TDest: 0  TUser: 0  TLast: 0  Operation# 214 at 2240 ns
%% Log    INFO      in transmitter_1,   Axi Stream Send.  TData: 00000067  TStrb: 1111  TKeep: 1111  TID: 00  TDest: 0  TUser: 0  TLast: 0  Operation# 215 at 2250 ns
%% Log    INFO      in transmitter_1,   Axi Stream Send.  TData: 00000068  TStrb: 1111  TKeep: 1111  TID: 00  TDest: 0  TUser: 0  TLast: 0  Operation# 216 at 2260 ns
%% Log    INFO      in transmitter_1,   Axi Stream Send.  TData: 00000069  TStrb: 1111  TKeep: 1111  TID: 00  TDest: 0  TUser: 0  TLast: 0  Operation# 217 at 2270 ns
%% Log    INFO      in transmitter_1,   Axi Stream Send.  TData: 0000006A  TStrb: 1111  TKeep: 1111  TID: 00  TDest: 0  TUser: 0  TLast: 0  Operation# 218 at 2280 ns
%% Log    INFO      in transmitter_1,   Axi Stream Send.  TData: 0000006B  TStrb: 1111  TKeep: 1111  TID: 00  TDest: 0  TUser: 0  TLast: 0  Operation# 219 at 2290 ns
%% Log    INFO      in transmitter_1,   Axi Stream Send.  TData: 0000006C  TStrb: 1111  TKeep: 1111  TID: 00  TDest: 0  TUser: 0  TLast: 0  Operation# 220 at 2300 ns
%% Log    INFO      in transmitter_1,   Axi Stream Send.  TData: 0000006D  TStrb: 1111  TKeep: 1111  TID: 00  TDest: 0  TUser: 0  TLast: 0  Operation# 221 at 2310 ns
%% Log    INFO      in transmitter_1,   Axi Stream Send.  TData: 0000006E  TStrb: 1111  TKeep: 1111  TID: 00  TDest: 0  TUser: 0  TLast: 0  Operation# 222 at 2320 ns
%% Log    INFO      in transmitter_1,   Axi Stream Send.  TData: 0000006F  TStrb: 1111  TKeep: 1111  TID: 00  TDest: 0  TUser: 0  TLast: 0  Operation# 223 at 2330 ns
%% Log    INFO      in transmitter_1,   Axi Stream Send.  TData: 00000070  TStrb: 1111  TKeep: 1111  TID: 00  TDest: 0  TUser: 0  TLast: 0  Operation# 224 at 2340 ns
%% Log    INFO      in transmitter_1,   Axi Stream Send.  TData: 00000071  TStrb: 1111  TKeep: 1111  TID: 00  TDest: 0  TUser: 0  TLast: 0  Operation# 225 at 2350 ns
%% Log    INFO      in transmitter_1,   Axi Stream Send.  TData: 00000072  TStrb: 1111  TKeep: 1111  TID: 00  TDest: 0  TUser: 0  TLast: 0  Operation# 226 at 2360 ns
%% Log    INFO      in transmitter_1,   Axi Stream Send.  TData: 00000073  TStrb: 1111  TKeep: 1111  TID: 00  TDest: 0  TUser: 0  TLast: 0  Operation# 227 at 2370 ns
%% Log    INFO      in transmitter_1,   Axi Stream Send.  TData: 00000074  TStrb: 1111  TKeep: 1111  TID: 00  TDest: 0  TUser: 0  TLast: 0  Operation# 228 at 2380 ns
%% Log    INFO      in transmitter_1,   Axi Stream Send.  TData: 00000075  TStrb: 1111  TKeep: 1111  TID: 00  TDest: 0  TUser: 0  TLast: 0  Operation# 229 at 2390 ns
%% Log    INFO      in transmitter_1,   Axi Stream Send.  TData: 00000076  TStrb: 1111  TKeep: 1111  TID: 00  TDest: 0  TUser: 0  TLast: 0  Operation# 230 at 2400 ns
%% Log    INFO      in transmitter_1,   Axi Stream Send.  TData: 00000077  TStrb: 1111  TKeep: 1111  TID: 00  TDest: 0  TUser: 0  TLast: 0  Operation# 231 at 2410 ns
%% Log    INFO      in transmitter_1,   Axi Stream Send.  TData: 00000078  TStrb: 1111  TKeep: 1111  TID: 00  TDest: 0  TUser: 0  TLast: 0  Operation# 232 at 2420 ns
%% Log    INFO      in transmitter_1,   Axi Stream Send.  TData: 00000079  TStrb: 1111  TKeep: 1111  TID: 00  TDest: 0  TUser: 0  TLast: 0  Operation# 233 at 2430 ns
%% Log    INFO      in transmitter_1,   Axi Stream Send.  TData: 0000007A  TStrb: 1111  TKeep: 1111  TID: 00  TDest: 0  TUser: 0  TLast: 0  Operation# 234 at 2440 ns
%% Log    INFO      in transmitter_1,   Axi Stream Send.  TData: 0000007B  TStrb: 1111  TKeep: 1111  TID: 00  TDest: 0  TUser: 0  TLast: 0  Operation# 235 at 2450 ns
%% Log    INFO      in transmitter_1,   Axi Stream Send.  TData: 0000007C  TStrb: 1111  TKeep: 1111  TID: 00  TDest: 0  TUser: 0  TLast: 0  Operation# 236 at 2460 ns
%% Log    INFO      in transmitter_1,   Axi Stream Send.  TData: 0000007D  TStrb: 1111  TKeep: 1111  TID: 00  TDest: 0  TUser: 0  TLast: 0  Operation# 237 at 2470 ns
%% Log    INFO      in transmitter_1,   Axi Stream Send.  TData: 0000007E  TStrb: 1111  TKeep: 1111  TID: 00  TDest: 0  TUser: 0  TLast: 0  Operation# 238 at 2480 ns
%% Log    INFO      in transmitter_1,   Axi Stream Send.  TData: 0000007F  TStrb: 1111  TKeep: 1111  TID: 00  TDest: 0  TUser: 0  TLast: 0  Operation# 239 at 2490 ns
%% Log    INFO      in transmitter_1,   Axi Stream Send.  TData: 00000080  TStrb: 1111  TKeep: 1111  TID: 00  TDest: 0  TUser: 0  TLast: 0  Operation# 240 at 2500 ns
%% Log    INFO      in transmitter_1,   Axi Stream Send.  TData: 00000081  TStrb: 1111  TKeep: 1111  TID: 00  TDest: 0  TUser: 0  TLast: 0  Operation# 241 at 2510 ns
%% Log    INFO      in transmitter_1,   Axi Stream Send.  TData: 00000082  TStrb: 1111  TKeep: 1111  TID: 00  TDest: 0  TUser: 0  TLast: 0  Operation# 242 at 2520 ns
%% Log    INFO      in transmitter_1,   Axi Stream Send.  TData: 00000083  TStrb: 1111  TKeep: 1111  TID: 00  TDest: 0  TUser: 0  TLast: 0  Operation# 243 at 2530 ns
%% Log    INFO      in transmitter_1,   Axi Stream Send.  TData: 00000084  TStrb: 1111  TKeep: 1111  TID: 00  TDest: 0  TUser: 0  TLast: 0  Operation# 244 at 2540 ns
%% Log    INFO      in transmitter_1,   Axi Stream Send.  TData: 00000085  TStrb: 1111  TKeep: 1111  TID: 00  TDest: 0  TUser: 0  TLast: 0  Operation# 245 at 2550 ns
%% Log    INFO      in transmitter_1,   Axi Stream Send.  TData: 00000086  TStrb: 1111  TKeep: 1111  TID: 00  TDest: 0  TUser: 0  TLast: 0  Operation# 246 at 2560 ns
%% Log    INFO      in transmitter_1,   Axi Stream Send.  TData: 00000087  TStrb: 1111  TKeep: 1111  TID: 00  TDest: 0  TUser: 0  TLast: 0  Operation# 247 at 2570 ns
%% Log    INFO      in transmitter_1,   Axi Stream Send.  TData: 00000088  TStrb: 1111  TKeep: 1111  TID: 00  TDest: 0  TUser: 0  TLast: 0  Operation# 248 at 2580 ns
%% Log    INFO      in transmitter_1,   Axi Stream Send.  TData: 00000089  TStrb: 1111  TKeep: 1111  TID: 00  TDest: 0  TUser: 0  TLast: 0  Operation# 249 at 2590 ns
%% Log    INFO      in transmitter_1,   Axi Stream Send.  TData: 0000008A  TStrb: 1111  TKeep: 1111  TID: 00  TDest: 0  TUser: 0  TLast: 0  Operation# 250 at 2600 ns
%% Log    INFO      in transmitter_1,   Axi Stream Send.  TData: 0000008B  TStrb: 1111  TKeep: 1111  TID: 00  TDest: 0  TUser: 0  TLast: 0  Operation# 251 at 2610 ns
%% Log    INFO      in transmitter_1,   Axi Stream Send.  TData: 0000008C  TStrb: 1111  TKeep: 1111  TID: 00  TDest: 0  TUser: 0  TLast: 0  Operation# 252 at 2620 ns
%% Log    INFO      in transmitter_1,   Axi Stream Send.  TData: 0000008D  TStrb: 1111  TKeep: 1111  TID: 00  TDest: 0  TUser: 0  TLast: 0  Operation# 253 at 2630 ns
%% Log    INFO      in transmitter_1,   Axi Stream Send.  TData: 0000008E  TStrb: 1111  TKeep: 1111  TID: 00  TDest: 0  TUser: 0  TLast: 1  Operation# 254 at 2640 ns
%% Log    INFO      in transmitter_1,   Axi Stream Send.  TData: 00000080  TStrb: 1111  TKeep: 1111  TID: 00  TDest: 0  TUser: 0  TLast: 0  Operation# 255 at 2650 ns
%% Log    PASSED    in receiver_1: RxBurstFifo,      Received: 00000060   Item Number: 208 at 2650 ns
%% Log    PASSED    in receiver_1: RxBurstFifo,      Received: 00000061   Item Number: 209 at 2650 ns
%% Log    PASSED    in receiver_1: RxBurstFifo,      Received: 00000062   Item Number: 210 at 2650 ns
%% Log    PASSED    in receiver_1: RxBurstFifo,      Received: 00000063   Item Number: 211 at 2650 ns
%% Log    PASSED    in receiver_1: RxBurstFifo,      Received: 00000064   Item Number: 212 at 2650 ns
%% Log    PASSED    in receiver_1: RxBurstFifo,      Received: 00000065   Item Number: 213 at 2650 ns
%% Log    PASSED    in receiver_1: RxBurstFifo,      Received: 00000066   Item Number: 214 at 2650 ns
%% Log    PASSED    in receiver_1: RxBurstFifo,      Received: 00000067   Item Number: 215 at 2650 ns
%% Log    PASSED    in receiver_1: RxBurstFifo,      Received: 00000068   Item Number: 216 at 2650 ns
%% Log    PASSED    in receiver_1: RxBurstFifo,      Received: 00000069   Item Number: 217 at 2650 ns
%% Log    PASSED    in receiver_1: RxBurstFifo,      Received: 0000006A   Item Number: 218 at 2650 ns
%% Log    PASSED    in receiver_1: RxBurstFifo,      Received: 0000006B   Item Number: 219 at 2650 ns
%% Log    PASSED    in receiver_1: RxBurstFifo,      Received: 0000006C   Item Number: 220 at 2650 ns
%% Log    PASSED    in receiver_1: RxBurstFifo,      Received: 0000006D   Item Number: 221 at 2650 ns
%% Log    PASSED    in receiver_1: RxBurstFifo,      Received: 0000006E   Item Number: 222 at 2650 ns
%% Log    PASSED    in receiver_1: RxBurstFifo,      Received: 0000006F   Item Number: 223 at 2650 ns
%% Log    PASSED    in receiver_1: RxBurstFifo,      Received: 00000070   Item Number: 224 at 2650 ns
%% Log    PASSED    in receiver_1: RxBurstFifo,      Received: 00000071   Item Number: 225 at 2650 ns
%% Log    PASSED    in receiver_1: RxBurstFifo,      Received: 00000072   Item Number: 226 at 2650 ns
%% Log    PASSED    in receiver_1: RxBurstFifo,      Received: 00000073   Item Number: 227 at 2650 ns
%% Log    PASSED    in receiver_1: RxBurstFifo,      Received: 00000074   Item Number: 228 at 2650 ns
%% Log    PASSED    in receiver_1: RxBurstFifo,      Received: 00000075   Item Number: 229 at 2650 ns
%% Log    PASSED    in receiver_1: RxBurstFifo,      Received: 00000076   Item Number: 230 at 2650 ns
%% Log    PASSED    in receiver_1: RxBurstFifo,      Received: 00000077   Item Number: 231 at 2650 ns
%% Log    PASSED    in receiver_1: RxBurstFifo,      Received: 00000078   Item Number: 232 at 2650 ns
%% Log    PASSED    in receiver_1: RxBurstFifo,      Received: 00000079   Item Number: 233 at 2650 ns
%% Log    PASSED    in receiver_1: RxBurstFifo,      Received: 0000007A   Item Number: 234 at 2650 ns
%% Log    PASSED    in receiver_1: RxBurstFifo,      Received: 0000007B   Item Number: 235 at 2650 ns
%% Log    PASSED    in receiver_1: RxBurstFifo,      Received: 0000007C   Item Number: 236 at 2650 ns
%% Log    PASSED    in receiver_1: RxBurstFifo,      Received: 0000007D   Item Number: 237 at 2650 ns
%% Log    PASSED    in receiver_1: RxBurstFifo,      Received: 0000007E   Item Number: 238 at 2650 ns
%% Log    PASSED    in receiver_1: RxBurstFifo,      Received: 0000007F   Item Number: 239 at 2650 ns
%% Log    PASSED    in receiver_1: RxBurstFifo,      Received: 00000080   Item Number: 240 at 2650 ns
%% Log    PASSED    in receiver_1: RxBurstFifo,      Received: 00000081   Item Number: 241 at 2650 ns
%% Log    PASSED    in receiver_1: RxBurstFifo,      Received: 00000082   Item Number: 242 at 2650 ns
%% Log    PASSED    in receiver_1: RxBurstFifo,      Received: 00000083   Item Number: 243 at 2650 ns
%% Log    PASSED    in receiver_1: RxBurstFifo,      Received: 00000084   Item Number: 244 at 2650 ns
%% Log    PASSED    in receiver_1: RxBurstFifo,      Received: 00000085   Item Number: 245 at 2650 ns
%% Log    PASSED    in receiver_1: RxBurstFifo,      Received: 00000086   Item Number: 246 at 2650 ns
%% Log    PASSED    in receiver_1: RxBurstFifo,      Received: 00000087   Item Number: 247 at 2650 ns
%% Log    PASSED    in receiver_1: RxBurstFifo,      Received: 00000088   Item Number: 248 at 2650 ns
%% Log    PASSED    in receiver_1: RxBurstFifo,      Received: 00000089   Item Number: 249 at 2650 ns
%% Log    PASSED    in receiver_1: RxBurstFifo,      Received: 0000008A   Item Number: 250 at 2650 ns
%% Log    PASSED    in receiver_1: RxBurstFifo,      Received: 0000008B   Item Number: 251 at 2650 ns
%% Log    PASSED    in receiver_1: RxBurstFifo,      Received: 0000008C   Item Number: 252 at 2650 ns
%% Log    PASSED    in receiver_1: RxBurstFifo,      Received: 0000008D   Item Number: 253 at 2650 ns
%% Log    PASSED    in receiver_1: RxBurstFifo,      Received: 0000008E   Item Number: 254 at 2650 ns
%% Log    INFO      in receiver_1,   Burst Check.  Operation# 7  Last Data: 0000008E  TID: 00  TDest: 0  TUser: 0  TLast: 1 at 2650 ns
%% Log    PASSED    in receiver_1,   Burst Check WordCount Received : 47 at 2650 ns
%% Log    PASSED    in receiver_1,   ID Received : 00 at 2650 ns
%% Log    PASSED    in receiver_1,   DEST Received : 0 at 2650 ns
%% Log    PASSED    in receiver_1,   USER Received : 0 at 2650 ns
%% Log    PASSED    in receiver_1,   Last Received : 1 at 2650 ns
%% Log    PASSED    in Default,   TryCount 47 at 2650 ns
%% Log    INFO      in transmitter_1,   Axi Stream Send.  TData: 00000081  TStrb: 1111  TKeep: 1111  TID: 00  TDest: 0  TUser: 0  TLast: 0  Operation# 256 at 2660 ns
%% Log    INFO      in transmitter_1,   Axi Stream Send.  TData: 00000082  TStrb: 1111  TKeep: 1111  TID: 00  TDest: 0  TUser: 0  TLast: 0  Operation# 257 at 2670 ns
%% Log    INFO      in transmitter_1,   Axi Stream Send.  TData: 00000083  TStrb: 1111  TKeep: 1111  TID: 00  TDest: 0  TUser: 0  TLast: 0  Operation# 258 at 2680 ns
%% Log    INFO      in transmitter_1,   Axi Stream Send.  TData: 00000084  TStrb: 1111  TKeep: 1111  TID: 00  TDest: 0  TUser: 0  TLast: 0  Operation# 259 at 2690 ns
%% Log    INFO      in transmitter_1,   Axi Stream Send.  TData: 00000085  TStrb: 1111  TKeep: 1111  TID: 00  TDest: 0  TUser: 0  TLast: 0  Operation# 260 at 2700 ns
%% Log    INFO      in transmitter_1,   Axi Stream Send.  TData: 00000086  TStrb: 1111  TKeep: 1111  TID: 00  TDest: 0  TUser: 0  TLast: 0  Operation# 261 at 2710 ns
%% Log    INFO      in transmitter_1,   Axi Stream Send.  TData: 00000087  TStrb: 1111  TKeep: 1111  TID: 00  TDest: 0  TUser: 0  TLast: 0  Operation# 262 at 2720 ns
%% Log    INFO      in transmitter_1,   Axi Stream Send.  TData: 00000088  TStrb: 1111  TKeep: 1111  TID: 00  TDest: 0  TUser: 0  TLast: 0  Operation# 263 at 2730 ns
%% Log    INFO      in transmitter_1,   Axi Stream Send.  TData: 00000089  TStrb: 1111  TKeep: 1111  TID: 00  TDest: 0  TUser: 0  TLast: 0  Operation# 264 at 2740 ns
%% Log    INFO      in transmitter_1,   Axi Stream Send.  TData: 0000008A  TStrb: 1111  TKeep: 1111  TID: 00  TDest: 0  TUser: 0  TLast: 0  Operation# 265 at 2750 ns
%% Log    INFO      in transmitter_1,   Axi Stream Send.  TData: 0000008B  TStrb: 1111  TKeep: 1111  TID: 00  TDest: 0  TUser: 0  TLast: 0  Operation# 266 at 2760 ns
%% Log    INFO      in transmitter_1,   Axi Stream Send.  TData: 0000008C  TStrb: 1111  TKeep: 1111  TID: 00  TDest: 0  TUser: 0  TLast: 0  Operation# 267 at 2770 ns
%% Log    INFO      in transmitter_1,   Axi Stream Send.  TData: 0000008D  TStrb: 1111  TKeep: 1111  TID: 00  TDest: 0  TUser: 0  TLast: 0  Operation# 268 at 2780 ns
%% Log    INFO      in transmitter_1,   Axi Stream Send.  TData: 0000008E  TStrb: 1111  TKeep: 1111  TID: 00  TDest: 0  TUser: 0  TLast: 0  Operation# 269 at 2790 ns
%% Log    INFO      in transmitter_1,   Axi Stream Send.  TData: 0000008F  TStrb: 1111  TKeep: 1111  TID: 00  TDest: 0  TUser: 0  TLast: 0  Operation# 270 at 2800 ns
%% Log    INFO      in transmitter_1,   Axi Stream Send.  TData: 00000090  TStrb: 1111  TKeep: 1111  TID: 00  TDest: 0  TUser: 0  TLast: 0  Operation# 271 at 2810 ns
%% Log    INFO      in transmitter_1,   Axi Stream Send.  TData: 00000091  TStrb: 1111  TKeep: 1111  TID: 00  TDest: 0  TUser: 0  TLast: 0  Operation# 272 at 2820 ns
%% Log    INFO      in transmitter_1,   Axi Stream Send.  TData: 00000092  TStrb: 1111  TKeep: 1111  TID: 00  TDest: 0  TUser: 0  TLast: 0  Operation# 273 at 2830 ns
%% Log    INFO      in transmitter_1,   Axi Stream Send.  TData: 00000093  TStrb: 1111  TKeep: 1111  TID: 00  TDest: 0  TUser: 0  TLast: 0  Operation# 274 at 2840 ns
%% Log    INFO      in transmitter_1,   Axi Stream Send.  TData: 00000094  TStrb: 1111  TKeep: 1111  TID: 00  TDest: 0  TUser: 0  TLast: 0  Operation# 275 at 2850 ns
%% Log    INFO      in transmitter_1,   Axi Stream Send.  TData: 00000095  TStrb: 1111  TKeep: 1111  TID: 00  TDest: 0  TUser: 0  TLast: 0  Operation# 276 at 2860 ns
%% Log    INFO      in transmitter_1,   Axi Stream Send.  TData: 00000096  TStrb: 1111  TKeep: 1111  TID: 00  TDest: 0  TUser: 0  TLast: 0  Operation# 277 at 2870 ns
%% Log    INFO      in transmitter_1,   Axi Stream Send.  TData: 00000097  TStrb: 1111  TKeep: 1111  TID: 00  TDest: 0  TUser: 0  TLast: 0  Operation# 278 at 2880 ns
%% Log    INFO      in transmitter_1,   Axi Stream Send.  TData: 00000098  TStrb: 1111  TKeep: 1111  TID: 00  TDest: 0  TUser: 0  TLast: 0  Operation# 279 at 2890 ns
%% Log    INFO      in transmitter_1,   Axi Stream Send.  TData: 00000099  TStrb: 1111  TKeep: 1111  TID: 00  TDest: 0  TUser: 0  TLast: 0  Operation# 280 at 2900 ns
%% Log    INFO      in transmitter_1,   Axi Stream Send.  TData: 0000009A  TStrb: 1111  TKeep: 1111  TID: 00  TDest: 0  TUser: 0  TLast: 0  Operation# 281 at 2910 ns
%% Log    INFO      in transmitter_1,   Axi Stream Send.  TData: 0000009B  TStrb: 1111  TKeep: 1111  TID: 00  TDest: 0  TUser: 0  TLast: 0  Operation# 282 at 2920 ns
%% Log    INFO      in transmitter_1,   Axi Stream Send.  TData: 0000009C  TStrb: 1111  TKeep: 1111  TID: 00  TDest: 0  TUser: 0  TLast: 0  Operation# 283 at 2930 ns
%% Log    INFO      in transmitter_1,   Axi Stream Send.  TData: 0000009D  TStrb: 1111  TKeep: 1111  TID: 00  TDest: 0  TUser: 0  TLast: 0  Operation# 284 at 2940 ns
%% Log    INFO      in transmitter_1,   Axi Stream Send.  TData: 0000009E  TStrb: 1111  TKeep: 1111  TID: 00  TDest: 0  TUser: 0  TLast: 0  Operation# 285 at 2950 ns
%% Log    INFO      in transmitter_1,   Axi Stream Send.  TData: 0000009F  TStrb: 1111  TKeep: 1111  TID: 00  TDest: 0  TUser: 0  TLast: 0  Operation# 286 at 2960 ns
%% Log    INFO      in transmitter_1,   Axi Stream Send.  TData: 000000A0  TStrb: 1111  TKeep: 1111  TID: 00  TDest: 0  TUser: 0  TLast: 0  Operation# 287 at 2970 ns
%% Log    INFO      in transmitter_1,   Axi Stream Send.  TData: 000000A1  TStrb: 1111  TKeep: 1111  TID: 00  TDest: 0  TUser: 0  TLast: 0  Operation# 288 at 2980 ns
%% Log    INFO      in transmitter_1,   Axi Stream Send.  TData: 000000A2  TStrb: 1111  TKeep: 1111  TID: 00  TDest: 0  TUser: 0  TLast: 0  Operation# 289 at 2990 ns
%% Log    INFO      in transmitter_1,   Axi Stream Send.  TData: 000000A3  TStrb: 1111  TKeep: 1111  TID: 00  TDest: 0  TUser: 0  TLast: 0  Operation# 290 at 3000 ns
%% Log    INFO      in transmitter_1,   Axi Stream Send.  TData: 000000A4  TStrb: 1111  TKeep: 1111  TID: 00  TDest: 0  TUser: 0  TLast: 0  Operation# 291 at 3010 ns
%% Log    INFO      in transmitter_1,   Axi Stream Send.  TData: 000000A5  TStrb: 1111  TKeep: 1111  TID: 00  TDest: 0  TUser: 0  TLast: 0  Operation# 292 at 3020 ns
%% Log    INFO      in transmitter_1,   Axi Stream Send.  TData: 000000A6  TStrb: 1111  TKeep: 1111  TID: 00  TDest: 0  TUser: 0  TLast: 0  Operation# 293 at 3030 ns
%% Log    INFO      in transmitter_1,   Axi Stream Send.  TData: 000000A7  TStrb: 1111  TKeep: 1111  TID: 00  TDest: 0  TUser: 0  TLast: 0  Operation# 294 at 3040 ns
%% Log    INFO      in transmitter_1,   Axi Stream Send.  TData: 000000A8  TStrb: 1111  TKeep: 1111  TID: 00  TDest: 0  TUser: 0  TLast: 0  Operation# 295 at 3050 ns
%% Log    INFO      in transmitter_1,   Axi Stream Send.  TData: 000000A9  TStrb: 1111  TKeep: 1111  TID: 00  TDest: 0  TUser: 0  TLast: 0  Operation# 296 at 3060 ns
%% Log    INFO      in transmitter_1,   Axi Stream Send.  TData: 000000AA  TStrb: 1111  TKeep: 1111  TID: 00  TDest: 0  TUser: 0  TLast: 0  Operation# 297 at 3070 ns
%% Log    INFO      in transmitter_1,   Axi Stream Send.  TData: 000000AB  TStrb: 1111  TKeep: 1111  TID: 00  TDest: 0  TUser: 0  TLast: 0  Operation# 298 at 3080 ns
%% Log    INFO      in transmitter_1,   Axi Stream Send.  TData: 000000AC  TStrb: 1111  TKeep: 1111  TID: 00  TDest: 0  TUser: 0  TLast: 0  Operation# 299 at 3090 ns
%% Log    INFO      in transmitter_1,   Axi Stream Send.  TData: 000000AD  TStrb: 1111  TKeep: 1111  TID: 00  TDest: 0  TUser: 0  TLast: 0  Operation# 300 at 3100 ns
%% Log    INFO      in transmitter_1,   Axi Stream Send.  TData: 000000AE  TStrb: 1111  TKeep: 1111  TID: 00  TDest: 0  TUser: 0  TLast: 0  Operation# 301 at 3110 ns
%% Log    INFO      in transmitter_1,   Axi Stream Send.  TData: 000000AF  TStrb: 1111  TKeep: 1111  TID: 00  TDest: 0  TUser: 0  TLast: 0  Operation# 302 at 3120 ns
%% Log    INFO      in transmitter_1,   Axi Stream Send.  TData: 000000B0  TStrb: 1111  TKeep: 1111  TID: 00  TDest: 0  TUser: 0  TLast: 0  Operation# 303 at 3130 ns
%% Log    INFO      in transmitter_1,   Axi Stream Send.  TData: 000000B1  TStrb: 1111  TKeep: 1111  TID: 00  TDest: 0  TUser: 0  TLast: 0  Operation# 304 at 3140 ns
%% Log    INFO      in transmitter_1,   Axi Stream Send.  TData: 000000B2  TStrb: 1111  TKeep: 1111  TID: 00  TDest: 0  TUser: 0  TLast: 0  Operation# 305 at 3150 ns
%% Log    INFO      in transmitter_1,   Axi Stream Send.  TData: 000000B3  TStrb: 1111  TKeep: 1111  TID: 00  TDest: 0  TUser: 0  TLast: 1  Operation# 306 at 3160 ns
%% Log    INFO      in transmitter_1,   Axi Stream Send.  TData: 000000A0  TStrb: 1111  TKeep: 1111  TID: 00  TDest: 0  TUser: 0  TLast: 0  Operation# 307 at 3170 ns
%% Log    PASSED    in receiver_1: RxBurstFifo,      Received: 00000080   Item Number: 255 at 3170 ns
%% Log    PASSED    in receiver_1: RxBurstFifo,      Received: 00000081   Item Number: 256 at 3170 ns
%% Log    PASSED    in receiver_1: RxBurstFifo,      Received: 00000082   Item Number: 257 at 3170 ns
%% Log    PASSED    in receiver_1: RxBurstFifo,      Received: 00000083   Item Number: 258 at 3170 ns
%% Log    PASSED    in receiver_1: RxBurstFifo,      Received: 00000084   Item Number: 259 at 3170 ns
%% Log    PASSED    in receiver_1: RxBurstFifo,      Received: 00000085   Item Number: 260 at 3170 ns
%% Log    PASSED    in receiver_1: RxBurstFifo,      Received: 00000086   Item Number: 261 at 3170 ns
%% Log    PASSED    in receiver_1: RxBurstFifo,      Received: 00000087   Item Number: 262 at 3170 ns
%% Log    PASSED    in receiver_1: RxBurstFifo,      Received: 00000088   Item Number: 263 at 3170 ns
%% Log    PASSED    in receiver_1: RxBurstFifo,      Received: 00000089   Item Number: 264 at 3170 ns
%% Log    PASSED    in receiver_1: RxBurstFifo,      Received: 0000008A   Item Number: 265 at 3170 ns
%% Log    PASSED    in receiver_1: RxBurstFifo,      Received: 0000008B   Item Number: 266 at 3170 ns
%% Log    PASSED    in receiver_1: RxBurstFifo,      Received: 0000008C   Item Number: 267 at 3170 ns
%% Log    PASSED    in receiver_1: RxBurstFifo,      Received: 0000008D   Item Number: 268 at 3170 ns
%% Log    PASSED    in receiver_1: RxBurstFifo,      Received: 0000008E   Item Number: 269 at 3170 ns
%% Log    PASSED    in receiver_1: RxBurstFifo,      Received: 0000008F   Item Number: 270 at 3170 ns
%% Log    PASSED    in receiver_1: RxBurstFifo,      Received: 00000090   Item Number: 271 at 3170 ns
%% Log    PASSED    in receiver_1: RxBurstFifo,      Received: 00000091   Item Number: 272 at 3170 ns
%% Log    PASSED    in receiver_1: RxBurstFifo,      Received: 00000092   Item Number: 273 at 3170 ns
%% Log    PASSED    in receiver_1: RxBurstFifo,      Received: 00000093   Item Number: 274 at 3170 ns
%% Log    PASSED    in receiver_1: RxBurstFifo,      Received: 00000094   Item Number: 275 at 3170 ns
%% Log    PASSED    in receiver_1: RxBurstFifo,      Received: 00000095   Item Number: 276 at 3170 ns
%% Log    PASSED    in receiver_1: RxBurstFifo,      Received: 00000096   Item Number: 277 at 3170 ns
%% Log    PASSED    in receiver_1: RxBurstFifo,      Received: 00000097   Item Number: 278 at 3170 ns
%% Log    PASSED    in receiver_1: RxBurstFifo,      Received: 00000098   Item Number: 279 at 3170 ns
%% Log    PASSED    in receiver_1: RxBurstFifo,      Received: 00000099   Item Number: 280 at 3170 ns
%% Log    PASSED    in receiver_1: RxBurstFifo,      Received: 0000009A   Item Number: 281 at 3170 ns
%% Log    PASSED    in receiver_1: RxBurstFifo,      Received: 0000009B   Item Number: 282 at 3170 ns
%% Log    PASSED    in receiver_1: RxBurstFifo,      Received: 0000009C   Item Number: 283 at 3170 ns
%% Log    PASSED    in receiver_1: RxBurstFifo,      Received: 0000009D   Item Number: 284 at 3170 ns
%% Log    PASSED    in receiver_1: RxBurstFifo,      Received: 0000009E   Item Number: 285 at 3170 ns
%% Log    PASSED    in receiver_1: RxBurstFifo,      Received: 0000009F   Item Number: 286 at 3170 ns
%% Log    PASSED    in receiver_1: RxBurstFifo,      Received: 000000A0   Item Number: 287 at 3170 ns
%% Log    PASSED    in receiver_1: RxBurstFifo,      Received: 000000A1   Item Number: 288 at 3170 ns
%% Log    PASSED    in receiver_1: RxBurstFifo,      Received: 000000A2   Item Number: 289 at 3170 ns
%% Log    PASSED    in receiver_1: RxBurstFifo,      Received: 000000A3   Item Number: 290 at 3170 ns
%% Log    PASSED    in receiver_1: RxBurstFifo,      Received: 000000A4   Item Number: 291 at 3170 ns
%% Log    PASSED    in receiver_1: RxBurstFifo,      Received: 000000A5   Item Number: 292 at 3170 ns
%% Log    PASSED    in receiver_1: RxBurstFifo,      Received: 000000A6   Item Number: 293 at 3170 ns
%% Log    PASSED    in receiver_1: RxBurstFifo,      Received: 000000A7   Item Number: 294 at 3170 ns
%% Log    PASSED    in receiver_1: RxBurstFifo,      Received: 000000A8   Item Number: 295 at 3170 ns
%% Log    PASSED    in receiver_1: RxBurstFifo,      Received: 000000A9   Item Number: 296 at 3170 ns
%% Log    PASSED    in receiver_1: RxBurstFifo,      Received: 000000AA   Item Number: 297 at 3170 ns
%% Log    PASSED    in receiver_1: RxBurstFifo,      Received: 000000AB   Item Number: 298 at 3170 ns
%% Log    PASSED    in receiver_1: RxBurstFifo,      Received: 000000AC   Item Number: 299 at 3170 ns
%% Log    PASSED    in receiver_1: RxBurstFifo,      Received: 000000AD   Item Number: 300 at 3170 ns
%% Log    PASSED    in receiver_1: RxBurstFifo,      Received: 000000AE   Item Number: 301 at 3170 ns
%% Log    PASSED    in receiver_1: RxBurstFifo,      Received: 000000AF   Item Number: 302 at 3170 ns
%% Log    PASSED    in receiver_1: RxBurstFifo,      Received: 000000B0   Item Number: 303 at 3170 ns
%% Log    PASSED    in receiver_1: RxBurstFifo,      Received: 000000B1   Item Number: 304 at 3170 ns
%% Log    PASSED    in receiver_1: RxBurstFifo,      Received: 000000B2   Item Number: 305 at 3170 ns
%% Log    PASSED    in receiver_1: RxBurstFifo,      Received: 000000B3   Item Number: 306 at 3170 ns
%% Log    INFO      in receiver_1,   Burst Check.  Operation# 8  Last Data: 000000B3  TID: 00  TDest: 0  TUser: 0  TLast: 1 at 3170 ns
%% Log    PASSED    in receiver_1,   Burst Check WordCount Received : 52 at 3170 ns
%% Log    PASSED    in receiver_1,   ID Received : 00 at 3170 ns
%% Log    PASSED    in receiver_1,   DEST Received : 0 at 3170 ns
%% Log    PASSED    in receiver_1,   USER Received : 0 at 3170 ns
%% Log    PASSED    in receiver_1,   Last Received : 1 at 3170 ns
%% Log    PASSED    in Default,   TryCount 52 at 3170 ns
%% Log    INFO      in transmitter_1,   Axi Stream Send.  TData: 000000A1  TStrb: 1111  TKeep: 1111  TID: 00  TDest: 0  TUser: 0  TLast: 0  Operation# 308 at 3180 ns
%% Log    INFO      in transmitter_1,   Axi Stream Send.  TData: 000000A2  TStrb: 1111  TKeep: 1111  TID: 00  TDest: 0  TUser: 0  TLast: 0  Operation# 309 at 3190 ns
%% Log    INFO      in transmitter_1,   Axi Stream Send.  TData: 000000A3  TStrb: 1111  TKeep: 1111  TID: 00  TDest: 0  TUser: 0  TLast: 0  Operation# 310 at 3200 ns
%% Log    INFO      in transmitter_1,   Axi Stream Send.  TData: 000000A4  TStrb: 1111  TKeep: 1111  TID: 00  TDest: 0  TUser: 0  TLast: 0  Operation# 311 at 3210 ns
%% Log    INFO      in transmitter_1,   Axi Stream Send.  TData: 000000A5  TStrb: 1111  TKeep: 1111  TID: 00  TDest: 0  TUser: 0  TLast: 0  Operation# 312 at 3220 ns
%% Log    INFO      in transmitter_1,   Axi Stream Send.  TData: 000000A6  TStrb: 1111  TKeep: 1111  TID: 00  TDest: 0  TUser: 0  TLast: 0  Operation# 313 at 3230 ns
%% Log    INFO      in transmitter_1,   Axi Stream Send.  TData: 000000A7  TStrb: 1111  TKeep: 1111  TID: 00  TDest: 0  TUser: 0  TLast: 0  Operation# 314 at 3240 ns
%% Log    INFO      in transmitter_1,   Axi Stream Send.  TData: 000000A8  TStrb: 1111  TKeep: 1111  TID: 00  TDest: 0  TUser: 0  TLast: 0  Operation# 315 at 3250 ns
%% Log    INFO      in transmitter_1,   Axi Stream Send.  TData: 000000A9  TStrb: 1111  TKeep: 1111  TID: 00  TDest: 0  TUser: 0  TLast: 0  Operation# 316 at 3260 ns
%% Log    INFO      in transmitter_1,   Axi Stream Send.  TData: 000000AA  TStrb: 1111  TKeep: 1111  TID: 00  TDest: 0  TUser: 0  TLast: 0  Operation# 317 at 3270 ns
%% Log    INFO      in transmitter_1,   Axi Stream Send.  TData: 000000AB  TStrb: 1111  TKeep: 1111  TID: 00  TDest: 0  TUser: 0  TLast: 0  Operation# 318 at 3280 ns
%% Log    INFO      in transmitter_1,   Axi Stream Send.  TData: 000000AC  TStrb: 1111  TKeep: 1111  TID: 00  TDest: 0  TUser: 0  TLast: 0  Operation# 319 at 3290 ns
%% Log    INFO      in transmitter_1,   Axi Stream Send.  TData: 000000AD  TStrb: 1111  TKeep: 1111  TID: 00  TDest: 0  TUser: 0  TLast: 0  Operation# 320 at 3300 ns
%% Log    INFO      in transmitter_1,   Axi Stream Send.  TData: 000000AE  TStrb: 1111  TKeep: 1111  TID: 00  TDest: 0  TUser: 0  TLast: 0  Operation# 321 at 3310 ns
%% Log    INFO      in transmitter_1,   Axi Stream Send.  TData: 000000AF  TStrb: 1111  TKeep: 1111  TID: 00  TDest: 0  TUser: 0  TLast: 0  Operation# 322 at 3320 ns
%% Log    INFO      in transmitter_1,   Axi Stream Send.  TData: 000000B0  TStrb: 1111  TKeep: 1111  TID: 00  TDest: 0  TUser: 0  TLast: 0  Operation# 323 at 3330 ns
%% Log    INFO      in transmitter_1,   Axi Stream Send.  TData: 000000B1  TStrb: 1111  TKeep: 1111  TID: 00  TDest: 0  TUser: 0  TLast: 0  Operation# 324 at 3340 ns
%% Log    INFO      in transmitter_1,   Axi Stream Send.  TData: 000000B2  TStrb: 1111  TKeep: 1111  TID: 00  TDest: 0  TUser: 0  TLast: 0  Operation# 325 at 3350 ns
%% Log    INFO      in transmitter_1,   Axi Stream Send.  TData: 000000B3  TStrb: 1111  TKeep: 1111  TID: 00  TDest: 0  TUser: 0  TLast: 0  Operation# 326 at 3360 ns
%% Log    INFO      in transmitter_1,   Axi Stream Send.  TData: 000000B4  TStrb: 1111  TKeep: 1111  TID: 00  TDest: 0  TUser: 0  TLast: 0  Operation# 327 at 3370 ns
%% Log    INFO      in transmitter_1,   Axi Stream Send.  TData: 000000B5  TStrb: 1111  TKeep: 1111  TID: 00  TDest: 0  TUser: 0  TLast: 0  Operation# 328 at 3380 ns
%% Log    INFO      in transmitter_1,   Axi Stream Send.  TData: 000000B6  TStrb: 1111  TKeep: 1111  TID: 00  TDest: 0  TUser: 0  TLast: 0  Operation# 329 at 3390 ns
%% Log    INFO      in transmitter_1,   Axi Stream Send.  TData: 000000B7  TStrb: 1111  TKeep: 1111  TID: 00  TDest: 0  TUser: 0  TLast: 0  Operation# 330 at 3400 ns
%% Log    INFO      in transmitter_1,   Axi Stream Send.  TData: 000000B8  TStrb: 1111  TKeep: 1111  TID: 00  TDest: 0  TUser: 0  TLast: 0  Operation# 331 at 3410 ns
%% Log    INFO      in transmitter_1,   Axi Stream Send.  TData: 000000B9  TStrb: 1111  TKeep: 1111  TID: 00  TDest: 0  TUser: 0  TLast: 0  Operation# 332 at 3420 ns
%% Log    INFO      in transmitter_1,   Axi Stream Send.  TData: 000000BA  TStrb: 1111  TKeep: 1111  TID: 00  TDest: 0  TUser: 0  TLast: 0  Operation# 333 at 3430 ns
%% Log    INFO      in transmitter_1,   Axi Stream Send.  TData: 000000BB  TStrb: 1111  TKeep: 1111  TID: 00  TDest: 0  TUser: 0  TLast: 0  Operation# 334 at 3440 ns
%% Log    INFO      in transmitter_1,   Axi Stream Send.  TData: 000000BC  TStrb: 1111  TKeep: 1111  TID: 00  TDest: 0  TUser: 0  TLast: 0  Operation# 335 at 3450 ns
%% Log    INFO      in transmitter_1,   Axi Stream Send.  TData: 000000BD  TStrb: 1111  TKeep: 1111  TID: 00  TDest: 0  TUser: 0  TLast: 0  Operation# 336 at 3460 ns
%% Log    INFO      in transmitter_1,   Axi Stream Send.  TData: 000000BE  TStrb: 1111  TKeep: 1111  TID: 00  TDest: 0  TUser: 0  TLast: 0  Operation# 337 at 3470 ns
%% Log    INFO      in transmitter_1,   Axi Stream Send.  TData: 000000BF  TStrb: 1111  TKeep: 1111  TID: 00  TDest: 0  TUser: 0  TLast: 0  Operation# 338 at 3480 ns
%% Log    INFO      in transmitter_1,   Axi Stream Send.  TData: 000000C0  TStrb: 1111  TKeep: 1111  TID: 00  TDest: 0  TUser: 0  TLast: 0  Operation# 339 at 3490 ns
%% Log    INFO      in transmitter_1,   Axi Stream Send.  TData: 000000C1  TStrb: 1111  TKeep: 1111  TID: 00  TDest: 0  TUser: 0  TLast: 0  Operation# 340 at 3500 ns
%% Log    INFO      in transmitter_1,   Axi Stream Send.  TData: 000000C2  TStrb: 1111  TKeep: 1111  TID: 00  TDest: 0  TUser: 0  TLast: 0  Operation# 341 at 3510 ns
%% Log    INFO      in transmitter_1,   Axi Stream Send.  TData: 000000C3  TStrb: 1111  TKeep: 1111  TID: 00  TDest: 0  TUser: 0  TLast: 0  Operation# 342 at 3520 ns
%% Log    INFO      in transmitter_1,   Axi Stream Send.  TData: 000000C4  TStrb: 1111  TKeep: 1111  TID: 00  TDest: 0  TUser: 0  TLast: 0  Operation# 343 at 3530 ns
%% Log    INFO      in transmitter_1,   Axi Stream Send.  TData: 000000C5  TStrb: 1111  TKeep: 1111  TID: 00  TDest: 0  TUser: 0  TLast: 0  Operation# 344 at 3540 ns
%% Log    INFO      in transmitter_1,   Axi Stream Send.  TData: 000000C6  TStrb: 1111  TKeep: 1111  TID: 00  TDest: 0  TUser: 0  TLast: 0  Operation# 345 at 3550 ns
%% Log    INFO      in transmitter_1,   Axi Stream Send.  TData: 000000C7  TStrb: 1111  TKeep: 1111  TID: 00  TDest: 0  TUser: 0  TLast: 0  Operation# 346 at 3560 ns
%% Log    INFO      in transmitter_1,   Axi Stream Send.  TData: 000000C8  TStrb: 1111  TKeep: 1111  TID: 00  TDest: 0  TUser: 0  TLast: 0  Operation# 347 at 3570 ns
%% Log    INFO      in transmitter_1,   Axi Stream Send.  TData: 000000C9  TStrb: 1111  TKeep: 1111  TID: 00  TDest: 0  TUser: 0  TLast: 0  Operation# 348 at 3580 ns
%% Log    INFO      in transmitter_1,   Axi Stream Send.  TData: 000000CA  TStrb: 1111  TKeep: 1111  TID: 00  TDest: 0  TUser: 0  TLast: 0  Operation# 349 at 3590 ns
%% Log    INFO      in transmitter_1,   Axi Stream Send.  TData: 000000CB  TStrb: 1111  TKeep: 1111  TID: 00  TDest: 0  TUser: 0  TLast: 0  Operation# 350 at 3600 ns
%% Log    INFO      in transmitter_1,   Axi Stream Send.  TData: 000000CC  TStrb: 1111  TKeep: 1111  TID: 00  TDest: 0  TUser: 0  TLast: 0  Operation# 351 at 3610 ns
%% Log    INFO      in transmitter_1,   Axi Stream Send.  TData: 000000CD  TStrb: 1111  TKeep: 1111  TID: 00  TDest: 0  TUser: 0  TLast: 0  Operation# 352 at 3620 ns
%% Log    INFO      in transmitter_1,   Axi Stream Send.  TData: 000000CE  TStrb: 1111  TKeep: 1111  TID: 00  TDest: 0  TUser: 0  TLast: 0  Operation# 353 at 3630 ns
%% Log    INFO      in transmitter_1,   Axi Stream Send.  TData: 000000CF  TStrb: 1111  TKeep: 1111  TID: 00  TDest: 0  TUser: 0  TLast: 0  Operation# 354 at 3640 ns
%% Log    INFO      in transmitter_1,   Axi Stream Send.  TData: 000000D0  TStrb: 1111  TKeep: 1111  TID: 00  TDest: 0  TUser: 0  TLast: 0  Operation# 355 at 3650 ns
%% Log    INFO      in transmitter_1,   Axi Stream Send.  TData: 000000D1  TStrb: 1111  TKeep: 1111  TID: 00  TDest: 0  TUser: 0  TLast: 0  Operation# 356 at 3660 ns
%% Log    INFO      in transmitter_1,   Axi Stream Send.  TData: 000000D2  TStrb: 1111  TKeep: 1111  TID: 00  TDest: 0  TUser: 0  TLast: 0  Operation# 357 at 3670 ns
%% Log    INFO      in transmitter_1,   Axi Stream Send.  TData: 000000D3  TStrb: 1111  TKeep: 1111  TID: 00  TDest: 0  TUser: 0  TLast: 0  Operation# 358 at 3680 ns
%% Log    INFO      in transmitter_1,   Axi Stream Send.  TData: 000000D4  TStrb: 1111  TKeep: 1111  TID: 00  TDest: 0  TUser: 0  TLast: 0  Operation# 359 at 3690 ns
%% Log    INFO      in transmitter_1,   Axi Stream Send.  TData: 000000D5  TStrb: 1111  TKeep: 1111  TID: 00  TDest: 0  TUser: 0  TLast: 0  Operation# 360 at 3700 ns
%% Log    INFO      in transmitter_1,   Axi Stream Send.  TData: 000000D6  TStrb: 1111  TKeep: 1111  TID: 00  TDest: 0  TUser: 0  TLast: 0  Operation# 361 at 3710 ns
%% Log    INFO      in transmitter_1,   Axi Stream Send.  TData: 000000D7  TStrb: 1111  TKeep: 1111  TID: 00  TDest: 0  TUser: 0  TLast: 0  Operation# 362 at 3720 ns
%% Log    INFO      in transmitter_1,   Axi Stream Send.  TData: 000000D8  TStrb: 1111  TKeep: 1111  TID: 00  TDest: 0  TUser: 0  TLast: 1  Operation# 363 at 3730 ns
%% Log    INFO      in transmitter_1,   Axi Stream Send.  TData: 000000C0  TStrb: 1111  TKeep: 1111  TID: 00  TDest: 0  TUser: 0  TLast: 0  Operation# 364 at 3740 ns
%% Log    PASSED    in receiver_1: RxBurstFifo,      Received: 000000A0   Item Number: 307 at 3740 ns
%% Log    PASSED    in receiver_1: RxBurstFifo,      Received: 000000A1   Item Number: 308 at 3740 ns
%% Log    PASSED    in receiver_1: RxBurstFifo,      Received: 000000A2   Item Number: 309 at 3740 ns
%% Log    PASSED    in receiver_1: RxBurstFifo,      Received: 000000A3   Item Number: 310 at 3740 ns
%% Log    PASSED    in receiver_1: RxBurstFifo,      Received: 000000A4   Item Number: 311 at 3740 ns
%% Log    PASSED    in receiver_1: RxBurstFifo,      Received: 000000A5   Item Number: 312 at 3740 ns
%% Log    PASSED    in receiver_1: RxBurstFifo,      Received: 000000A6   Item Number: 313 at 3740 ns
%% Log    PASSED    in receiver_1: RxBurstFifo,      Received: 000000A7   Item Number: 314 at 3740 ns
%% Log    PASSED    in receiver_1: RxBurstFifo,      Received: 000000A8   Item Number: 315 at 3740 ns
%% Log    PASSED    in receiver_1: RxBurstFifo,      Received: 000000A9   Item Number: 316 at 3740 ns
%% Log    PASSED    in receiver_1: RxBurstFifo,      Received: 000000AA   Item Number: 317 at 3740 ns
%% Log    PASSED    in receiver_1: RxBurstFifo,      Received: 000000AB   Item Number: 318 at 3740 ns
%% Log    PASSED    in receiver_1: RxBurstFifo,      Received: 000000AC   Item Number: 319 at 3740 ns
%% Log    PASSED    in receiver_1: RxBurstFifo,      Received: 000000AD   Item Number: 320 at 3740 ns
%% Log    PASSED    in receiver_1: RxBurstFifo,      Received: 000000AE   Item Number: 321 at 3740 ns
%% Log    PASSED    in receiver_1: RxBurstFifo,      Received: 000000AF   Item Number: 322 at 3740 ns
%% Log    PASSED    in receiver_1: RxBurstFifo,      Received: 000000B0   Item Number: 323 at 3740 ns
%% Log    PASSED    in receiver_1: RxBurstFifo,      Received: 000000B1   Item Number: 324 at 3740 ns
%% Log    PASSED    in receiver_1: RxBurstFifo,      Received: 000000B2   Item Number: 325 at 3740 ns
%% Log    PASSED    in receiver_1: RxBurstFifo,      Received: 000000B3   Item Number: 326 at 3740 ns
%% Log    PASSED    in receiver_1: RxBurstFifo,      Received: 000000B4   Item Number: 327 at 3740 ns
%% Log    PASSED    in receiver_1: RxBurstFifo,      Received: 000000B5   Item Number: 328 at 3740 ns
%% Log    PASSED    in receiver_1: RxBurstFifo,      Received: 000000B6   Item Number: 329 at 3740 ns
%% Log    PASSED    in receiver_1: RxBurstFifo,      Received: 000000B7   Item Number: 330 at 3740 ns
%% Log    PASSED    in receiver_1: RxBurstFifo,      Received: 000000B8   Item Number: 331 at 3740 ns
%% Log    PASSED    in receiver_1: RxBurstFifo,      Received: 000000B9   Item Number: 332 at 3740 ns
%% Log    PASSED    in receiver_1: RxBurstFifo,      Received: 000000BA   Item Number: 333 at 3740 ns
%% Log    PASSED    in receiver_1: RxBurstFifo,      Received: 000000BB   Item Number: 334 at 3740 ns
%% Log    PASSED    in receiver_1: RxBurstFifo,      Received: 000000BC   Item Number: 335 at 3740 ns
%% Log    PASSED    in receiver_1: RxBurstFifo,      Received: 000000BD   Item Number: 336 at 3740 ns
%% Log    PASSED    in receiver_1: RxBurstFifo,      Received: 000000BE   Item Number: 337 at 3740 ns
%% Log    PASSED    in receiver_1: RxBurstFifo,      Received: 000000BF   Item Number: 338 at 3740 ns
%% Log    PASSED    in receiver_1: RxBurstFifo,      Received: 000000C0   Item Number: 339 at 3740 ns
%% Log    PASSED    in receiver_1: RxBurstFifo,      Received: 000000C1   Item Number: 340 at 3740 ns
%% Log    PASSED    in receiver_1: RxBurstFifo,      Received: 000000C2   Item Number: 341 at 3740 ns
