%%         110.0 ns  Log    ALWAYS  in Default,                      Transmit 16 words.  Cover Random
%%         110.0 ns  Log    INFO    in transmitter_1,                Axi Stream Send.  TData: 00000024  TStrb: 1111  TKeep: 1111  TID: 00  TDest: 0  TUser: 0  TLast: 0  Operation# 1
%%         120.0 ns  Log    INFO    in transmitter_1,                Axi Stream Send.  TData: 00000001  TStrb: 1111  TKeep: 1111  TID: 00  TDest: 0  TUser: 0  TLast: 0  Operation# 2
%%         130.0 ns  Log    INFO    in transmitter_1,                Axi Stream Send.  TData: 00000020  TStrb: 1111  TKeep: 1111  TID: 00  TDest: 0  TUser: 0  TLast: 0  Operation# 3
%%         140.0 ns  Log    INFO    in transmitter_1,                Axi Stream Send.  TData: 00000063  TStrb: 1111  TKeep: 1111  TID: 00  TDest: 0  TUser: 0  TLast: 0  Operation# 4
%%         150.0 ns  Log    INFO    in transmitter_1,                Axi Stream Send.  TData: 00000022  TStrb: 1111  TKeep: 1111  TID: 00  TDest: 0  TUser: 0  TLast: 0  Operation# 5
%%         160.0 ns  Log    INFO    in transmitter_1,                Axi Stream Send.  TData: 00000021  TStrb: 1111  TKeep: 1111  TID: 00  TDest: 0  TUser: 0  TLast: 0  Operation# 6
%%         170.0 ns  Log    INFO    in transmitter_1,                Axi Stream Send.  TData: 00000002  TStrb: 1111  TKeep: 1111  TID: 00  TDest: 0  TUser: 0  TLast: 0  Operation# 7
%%         180.0 ns  Log    INFO    in transmitter_1,                Axi Stream Send.  TData: 00000005  TStrb: 1111  TKeep: 1111  TID: 00  TDest: 0  TUser: 0  TLast: 0  Operation# 8
%%         190.0 ns  Log    INFO    in transmitter_1,                Axi Stream Send.  TData: 00000046  TStrb: 1111  TKeep: 1111  TID: 00  TDest: 0  TUser: 0  TLast: 0  Operation# 9
%%         200.0 ns  Log    INFO    in transmitter_1,                Axi Stream Send.  TData: 00000026  TStrb: 1111  TKeep: 1111  TID: 00  TDest: 0  TUser: 0  TLast: 0  Operation# 10
%%         210.0 ns  Log    INFO    in transmitter_1,                Axi Stream Send.  TData: 00000007  TStrb: 1111  TKeep: 1111  TID: 00  TDest: 0  TUser: 0  TLast: 0  Operation# 11
%%         220.0 ns  Log    INFO    in transmitter_1,                Axi Stream Send.  TData: 00000041  TStrb: 1111  TKeep: 1111  TID: 00  TDest: 0  TUser: 0  TLast: 0  Operation# 12
%%         230.0 ns  Log    INFO    in transmitter_1,                Axi Stream Send.  TData: 00000062  TStrb: 1111  TKeep: 1111  TID: 00  TDest: 0  TUser: 0  TLast: 0  Operation# 13
%%         240.0 ns  Log    INFO    in transmitter_1,                Axi Stream Send.  TData: 00000061  TStrb: 1111  TKeep: 1111  TID: 00  TDest: 0  TUser: 0  TLast: 0  Operation# 14
%%         250.0 ns  Log    INFO    in transmitter_1,                Axi Stream Send.  TData: 00000027  TStrb: 1111  TKeep: 1111  TID: 00  TDest: 0  TUser: 0  TLast: 0  Operation# 15
%%         260.0 ns  Log    INFO    in transmitter_1,                Axi Stream Send.  TData: 00000000  TStrb: 1111  TKeep: 1111  TID: 00  TDest: 0  TUser: 0  TLast: 1  Operation# 16
%%         270.0 ns  Log    PASSED  in receiver_1: RxBurstFifo,      Received: 00000024   Item Number: 1
%%         270.0 ns  Log    PASSED  in receiver_1: RxBurstFifo,      Received: 00000001   Item Number: 2
%%         270.0 ns  Log    PASSED  in receiver_1: RxBurstFifo,      Received: 00000020   Item Number: 3
%%         270.0 ns  Log    PASSED  in receiver_1: RxBurstFifo,      Received: 00000063   Item Number: 4
%%         270.0 ns  Log    PASSED  in receiver_1: RxBurstFifo,      Received: 00000022   Item Number: 5
%%         270.0 ns  Log    PASSED  in receiver_1: RxBurstFifo,      Received: 00000021   Item Number: 6
%%         270.0 ns  Log    PASSED  in receiver_1: RxBurstFifo,      Received: 00000002   Item Number: 7
%%         270.0 ns  Log    PASSED  in receiver_1: RxBurstFifo,      Received: 00000005   Item Number: 8
%%         270.0 ns  Log    PASSED  in receiver_1: RxBurstFifo,      Received: 00000046   Item Number: 9
%%         270.0 ns  Log    PASSED  in receiver_1: RxBurstFifo,      Received: 00000026   Item Number: 10
%%         270.0 ns  Log    PASSED  in receiver_1: RxBurstFifo,      Received: 00000007   Item Number: 11
%%         270.0 ns  Log    PASSED  in receiver_1: RxBurstFifo,      Received: 00000041   Item Number: 12
%%         270.0 ns  Log    PASSED  in receiver_1: RxBurstFifo,      Received: 00000062   Item Number: 13
%%         270.0 ns  Log    PASSED  in receiver_1: RxBurstFifo,      Received: 00000061   Item Number: 14
%%         270.0 ns  Log    PASSED  in receiver_1: RxBurstFifo,      Received: 00000027   Item Number: 15
%%         270.0 ns  Log    PASSED  in receiver_1: RxBurstFifo,      Received: 00000000   Item Number: 16
%%         270.0 ns  Log    INFO    in receiver_1,                   Burst Check.  Operation# 1  Last Data: 00000000  TID: 00  TDest: 0  TUser: 0  TLast: 1
%%         270.0 ns  Log    PASSED  in receiver_1,                   Burst Check WordCount Received : 16
%%         270.0 ns  Log    PASSED  in receiver_1,                   ID Received : 00
%%         270.0 ns  Log    PASSED  in receiver_1,                   DEST Received : 0
%%         270.0 ns  Log    PASSED  in receiver_1,                   USER Received : 0
%%         270.0 ns  Log    PASSED  in receiver_1,                   Last Received : 1
%%         310.0 ns  Log    ALWAYS  in Default,                      Transmit 14 words.
%%         310.0 ns  Log    INFO    in transmitter_1,                Axi Stream Send.  TData: 00000064  TStrb: 1111  TKeep: 1111  TID: 00  TDest: 0  TUser: 0  TLast: 0  Operation# 17
%%         320.0 ns  Log    INFO    in transmitter_1,                Axi Stream Send.  TData: 00000006  TStrb: 1111  TKeep: 1111  TID: 00  TDest: 0  TUser: 0  TLast: 0  Operation# 18
%%         330.0 ns  Log    INFO    in transmitter_1,                Axi Stream Send.  TData: 00000023  TStrb: 1111  TKeep: 1111  TID: 00  TDest: 0  TUser: 0  TLast: 0  Operation# 19
%%         340.0 ns  Log    INFO    in transmitter_1,                Axi Stream Send.  TData: 00000004  TStrb: 1111  TKeep: 1111  TID: 00  TDest: 0  TUser: 0  TLast: 0  Operation# 20
%%         350.0 ns  Log    INFO    in transmitter_1,                Axi Stream Send.  TData: 00000042  TStrb: 1111  TKeep: 1111  TID: 00  TDest: 0  TUser: 0  TLast: 0  Operation# 21
%%         360.0 ns  Log    INFO    in transmitter_1,                Axi Stream Send.  TData: 00000047  TStrb: 1111  TKeep: 1111  TID: 00  TDest: 0  TUser: 0  TLast: 0  Operation# 22
%%         370.0 ns  Log    INFO    in transmitter_1,                Axi Stream Send.  TData: 00000060  TStrb: 1111  TKeep: 1111  TID: 00  TDest: 0  TUser: 0  TLast: 0  Operation# 23
%%         380.0 ns  Log    INFO    in transmitter_1,                Axi Stream Send.  TData: 00000067  TStrb: 1111  TKeep: 1111  TID: 00  TDest: 0  TUser: 0  TLast: 0  Operation# 24
%%         390.0 ns  Log    INFO    in transmitter_1,                Axi Stream Send.  TData: 00000065  TStrb: 1111  TKeep: 1111  TID: 00  TDest: 0  TUser: 0  TLast: 0  Operation# 25
%%         400.0 ns  Log    INFO    in transmitter_1,                Axi Stream Send.  TData: 00000044  TStrb: 1111  TKeep: 1111  TID: 00  TDest: 0  TUser: 0  TLast: 0  Operation# 26
%%         410.0 ns  Log    INFO    in transmitter_1,                Axi Stream Send.  TData: 00000003  TStrb: 1111  TKeep: 1111  TID: 00  TDest: 0  TUser: 0  TLast: 0  Operation# 27
%%         420.0 ns  Log    INFO    in transmitter_1,                Axi Stream Send.  TData: 00000045  TStrb: 1111  TKeep: 1111  TID: 00  TDest: 0  TUser: 0  TLast: 0  Operation# 28
%%         430.0 ns  Log    INFO    in transmitter_1,                Axi Stream Send.  TData: 00000066  TStrb: 1111  TKeep: 1111  TID: 00  TDest: 0  TUser: 0  TLast: 0  Operation# 29
%%         440.0 ns  Log    INFO    in transmitter_1,                Axi Stream Send.  TData: 00000043  TStrb: 1111  TKeep: 1111  TID: 00  TDest: 0  TUser: 0  TLast: 1  Operation# 30
%%         450.0 ns  Log    PASSED  in receiver_1: RxBurstFifo,      Received: 00000064   Item Number: 17
%%         450.0 ns  Log    PASSED  in receiver_1: RxBurstFifo,      Received: 00000006   Item Number: 18
%%         450.0 ns  Log    PASSED  in receiver_1: RxBurstFifo,      Received: 00000023   Item Number: 19
%%         450.0 ns  Log    PASSED  in receiver_1: RxBurstFifo,      Received: 00000004   Item Number: 20
%%         450.0 ns  Log    PASSED  in receiver_1: RxBurstFifo,      Received: 00000042   Item Number: 21
%%         450.0 ns  Log    PASSED  in receiver_1: RxBurstFifo,      Received: 00000047   Item Number: 22
%%         450.0 ns  Log    PASSED  in receiver_1: RxBurstFifo,      Received: 00000060   Item Number: 23
%%         450.0 ns  Log    PASSED  in receiver_1: RxBurstFifo,      Received: 00000067   Item Number: 24
%%         450.0 ns  Log    PASSED  in receiver_1: RxBurstFifo,      Received: 00000065   Item Number: 25
%%         450.0 ns  Log    PASSED  in receiver_1: RxBurstFifo,      Received: 00000044   Item Number: 26
%%         450.0 ns  Log    PASSED  in receiver_1: RxBurstFifo,      Received: 00000003   Item Number: 27
%%         450.0 ns  Log    PASSED  in receiver_1: RxBurstFifo,      Received: 00000045   Item Number: 28
%%         450.0 ns  Log    PASSED  in receiver_1: RxBurstFifo,      Received: 00000066   Item Number: 29
%%         450.0 ns  Log    PASSED  in receiver_1: RxBurstFifo,      Received: 00000043   Item Number: 30
%%         450.0 ns  Log    INFO    in receiver_1,                   Burst Check.  Operation# 2  Last Data: 00000043  TID: 00  TDest: 0  TUser: 0  TLast: 1
%%         450.0 ns  Log    PASSED  in receiver_1,                   Burst Check WordCount Received : 14
%%         450.0 ns  Log    PASSED  in receiver_1,                   ID Received : 00
%%         450.0 ns  Log    PASSED  in receiver_1,                   DEST Received : 0
%%         450.0 ns  Log    PASSED  in receiver_1,                   USER Received : 0
%%         450.0 ns  Log    PASSED  in receiver_1,                   Last Received : 1
%%         450.0 ns  Log    ALWAYS  in Default,                      Transmit 17 words.
%%         450.0 ns  Log    INFO    in transmitter_1,                Axi Stream Send.  TData: 00000025  TStrb: 1111  TKeep: 1111  TID: 00  TDest: 0  TUser: 0  TLast: 0  Operation# 31
%%         460.0 ns  Log    INFO    in transmitter_1,                Axi Stream Send.  TData: 00000040  TStrb: 1111  TKeep: 1111  TID: 00  TDest: 0  TUser: 0  TLast: 0  Operation# 32
%%         470.0 ns  Log    INFO    in transmitter_1,                Axi Stream Send.  TData: 00000023  TStrb: 1111  TKeep: 1111  TID: 00  TDest: 0  TUser: 0  TLast: 0  Operation# 33
%%         480.0 ns  Log    INFO    in transmitter_1,                Axi Stream Send.  TData: 00000067  TStrb: 1111  TKeep: 1111  TID: 00  TDest: 0  TUser: 0  TLast: 0  Operation# 34
%%         490.0 ns  Log    INFO    in transmitter_1,                Axi Stream Send.  TData: 00000020  TStrb: 1111  TKeep: 1111  TID: 00  TDest: 0  TUser: 0  TLast: 0  Operation# 35
%%         500.0 ns  Log    INFO    in transmitter_1,                Axi Stream Send.  TData: 00000045  TStrb: 1111  TKeep: 1111  TID: 00  TDest: 0  TUser: 0  TLast: 0  Operation# 36
%%         510.0 ns  Log    INFO    in transmitter_1,                Axi Stream Send.  TData: 00000045  TStrb: 1111  TKeep: 1111  TID: 00  TDest: 0  TUser: 0  TLast: 0  Operation# 37
%%         520.0 ns  Log    INFO    in transmitter_1,                Axi Stream Send.  TData: 00000020  TStrb: 1111  TKeep: 1111  TID: 00  TDest: 0  TUser: 0  TLast: 0  Operation# 38
%%         530.0 ns  Log    INFO    in transmitter_1,                Axi Stream Send.  TData: 00000027  TStrb: 1111  TKeep: 1111  TID: 00  TDest: 0  TUser: 0  TLast: 0  Operation# 39
%%         540.0 ns  Log    INFO    in transmitter_1,                Axi Stream Send.  TData: 00000045  TStrb: 1111  TKeep: 1111  TID: 00  TDest: 0  TUser: 0  TLast: 0  Operation# 40
%%         550.0 ns  Log    INFO    in transmitter_1,                Axi Stream Send.  TData: 00000046  TStrb: 1111  TKeep: 1111  TID: 00  TDest: 0  TUser: 0  TLast: 0  Operation# 41
%%         560.0 ns  Log    INFO    in transmitter_1,                Axi Stream Send.  TData: 00000021  TStrb: 1111  TKeep: 1111  TID: 00  TDest: 0  TUser: 0  TLast: 0  Operation# 42
%%         570.0 ns  Log    INFO    in transmitter_1,                Axi Stream Send.  TData: 00000007  TStrb: 1111  TKeep: 1111  TID: 00  TDest: 0  TUser: 0  TLast: 0  Operation# 43
%%         580.0 ns  Log    INFO    in transmitter_1,                Axi Stream Send.  TData: 00000061  TStrb: 1111  TKeep: 1111  TID: 00  TDest: 0  TUser: 0  TLast: 0  Operation# 44
%%         590.0 ns  Log    INFO    in transmitter_1,                Axi Stream Send.  TData: 00000003  TStrb: 1111  TKeep: 1111  TID: 00  TDest: 0  TUser: 0  TLast: 0  Operation# 45
%%         600.0 ns  Log    INFO    in transmitter_1,                Axi Stream Send.  TData: 00000063  TStrb: 1111  TKeep: 1111  TID: 00  TDest: 0  TUser: 0  TLast: 0  Operation# 46
%%         610.0 ns  Log    INFO    in transmitter_1,                Axi Stream Send.  TData: 00000047  TStrb: 1111  TKeep: 1111  TID: 00  TDest: 0  TUser: 0  TLast: 1  Operation# 47
%%         620.0 ns  Log    PASSED  in receiver_1: RxBurstFifo,      Received: 00000025   Item Number: 31
%%         620.0 ns  Log    PASSED  in receiver_1: RxBurstFifo,      Received: 00000040   Item Number: 32
%%         620.0 ns  Log    PASSED  in receiver_1: RxBurstFifo,      Received: 00000023   Item Number: 33
%%         620.0 ns  Log    PASSED  in receiver_1: RxBurstFifo,      Received: 00000067   Item Number: 34
%%         620.0 ns  Log    PASSED  in receiver_1: RxBurstFifo,      Received: 00000020   Item Number: 35
%%         620.0 ns  Log    PASSED  in receiver_1: RxBurstFifo,      Received: 00000045   Item Number: 36
%%         620.0 ns  Log    PASSED  in receiver_1: RxBurstFifo,      Received: 00000045   Item Number: 37
%%         620.0 ns  Log    PASSED  in receiver_1: RxBurstFifo,      Received: 00000020   Item Number: 38
%%         620.0 ns  Log    PASSED  in receiver_1: RxBurstFifo,      Received: 00000027   Item Number: 39
%%         620.0 ns  Log    PASSED  in receiver_1: RxBurstFifo,      Received: 00000045   Item Number: 40
%%         620.0 ns  Log    PASSED  in receiver_1: RxBurstFifo,      Received: 00000046   Item Number: 41
%%         620.0 ns  Log    PASSED  in receiver_1: RxBurstFifo,      Received: 00000021   Item Number: 42
%%         620.0 ns  Log    PASSED  in receiver_1: RxBurstFifo,      Received: 00000007   Item Number: 43
%%         620.0 ns  Log    PASSED  in receiver_1: RxBurstFifo,      Received: 00000061   Item Number: 44
%%         620.0 ns  Log    PASSED  in receiver_1: RxBurstFifo,      Received: 00000003   Item Number: 45
%%         620.0 ns  Log    PASSED  in receiver_1: RxBurstFifo,      Received: 00000063   Item Number: 46
%%         620.0 ns  Log    PASSED  in receiver_1: RxBurstFifo,      Received: 00000047   Item Number: 47
%%         620.0 ns  Log    INFO    in receiver_1,                   Burst Check.  Operation# 3  Last Data: 00000047  TID: 00  TDest: 0  TUser: 0  TLast: 1
%%         620.0 ns  Log    PASSED  in receiver_1,                   Burst Check WordCount Received : 17
%%         620.0 ns  Log    PASSED  in receiver_1,                   ID Received : 00
%%         620.0 ns  Log    PASSED  in receiver_1,                   DEST Received : 0
%%         620.0 ns  Log    PASSED  in receiver_1,                   USER Received : 0
%%         620.0 ns  Log    PASSED  in receiver_1,                   Last Received : 1
%%         690.0 ns  Log    ALWAYS  in Default,                      Transmit 13 words.
%%         690.0 ns  Log    INFO    in transmitter_1,                Axi Stream Send.  TData: 00000024  TStrb: 1111  TKeep: 1111  TID: 00  TDest: 0  TUser: 0  TLast: 0  Operation# 48
%%         700.0 ns  Log    INFO    in transmitter_1,                Axi Stream Send.  TData: 00000062  TStrb: 1111  TKeep: 1111  TID: 00  TDest: 0  TUser: 0  TLast: 0  Operation# 49
%%         710.0 ns  Log    INFO    in transmitter_1,                Axi Stream Send.  TData: 00000003  TStrb: 1111  TKeep: 1111  TID: 00  TDest: 0  TUser: 0  TLast: 0  Operation# 50
%%         720.0 ns  Log    INFO    in transmitter_1,                Axi Stream Send.  TData: 00000024  TStrb: 1111  TKeep: 1111  TID: 00  TDest: 0  TUser: 0  TLast: 0  Operation# 51
%%         730.0 ns  Log    INFO    in transmitter_1,                Axi Stream Send.  TData: 00000044  TStrb: 1111  TKeep: 1111  TID: 00  TDest: 0  TUser: 0  TLast: 0  Operation# 52
%%         740.0 ns  Log    INFO    in transmitter_1,                Axi Stream Send.  TData: 00000020  TStrb: 1111  TKeep: 1111  TID: 00  TDest: 0  TUser: 0  TLast: 0  Operation# 53
%%         750.0 ns  Log    INFO    in transmitter_1,                Axi Stream Send.  TData: 00000041  TStrb: 1111  TKeep: 1111  TID: 00  TDest: 0  TUser: 0  TLast: 0  Operation# 54
%%         760.0 ns  Log    INFO    in transmitter_1,                Axi Stream Send.  TData: 00000002  TStrb: 1111  TKeep: 1111  TID: 00  TDest: 0  TUser: 0  TLast: 0  Operation# 55
%%         770.0 ns  Log    INFO    in transmitter_1,                Axi Stream Send.  TData: 00000004  TStrb: 1111  TKeep: 1111  TID: 00  TDest: 0  TUser: 0  TLast: 0  Operation# 56
%%         780.0 ns  Log    INFO    in transmitter_1,                Axi Stream Send.  TData: 00000046  TStrb: 1111  TKeep: 1111  TID: 00  TDest: 0  TUser: 0  TLast: 0  Operation# 57
%%         790.0 ns  Log    INFO    in transmitter_1,                Axi Stream Send.  TData: 00000060  TStrb: 1111  TKeep: 1111  TID: 00  TDest: 0  TUser: 0  TLast: 0  Operation# 58
%%         800.0 ns  Log    INFO    in transmitter_1,                Axi Stream Send.  TData: 00000063  TStrb: 1111  TKeep: 1111  TID: 00  TDest: 0  TUser: 0  TLast: 0  Operation# 59
%%         810.0 ns  Log    INFO    in transmitter_1,                Axi Stream Send.  TData: 00000042  TStrb: 1111  TKeep: 1111  TID: 00  TDest: 0  TUser: 0  TLast: 1  Operation# 60
%%         820.0 ns  Log    PASSED  in receiver_1: RxBurstFifo,      Received: 00000024   Item Number: 48
%%         820.0 ns  Log    PASSED  in receiver_1: RxBurstFifo,      Received: 00000062   Item Number: 49
%%         820.0 ns  Log    PASSED  in receiver_1: RxBurstFifo,      Received: 00000003   Item Number: 50
%%         820.0 ns  Log    PASSED  in receiver_1: RxBurstFifo,      Received: 00000024   Item Number: 51
%%         820.0 ns  Log    PASSED  in receiver_1: RxBurstFifo,      Received: 00000044   Item Number: 52
%%         820.0 ns  Log    PASSED  in receiver_1: RxBurstFifo,      Received: 00000020   Item Number: 53
%%         820.0 ns  Log    PASSED  in receiver_1: RxBurstFifo,      Received: 00000041   Item Number: 54
%%         820.0 ns  Log    PASSED  in receiver_1: RxBurstFifo,      Received: 00000002   Item Number: 55
%%         820.0 ns  Log    PASSED  in receiver_1: RxBurstFifo,      Received: 00000004   Item Number: 56
%%         820.0 ns  Log    PASSED  in receiver_1: RxBurstFifo,      Received: 00000046   Item Number: 57
%%         820.0 ns  Log    PASSED  in receiver_1: RxBurstFifo,      Received: 00000060   Item Number: 58
%%         820.0 ns  Log    PASSED  in receiver_1: RxBurstFifo,      Received: 00000063   Item Number: 59
%%         820.0 ns  Log    PASSED  in receiver_1: RxBurstFifo,      Received: 00000042   Item Number: 60
%%         820.0 ns  Log    INFO    in receiver_1,                   Burst Check.  Operation# 4  Last Data: 00000042  TID: 00  TDest: 0  TUser: 0  TLast: 1
%%         820.0 ns  Log    PASSED  in receiver_1,                   Burst Check WordCount Received : 13
%%         820.0 ns  Log    PASSED  in receiver_1,                   ID Received : 00
%%         820.0 ns  Log    PASSED  in receiver_1,                   DEST Received : 0
%%         820.0 ns  Log    PASSED  in receiver_1,                   USER Received : 0
%%         820.0 ns  Log    PASSED  in receiver_1,                   Last Received : 1
