%% Log    INFO      in transmitter_1,   Axi Stream Send.  TData: 03020100  TStrb: 1111  TKeep: 1111  TID: 03  TDest: 2  TUser: 1  TLast: 0  Operation# 1 at 110 ns
%% Log    INFO      in transmitter_1,   Axi Stream Send.  TData: 07060504  TStrb: 1111  TKeep: 1111  TID: 03  TDest: 2  TUser: 1  TLast: 0  Operation# 2 at 120 ns
%% Log    INFO      in transmitter_1,   Axi Stream Send.  TData: 0B0A0908  TStrb: 1111  TKeep: 1111  TID: 03  TDest: 2  TUser: 1  TLast: 0  Operation# 3 at 130 ns
%% Log    INFO      in transmitter_1,   Axi Stream Send.  TData: 0F0E0D0C  TStrb: 1111  TKeep: 1111  TID: 03  TDest: 2  TUser: 1  TLast: 0  Operation# 4 at 140 ns
%% Log    INFO      in transmitter_1,   Axi Stream Send.  TData: 13121110  TStrb: 1111  TKeep: 1111  TID: 03  TDest: 2  TUser: 1  TLast: 0  Operation# 5 at 150 ns
%% Log    INFO      in transmitter_1,   Axi Stream Send.  TData: 17161514  TStrb: 1111  TKeep: 1111  TID: 03  TDest: 2  TUser: 1  TLast: 0  Operation# 6 at 160 ns
%% Log    INFO      in transmitter_1,   Axi Stream Send.  TData: 1B1A1918  TStrb: 1111  TKeep: 1111  TID: 03  TDest: 2  TUser: 1  TLast: 0  Operation# 7 at 170 ns
%% Log    INFO      in transmitter_1,   Axi Stream Send.  TData: 1F1E1D1C  TStrb: 1111  TKeep: 1111  TID: 03  TDest: 2  TUser: 1  TLast: 1  Operation# 8 at 180 ns
%% Log    INFO      in transmitter_1,   Axi Stream Send.  TData: 23222120  TStrb: 1111  TKeep: 1111  TID: 03  TDest: 2  TUser: 5  TLast: 0  Operation# 9 at 190 ns
%% Log    INFO      in receiver_1,   Burst Receive.  Operation# 1  Last Data: 1F1E1D1C  TID: 03  TDest: 2  TUser: 1  TLast: 1 at 190 ns
%% Log    PASSED    in Default,   TryCount 16 at 190 ns
%% Log    PASSED    in Default,   Param ID & Dest & User  Received : 00643 at 190 ns
%% Log    PASSED    in Default,   NumBytes  Received : 32 at 190 ns
%% Log    PASSED    in receiver_1: RxBurstFifo,      Received: 00   Item Number: 1 at 190 ns
%% Log    PASSED    in receiver_1: RxBurstFifo,      Received: 01   Item Number: 2 at 190 ns
%% Log    PASSED    in receiver_1: RxBurstFifo,      Received: 02   Item Number: 3 at 190 ns
%% Log    PASSED    in receiver_1: RxBurstFifo,      Received: 03   Item Number: 4 at 190 ns
%% Log    PASSED    in receiver_1: RxBurstFifo,      Received: 04   Item Number: 5 at 190 ns
%% Log    PASSED    in receiver_1: RxBurstFifo,      Received: 05   Item Number: 6 at 190 ns
%% Log    PASSED    in receiver_1: RxBurstFifo,      Received: 06   Item Number: 7 at 190 ns
%% Log    PASSED    in receiver_1: RxBurstFifo,      Received: 07   Item Number: 8 at 190 ns
%% Log    PASSED    in receiver_1: RxBurstFifo,      Received: 08   Item Number: 9 at 190 ns
%% Log    PASSED    in receiver_1: RxBurstFifo,      Received: 09   Item Number: 10 at 190 ns
%% Log    PASSED    in receiver_1: RxBurstFifo,      Received: 0A   Item Number: 11 at 190 ns
%% Log    PASSED    in receiver_1: RxBurstFifo,      Received: 0B   Item Number: 12 at 190 ns
%% Log    PASSED    in receiver_1: RxBurstFifo,      Received: 0C   Item Number: 13 at 190 ns
%% Log    PASSED    in receiver_1: RxBurstFifo,      Received: 0D   Item Number: 14 at 190 ns
%% Log    PASSED    in receiver_1: RxBurstFifo,      Received: 0E   Item Number: 15 at 190 ns
%% Log    PASSED    in receiver_1: RxBurstFifo,      Received: 0F   Item Number: 16 at 190 ns
%% Log    PASSED    in receiver_1: RxBurstFifo,      Received: 10   Item Number: 17 at 190 ns
%% Log    PASSED    in receiver_1: RxBurstFifo,      Received: 11   Item Number: 18 at 190 ns
%% Log    PASSED    in receiver_1: RxBurstFifo,      Received: 12   Item Number: 19 at 190 ns
%% Log    PASSED    in receiver_1: RxBurstFifo,      Received: 13   Item Number: 20 at 190 ns
%% Log    PASSED    in receiver_1: RxBurstFifo,      Received: 14   Item Number: 21 at 190 ns
%% Log    PASSED    in receiver_1: RxBurstFifo,      Received: 15   Item Number: 22 at 190 ns
%% Log    PASSED    in receiver_1: RxBurstFifo,      Received: 16   Item Number: 23 at 190 ns
%% Log    PASSED    in receiver_1: RxBurstFifo,      Received: 17   Item Number: 24 at 190 ns
%% Log    PASSED    in receiver_1: RxBurstFifo,      Received: 18   Item Number: 25 at 190 ns
%% Log    PASSED    in receiver_1: RxBurstFifo,      Received: 19   Item Number: 26 at 190 ns
%% Log    PASSED    in receiver_1: RxBurstFifo,      Received: 1A   Item Number: 27 at 190 ns
%% Log    PASSED    in receiver_1: RxBurstFifo,      Received: 1B   Item Number: 28 at 190 ns
%% Log    PASSED    in receiver_1: RxBurstFifo,      Received: 1C   Item Number: 29 at 190 ns
%% Log    PASSED    in receiver_1: RxBurstFifo,      Received: 1D   Item Number: 30 at 190 ns
%% Log    PASSED    in receiver_1: RxBurstFifo,      Received: 1E   Item Number: 31 at 190 ns
%% Log    PASSED    in receiver_1: RxBurstFifo,      Received: 1F   Item Number: 32 at 190 ns
%% Log    INFO      in transmitter_1,   Axi Stream Send.  TData: 27262524  TStrb: 1111  TKeep: 1111  TID: 03  TDest: 2  TUser: 5  TLast: 0  Operation# 10 at 200 ns
%% Log    INFO      in transmitter_1,   Axi Stream Send.  TData: 2B2A2928  TStrb: 1111  TKeep: 1111  TID: 03  TDest: 2  TUser: 5  TLast: 0  Operation# 11 at 210 ns
%% Log    INFO      in transmitter_1,   Axi Stream Send.  TData: 2F2E2D2C  TStrb: 1111  TKeep: 1111  TID: 03  TDest: 2  TUser: 5  TLast: 0  Operation# 12 at 220 ns
%% Log    INFO      in transmitter_1,   Axi Stream Send.  TData: 33323130  TStrb: 1111  TKeep: 1111  TID: 03  TDest: 2  TUser: 5  TLast: 0  Operation# 13 at 230 ns
%% Log    INFO      in transmitter_1,   Axi Stream Send.  TData: 37363534  TStrb: 1111  TKeep: 1111  TID: 03  TDest: 2  TUser: 5  TLast: 0  Operation# 14 at 240 ns
%% Log    INFO      in transmitter_1,   Axi Stream Send.  TData: 3B3A3938  TStrb: 1111  TKeep: 1111  TID: 03  TDest: 2  TUser: 5  TLast: 0  Operation# 15 at 250 ns
%% Log    INFO      in transmitter_1,   Axi Stream Send.  TData: 3F3E3D3C  TStrb: 1111  TKeep: 1111  TID: 03  TDest: 2  TUser: 5  TLast: 1  Operation# 16 at 260 ns
%% Log    INFO      in transmitter_1,   Axi Stream Send.  TData: 43424140  TStrb: 1111  TKeep: 1111  TID: 03  TDest: 6  TUser: 5  TLast: 0  Operation# 17 at 270 ns
%% Log    INFO      in receiver_1,   Burst Receive.  Operation# 2  Last Data: 3F3E3D3C  TID: 03  TDest: 2  TUser: 5  TLast: 1 at 270 ns
%% Log    PASSED    in Default,   TryCount 8 at 270 ns
%% Log    PASSED    in Default,   Param ID & Dest & User  Received : 0064B at 270 ns
%% Log    PASSED    in Default,   NumBytes  Received : 32 at 270 ns
%% Log    PASSED    in receiver_1: RxBurstFifo,      Received: 20   Item Number: 33 at 270 ns
%% Log    PASSED    in receiver_1: RxBurstFifo,      Received: 21   Item Number: 34 at 270 ns
%% Log    PASSED    in receiver_1: RxBurstFifo,      Received: 22   Item Number: 35 at 270 ns
%% Log    PASSED    in receiver_1: RxBurstFifo,      Received: 23   Item Number: 36 at 270 ns
%% Log    PASSED    in receiver_1: RxBurstFifo,      Received: 24   Item Number: 37 at 270 ns
%% Log    PASSED    in receiver_1: RxBurstFifo,      Received: 25   Item Number: 38 at 270 ns
%% Log    PASSED    in receiver_1: RxBurstFifo,      Received: 26   Item Number: 39 at 270 ns
%% Log    PASSED    in receiver_1: RxBurstFifo,      Received: 27   Item Number: 40 at 270 ns
%% Log    PASSED    in receiver_1: RxBurstFifo,      Received: 28   Item Number: 41 at 270 ns
%% Log    PASSED    in receiver_1: RxBurstFifo,      Received: 29   Item Number: 42 at 270 ns
%% Log    PASSED    in receiver_1: RxBurstFifo,      Received: 2A   Item Number: 43 at 270 ns
%% Log    PASSED    in receiver_1: RxBurstFifo,      Received: 2B   Item Number: 44 at 270 ns
%% Log    PASSED    in receiver_1: RxBurstFifo,      Received: 2C   Item Number: 45 at 270 ns
%% Log    PASSED    in receiver_1: RxBurstFifo,      Received: 2D   Item Number: 46 at 270 ns
%% Log    PASSED    in receiver_1: RxBurstFifo,      Received: 2E   Item Number: 47 at 270 ns
%% Log    PASSED    in receiver_1: RxBurstFifo,      Received: 2F   Item Number: 48 at 270 ns
%% Log    PASSED    in receiver_1: RxBurstFifo,      Received: 30   Item Number: 49 at 270 ns
%% Log    PASSED    in receiver_1: RxBurstFifo,      Received: 31   Item Number: 50 at 270 ns
%% Log    PASSED    in receiver_1: RxBurstFifo,      Received: 32   Item Number: 51 at 270 ns
%% Log    PASSED    in receiver_1: RxBurstFifo,      Received: 33   Item Number: 52 at 270 ns
%% Log    PASSED    in receiver_1: RxBurstFifo,      Received: 34   Item Number: 53 at 270 ns
%% Log    PASSED    in receiver_1: RxBurstFifo,      Received: 35   Item Number: 54 at 270 ns
%% Log    PASSED    in receiver_1: RxBurstFifo,      Received: 36   Item Number: 55 at 270 ns
%% Log    PASSED    in receiver_1: RxBurstFifo,      Received: 37   Item Number: 56 at 270 ns
%% Log    PASSED    in receiver_1: RxBurstFifo,      Received: 38   Item Number: 57 at 270 ns
%% Log    PASSED    in receiver_1: RxBurstFifo,      Received: 39   Item Number: 58 at 270 ns
%% Log    PASSED    in receiver_1: RxBurstFifo,      Received: 3A   Item Number: 59 at 270 ns
%% Log    PASSED    in receiver_1: RxBurstFifo,      Received: 3B   Item Number: 60 at 270 ns
%% Log    PASSED    in receiver_1: RxBurstFifo,      Received: 3C   Item Number: 61 at 270 ns
%% Log    PASSED    in receiver_1: RxBurstFifo,      Received: 3D   Item Number: 62 at 270 ns
%% Log    PASSED    in receiver_1: RxBurstFifo,      Received: 3E   Item Number: 63 at 270 ns
%% Log    PASSED    in receiver_1: RxBurstFifo,      Received: 3F   Item Number: 64 at 270 ns
%% Log    INFO      in transmitter_1,   Axi Stream Send.  TData: 47464544  TStrb: 1111  TKeep: 1111  TID: 03  TDest: 6  TUser: 5  TLast: 0  Operation# 18 at 280 ns
%% Log    INFO      in transmitter_1,   Axi Stream Send.  TData: 4B4A4948  TStrb: 1111  TKeep: 1111  TID: 03  TDest: 6  TUser: 5  TLast: 0  Operation# 19 at 290 ns
%% Log    INFO      in transmitter_1,   Axi Stream Send.  TData: 4F4E4D4C  TStrb: 1111  TKeep: 1111  TID: 03  TDest: 6  TUser: 5  TLast: 0  Operation# 20 at 300 ns
%% Log    INFO      in transmitter_1,   Axi Stream Send.  TData: 53525150  TStrb: 1111  TKeep: 1111  TID: 03  TDest: 6  TUser: 5  TLast: 0  Operation# 21 at 310 ns
%% Log    INFO      in transmitter_1,   Axi Stream Send.  TData: 57565554  TStrb: 1111  TKeep: 1111  TID: 03  TDest: 6  TUser: 5  TLast: 0  Operation# 22 at 320 ns
%% Log    INFO      in transmitter_1,   Axi Stream Send.  TData: 5B5A5958  TStrb: 1111  TKeep: 1111  TID: 03  TDest: 6  TUser: 5  TLast: 0  Operation# 23 at 330 ns
%% Log    INFO      in transmitter_1,   Axi Stream Send.  TData: 5F5E5D5C  TStrb: 1111  TKeep: 1111  TID: 03  TDest: 6  TUser: 5  TLast: 1  Operation# 24 at 340 ns
%% Log    INFO      in transmitter_1,   Axi Stream Send.  TData: 63626160  TStrb: 1111  TKeep: 1111  TID: 07  TDest: 6  TUser: 5  TLast: 0  Operation# 25 at 350 ns
%% Log    INFO      in receiver_1,   Burst Receive.  Operation# 3  Last Data: 5F5E5D5C  TID: 03  TDest: 6  TUser: 5  TLast: 1 at 350 ns
%% Log    PASSED    in Default,   TryCount 8 at 350 ns
%% Log    PASSED    in Default,   Param ID & Dest & User  Received : 006CB at 350 ns
%% Log    PASSED    in Default,   NumBytes  Received : 32 at 350 ns
%% Log    PASSED    in receiver_1: RxBurstFifo,      Received: 40   Item Number: 65 at 350 ns
%% Log    PASSED    in receiver_1: RxBurstFifo,      Received: 41   Item Number: 66 at 350 ns
%% Log    PASSED    in receiver_1: RxBurstFifo,      Received: 42   Item Number: 67 at 350 ns
%% Log    PASSED    in receiver_1: RxBurstFifo,      Received: 43   Item Number: 68 at 350 ns
%% Log    PASSED    in receiver_1: RxBurstFifo,      Received: 44   Item Number: 69 at 350 ns
%% Log    PASSED    in receiver_1: RxBurstFifo,      Received: 45   Item Number: 70 at 350 ns
%% Log    PASSED    in receiver_1: RxBurstFifo,      Received: 46   Item Number: 71 at 350 ns
%% Log    PASSED    in receiver_1: RxBurstFifo,      Received: 47   Item Number: 72 at 350 ns
%% Log    PASSED    in receiver_1: RxBurstFifo,      Received: 48   Item Number: 73 at 350 ns
%% Log    PASSED    in receiver_1: RxBurstFifo,      Received: 49   Item Number: 74 at 350 ns
%% Log    PASSED    in receiver_1: RxBurstFifo,      Received: 4A   Item Number: 75 at 350 ns
%% Log    PASSED    in receiver_1: RxBurstFifo,      Received: 4B   Item Number: 76 at 350 ns
%% Log    PASSED    in receiver_1: RxBurstFifo,      Received: 4C   Item Number: 77 at 350 ns
%% Log    PASSED    in receiver_1: RxBurstFifo,      Received: 4D   Item Number: 78 at 350 ns
%% Log    PASSED    in receiver_1: RxBurstFifo,      Received: 4E   Item Number: 79 at 350 ns
%% Log    PASSED    in receiver_1: RxBurstFifo,      Received: 4F   Item Number: 80 at 350 ns
%% Log    PASSED    in receiver_1: RxBurstFifo,      Received: 50   Item Number: 81 at 350 ns
%% Log    PASSED    in receiver_1: RxBurstFifo,      Received: 51   Item Number: 82 at 350 ns
%% Log    PASSED    in receiver_1: RxBurstFifo,      Received: 52   Item Number: 83 at 350 ns
%% Log    PASSED    in receiver_1: RxBurstFifo,      Received: 53   Item Number: 84 at 350 ns
%% Log    PASSED    in receiver_1: RxBurstFifo,      Received: 54   Item Number: 85 at 350 ns
%% Log    PASSED    in receiver_1: RxBurstFifo,      Received: 55   Item Number: 86 at 350 ns
%% Log    PASSED    in receiver_1: RxBurstFifo,      Received: 56   Item Number: 87 at 350 ns
%% Log    PASSED    in receiver_1: RxBurstFifo,      Received: 57   Item Number: 88 at 350 ns
%% Log    PASSED    in receiver_1: RxBurstFifo,      Received: 58   Item Number: 89 at 350 ns
%% Log    PASSED    in receiver_1: RxBurstFifo,      Received: 59   Item Number: 90 at 350 ns
%% Log    PASSED    in receiver_1: RxBurstFifo,      Received: 5A   Item Number: 91 at 350 ns
%% Log    PASSED    in receiver_1: RxBurstFifo,      Received: 5B   Item Number: 92 at 350 ns
%% Log    PASSED    in receiver_1: RxBurstFifo,      Received: 5C   Item Number: 93 at 350 ns
%% Log    PASSED    in receiver_1: RxBurstFifo,      Received: 5D   Item Number: 94 at 350 ns
%% Log    PASSED    in receiver_1: RxBurstFifo,      Received: 5E   Item Number: 95 at 350 ns
%% Log    PASSED    in receiver_1: RxBurstFifo,      Received: 5F   Item Number: 96 at 350 ns
%% Log    INFO      in transmitter_1,   Axi Stream Send.  TData: 67666564  TStrb: 1111  TKeep: 1111  TID: 07  TDest: 6  TUser: 5  TLast: 0  Operation# 26 at 360 ns
%% Log    INFO      in transmitter_1,   Axi Stream Send.  TData: 6B6A6968  TStrb: 1111  TKeep: 1111  TID: 07  TDest: 6  TUser: 5  TLast: 0  Operation# 27 at 370 ns
%% Log    INFO      in transmitter_1,   Axi Stream Send.  TData: 6F6E6D6C  TStrb: 1111  TKeep: 1111  TID: 07  TDest: 6  TUser: 5  TLast: 0  Operation# 28 at 380 ns
%% Log    INFO      in transmitter_1,   Axi Stream Send.  TData: 73727170  TStrb: 1111  TKeep: 1111  TID: 07  TDest: 6  TUser: 5  TLast: 0  Operation# 29 at 390 ns
%% Log    INFO      in transmitter_1,   Axi Stream Send.  TData: 77767574  TStrb: 1111  TKeep: 1111  TID: 07  TDest: 6  TUser: 5  TLast: 0  Operation# 30 at 400 ns
%% Log    INFO      in transmitter_1,   Axi Stream Send.  TData: 7B7A7978  TStrb: 1111  TKeep: 1111  TID: 07  TDest: 6  TUser: 5  TLast: 0  Operation# 31 at 410 ns
%% Log    INFO      in transmitter_1,   Axi Stream Send.  TData: 7F7E7D7C  TStrb: 1111  TKeep: 1111  TID: 07  TDest: 6  TUser: 5  TLast: 1  Operation# 32 at 420 ns
%% Log    INFO      in transmitter_1,   Axi Stream Send.  TData: 83828180  TStrb: 1111  TKeep: 1111  TID: 03  TDest: 2  TUser: 5  TLast: 0  Operation# 33 at 430 ns
%% Log    INFO      in receiver_1,   Burst Receive.  Operation# 4  Last Data: 7F7E7D7C  TID: 07  TDest: 6  TUser: 5  TLast: 1 at 430 ns
%% Log    PASSED    in Default,   TryCount 8 at 430 ns
%% Log    PASSED    in Default,   Param ID & Dest & User  Received : 00ECB at 430 ns
%% Log    PASSED    in Default,   NumBytes  Received : 32 at 430 ns
%% Log    PASSED    in receiver_1: RxBurstFifo,      Received: 60   Item Number: 97 at 430 ns
%% Log    PASSED    in receiver_1: RxBurstFifo,      Received: 61   Item Number: 98 at 430 ns
%% Log    PASSED    in receiver_1: RxBurstFifo,      Received: 62   Item Number: 99 at 430 ns
%% Log    PASSED    in receiver_1: RxBurstFifo,      Received: 63   Item Number: 100 at 430 ns
%% Log    PASSED    in receiver_1: RxBurstFifo,      Received: 64   Item Number: 101 at 430 ns
%% Log    PASSED    in receiver_1: RxBurstFifo,      Received: 65   Item Number: 102 at 430 ns
%% Log    PASSED    in receiver_1: RxBurstFifo,      Received: 66   Item Number: 103 at 430 ns
%% Log    PASSED    in receiver_1: RxBurstFifo,      Received: 67   Item Number: 104 at 430 ns
%% Log    PASSED    in receiver_1: RxBurstFifo,      Received: 68   Item Number: 105 at 430 ns
%% Log    PASSED    in receiver_1: RxBurstFifo,      Received: 69   Item Number: 106 at 430 ns
%% Log    PASSED    in receiver_1: RxBurstFifo,      Received: 6A   Item Number: 107 at 430 ns
%% Log    PASSED    in receiver_1: RxBurstFifo,      Received: 6B   Item Number: 108 at 430 ns
%% Log    PASSED    in receiver_1: RxBurstFifo,      Received: 6C   Item Number: 109 at 430 ns
%% Log    PASSED    in receiver_1: RxBurstFifo,      Received: 6D   Item Number: 110 at 430 ns
%% Log    PASSED    in receiver_1: RxBurstFifo,      Received: 6E   Item Number: 111 at 430 ns
%% Log    PASSED    in receiver_1: RxBurstFifo,      Received: 6F   Item Number: 112 at 430 ns
%% Log    PASSED    in receiver_1: RxBurstFifo,      Received: 70   Item Number: 113 at 430 ns
%% Log    PASSED    in receiver_1: RxBurstFifo,      Received: 71   Item Number: 114 at 430 ns
%% Log    PASSED    in receiver_1: RxBurstFifo,      Received: 72   Item Number: 115 at 430 ns
%% Log    PASSED    in receiver_1: RxBurstFifo,      Received: 73   Item Number: 116 at 430 ns
%% Log    PASSED    in receiver_1: RxBurstFifo,      Received: 74   Item Number: 117 at 430 ns
%% Log    PASSED    in receiver_1: RxBurstFifo,      Received: 75   Item Number: 118 at 430 ns
%% Log    PASSED    in receiver_1: RxBurstFifo,      Received: 76   Item Number: 119 at 430 ns
%% Log    PASSED    in receiver_1: RxBurstFifo,      Received: 77   Item Number: 120 at 430 ns
%% Log    PASSED    in receiver_1: RxBurstFifo,      Received: 78   Item Number: 121 at 430 ns
%% Log    PASSED    in receiver_1: RxBurstFifo,      Received: 79   Item Number: 122 at 430 ns
%% Log    PASSED    in receiver_1: RxBurstFifo,      Received: 7A   Item Number: 123 at 430 ns
%% Log    PASSED    in receiver_1: RxBurstFifo,      Received: 7B   Item Number: 124 at 430 ns
%% Log    PASSED    in receiver_1: RxBurstFifo,      Received: 7C   Item Number: 125 at 430 ns
%% Log    PASSED    in receiver_1: RxBurstFifo,      Received: 7D   Item Number: 126 at 430 ns
%% Log    PASSED    in receiver_1: RxBurstFifo,      Received: 7E   Item Number: 127 at 430 ns
%% Log    PASSED    in receiver_1: RxBurstFifo,      Received: 7F   Item Number: 128 at 430 ns
%% Log    INFO      in transmitter_1,   Axi Stream Send.  TData: 87868584  TStrb: 1111  TKeep: 1111  TID: 03  TDest: 2  TUser: 5  TLast: 0  Operation# 34 at 440 ns
%% Log    INFO      in transmitter_1,   Axi Stream Send.  TData: 8B8A8988  TStrb: 1111  TKeep: 1111  TID: 03  TDest: 2  TUser: 5  TLast: 0  Operation# 35 at 450 ns
%% Log    INFO      in transmitter_1,   Axi Stream Send.  TData: 8F8E8D8C  TStrb: 1111  TKeep: 1111  TID: 03  TDest: 2  TUser: 5  TLast: 0  Operation# 36 at 460 ns
%% Log    INFO      in transmitter_1,   Axi Stream Send.  TData: 93929190  TStrb: 1111  TKeep: 1111  TID: 03  TDest: 2  TUser: 5  TLast: 0  Operation# 37 at 470 ns
%% Log    INFO      in transmitter_1,   Axi Stream Send.  TData: 97969594  TStrb: 1111  TKeep: 1111  TID: 03  TDest: 2  TUser: 5  TLast: 0  Operation# 38 at 480 ns
%% Log    INFO      in transmitter_1,   Axi Stream Send.  TData: 9B9A9998  TStrb: 1111  TKeep: 1111  TID: 03  TDest: 2  TUser: 5  TLast: 0  Operation# 39 at 490 ns
%% Log    INFO      in transmitter_1,   Axi Stream Send.  TData: 9F9E9D9C  TStrb: 1111  TKeep: 1111  TID: 03  TDest: 2  TUser: 5  TLast: 1  Operation# 40 at 500 ns
%% Log    INFO      in transmitter_1,   Axi Stream Send.  TData: A3A2A1A0  TStrb: 1111  TKeep: 1111  TID: 03  TDest: 6  TUser: 1  TLast: 0  Operation# 41 at 510 ns
%% Log    INFO      in receiver_1,   Burst Receive.  Operation# 5  Last Data: 9F9E9D9C  TID: 03  TDest: 2  TUser: 5  TLast: 1 at 510 ns
%% Log    PASSED    in Default,   TryCount 8 at 510 ns
%% Log    PASSED    in Default,   Param ID & Dest & User  Received : 0064B at 510 ns
%% Log    PASSED    in Default,   NumBytes  Received : 32 at 510 ns
%% Log    PASSED    in receiver_1: RxBurstFifo,      Received: 80   Item Number: 129 at 510 ns
%% Log    PASSED    in receiver_1: RxBurstFifo,      Received: 81   Item Number: 130 at 510 ns
%% Log    PASSED    in receiver_1: RxBurstFifo,      Received: 82   Item Number: 131 at 510 ns
%% Log    PASSED    in receiver_1: RxBurstFifo,      Received: 83   Item Number: 132 at 510 ns
%% Log    PASSED    in receiver_1: RxBurstFifo,      Received: 84   Item Number: 133 at 510 ns
%% Log    PASSED    in receiver_1: RxBurstFifo,      Received: 85   Item Number: 134 at 510 ns
%% Log    PASSED    in receiver_1: RxBurstFifo,      Received: 86   Item Number: 135 at 510 ns
%% Log    PASSED    in receiver_1: RxBurstFifo,      Received: 87   Item Number: 136 at 510 ns
%% Log    PASSED    in receiver_1: RxBurstFifo,      Received: 88   Item Number: 137 at 510 ns
%% Log    PASSED    in receiver_1: RxBurstFifo,      Received: 89   Item Number: 138 at 510 ns
%% Log    PASSED    in receiver_1: RxBurstFifo,      Received: 8A   Item Number: 139 at 510 ns
%% Log    PASSED    in receiver_1: RxBurstFifo,      Received: 8B   Item Number: 140 at 510 ns
%% Log    PASSED    in receiver_1: RxBurstFifo,      Received: 8C   Item Number: 141 at 510 ns
%% Log    PASSED    in receiver_1: RxBurstFifo,      Received: 8D   Item Number: 142 at 510 ns
%% Log    PASSED    in receiver_1: RxBurstFifo,      Received: 8E   Item Number: 143 at 510 ns
%% Log    PASSED    in receiver_1: RxBurstFifo,      Received: 8F   Item Number: 144 at 510 ns
%% Log    PASSED    in receiver_1: RxBurstFifo,      Received: 90   Item Number: 145 at 510 ns
%% Log    PASSED    in receiver_1: RxBurstFifo,      Received: 91   Item Number: 146 at 510 ns
%% Log    PASSED    in receiver_1: RxBurstFifo,      Received: 92   Item Number: 147 at 510 ns
%% Log    PASSED    in receiver_1: RxBurstFifo,      Received: 93   Item Number: 148 at 510 ns
%% Log    PASSED    in receiver_1: RxBurstFifo,      Received: 94   Item Number: 149 at 510 ns
%% Log    PASSED    in receiver_1: RxBurstFifo,      Received: 95   Item Number: 150 at 510 ns
%% Log    PASSED    in receiver_1: RxBurstFifo,      Received: 96   Item Number: 151 at 510 ns
%% Log    PASSED    in receiver_1: RxBurstFifo,      Received: 97   Item Number: 152 at 510 ns
%% Log    PASSED    in receiver_1: RxBurstFifo,      Received: 98   Item Number: 153 at 510 ns
%% Log    PASSED    in receiver_1: RxBurstFifo,      Received: 99   Item Number: 154 at 510 ns
%% Log    PASSED    in receiver_1: RxBurstFifo,      Received: 9A   Item Number: 155 at 510 ns
%% Log    PASSED    in receiver_1: RxBurstFifo,      Received: 9B   Item Number: 156 at 510 ns
%% Log    PASSED    in receiver_1: RxBurstFifo,      Received: 9C   Item Number: 157 at 510 ns
%% Log    PASSED    in receiver_1: RxBurstFifo,      Received: 9D   Item Number: 158 at 510 ns
%% Log    PASSED    in receiver_1: RxBurstFifo,      Received: 9E   Item Number: 159 at 510 ns
%% Log    PASSED    in receiver_1: RxBurstFifo,      Received: 9F   Item Number: 160 at 510 ns
%% Log    INFO      in transmitter_1,   Axi Stream Send.  TData: A7A6A5A4  TStrb: 1111  TKeep: 1111  TID: 03  TDest: 6  TUser: 1  TLast: 0  Operation# 42 at 520 ns
%% Log    INFO      in transmitter_1,   Axi Stream Send.  TData: ABAAA9A8  TStrb: 1111  TKeep: 1111  TID: 03  TDest: 6  TUser: 1  TLast: 0  Operation# 43 at 530 ns
%% Log    INFO      in transmitter_1,   Axi Stream Send.  TData: AFAEADAC  TStrb: 1111  TKeep: 1111  TID: 03  TDest: 6  TUser: 1  TLast: 0  Operation# 44 at 540 ns
%% Log    INFO      in transmitter_1,   Axi Stream Send.  TData: B3B2B1B0  TStrb: 1111  TKeep: 1111  TID: 03  TDest: 6  TUser: 1  TLast: 0  Operation# 45 at 550 ns
%% Log    INFO      in transmitter_1,   Axi Stream Send.  TData: B7B6B5B4  TStrb: 1111  TKeep: 1111  TID: 03  TDest: 6  TUser: 1  TLast: 0  Operation# 46 at 560 ns
%% Log    INFO      in transmitter_1,   Axi Stream Send.  TData: BBBAB9B8  TStrb: 1111  TKeep: 1111  TID: 03  TDest: 6  TUser: 1  TLast: 0  Operation# 47 at 570 ns
%% Log    INFO      in transmitter_1,   Axi Stream Send.  TData: BFBEBDBC  TStrb: 1111  TKeep: 1111  TID: 03  TDest: 6  TUser: 1  TLast: 1  Operation# 48 at 580 ns
%% Log    INFO      in transmitter_1,   Axi Stream Send.  TData: C3C2C1C0  TStrb: 1111  TKeep: 1111  TID: 07  TDest: 2  TUser: 1  TLast: 0  Operation# 49 at 590 ns
%% Log    INFO      in receiver_1,   Burst Receive.  Operation# 6  Last Data: BFBEBDBC  TID: 03  TDest: 6  TUser: 1  TLast: 1 at 590 ns
%% Log    PASSED    in Default,   TryCount 8 at 590 ns
%% Log    PASSED    in Default,   Param ID & Dest & User  Received : 006C3 at 590 ns
%% Log    PASSED    in Default,   NumBytes  Received : 32 at 590 ns
%% Log    PASSED    in receiver_1: RxBurstFifo,      Received: A0   Item Number: 161 at 590 ns
%% Log    PASSED    in receiver_1: RxBurstFifo,      Received: A1   Item Number: 162 at 590 ns
%% Log    PASSED    in receiver_1: RxBurstFifo,      Received: A2   Item Number: 163 at 590 ns
%% Log    PASSED    in receiver_1: RxBurstFifo,      Received: A3   Item Number: 164 at 590 ns
%% Log    PASSED    in receiver_1: RxBurstFifo,      Received: A4   Item Number: 165 at 590 ns
%% Log    PASSED    in receiver_1: RxBurstFifo,      Received: A5   Item Number: 166 at 590 ns
%% Log    PASSED    in receiver_1: RxBurstFifo,      Received: A6   Item Number: 167 at 590 ns
%% Log    PASSED    in receiver_1: RxBurstFifo,      Received: A7   Item Number: 168 at 590 ns
%% Log    PASSED    in receiver_1: RxBurstFifo,      Received: A8   Item Number: 169 at 590 ns
%% Log    PASSED    in receiver_1: RxBurstFifo,      Received: A9   Item Number: 170 at 590 ns
%% Log    PASSED    in receiver_1: RxBurstFifo,      Received: AA   Item Number: 171 at 590 ns
%% Log    PASSED    in receiver_1: RxBurstFifo,      Received: AB   Item Number: 172 at 590 ns
%% Log    PASSED    in receiver_1: RxBurstFifo,      Received: AC   Item Number: 173 at 590 ns
%% Log    PASSED    in receiver_1: RxBurstFifo,      Received: AD   Item Number: 174 at 590 ns
%% Log    PASSED    in receiver_1: RxBurstFifo,      Received: AE   Item Number: 175 at 590 ns
%% Log    PASSED    in receiver_1: RxBurstFifo,      Received: AF   Item Number: 176 at 590 ns
%% Log    PASSED    in receiver_1: RxBurstFifo,      Received: B0   Item Number: 177 at 590 ns
%% Log    PASSED    in receiver_1: RxBurstFifo,      Received: B1   Item Number: 178 at 590 ns
%% Log    PASSED    in receiver_1: RxBurstFifo,      Received: B2   Item Number: 179 at 590 ns
%% Log    PASSED    in receiver_1: RxBurstFifo,      Received: B3   Item Number: 180 at 590 ns
%% Log    PASSED    in receiver_1: RxBurstFifo,      Received: B4   Item Number: 181 at 590 ns
%% Log    PASSED    in receiver_1: RxBurstFifo,      Received: B5   Item Number: 182 at 590 ns
%% Log    PASSED    in receiver_1: RxBurstFifo,      Received: B6   Item Number: 183 at 590 ns
%% Log    PASSED    in receiver_1: RxBurstFifo,      Received: B7   Item Number: 184 at 590 ns
%% Log    PASSED    in receiver_1: RxBurstFifo,      Received: B8   Item Number: 185 at 590 ns
%% Log    PASSED    in receiver_1: RxBurstFifo,      Received: B9   Item Number: 186 at 590 ns
%% Log    PASSED    in receiver_1: RxBurstFifo,      Received: BA   Item Number: 187 at 590 ns
%% Log    PASSED    in receiver_1: RxBurstFifo,      Received: BB   Item Number: 188 at 590 ns
%% Log    PASSED    in receiver_1: RxBurstFifo,      Received: BC   Item Number: 189 at 590 ns
%% Log    PASSED    in receiver_1: RxBurstFifo,      Received: BD   Item Number: 190 at 590 ns
%% Log    PASSED    in receiver_1: RxBurstFifo,      Received: BE   Item Number: 191 at 590 ns
%% Log    PASSED    in receiver_1: RxBurstFifo,      Received: BF   Item Number: 192 at 590 ns
%% Log    INFO      in transmitter_1,   Axi Stream Send.  TData: C7C6C5C4  TStrb: 1111  TKeep: 1111  TID: 07  TDest: 2  TUser: 1  TLast: 0  Operation# 50 at 600 ns
%% Log    INFO      in transmitter_1,   Axi Stream Send.  TData: CBCAC9C8  TStrb: 1111  TKeep: 1111  TID: 07  TDest: 2  TUser: 1  TLast: 0  Operation# 51 at 610 ns
%% Log    INFO      in transmitter_1,   Axi Stream Send.  TData: CFCECDCC  TStrb: 1111  TKeep: 1111  TID: 07  TDest: 2  TUser: 1  TLast: 0  Operation# 52 at 620 ns
%% Log    INFO      in transmitter_1,   Axi Stream Send.  TData: D3D2D1D0  TStrb: 1111  TKeep: 1111  TID: 07  TDest: 2  TUser: 1  TLast: 0  Operation# 53 at 630 ns
%% Log    INFO      in transmitter_1,   Axi Stream Send.  TData: D7D6D5D4  TStrb: 1111  TKeep: 1111  TID: 07  TDest: 2  TUser: 1  TLast: 0  Operation# 54 at 640 ns
%% Log    INFO      in transmitter_1,   Axi Stream Send.  TData: DBDAD9D8  TStrb: 1111  TKeep: 1111  TID: 07  TDest: 2  TUser: 1  TLast: 0  Operation# 55 at 650 ns
%% Log    INFO      in transmitter_1,   Axi Stream Send.  TData: DFDEDDDC  TStrb: 1111  TKeep: 1111  TID: 07  TDest: 2  TUser: 1  TLast: 1  Operation# 56 at 660 ns
%% Log    INFO      in receiver_1,   Burst Receive.  Operation# 7  Last Data: DFDEDDDC  TID: 07  TDest: 2  TUser: 1  TLast: 1 at 670 ns
%% Log    PASSED    in Default,   TryCount 8 at 670 ns
%% Log    PASSED    in Default,   Param ID & Dest & User  Received : 00E43 at 670 ns
%% Log    PASSED    in Default,   NumBytes  Received : 32 at 670 ns
%% Log    PASSED    in receiver_1: RxBurstFifo,      Received: C0   Item Number: 193 at 670 ns
%% Log    PASSED    in receiver_1: RxBurstFifo,      Received: C1   Item Number: 194 at 670 ns
%% Log    PASSED    in receiver_1: RxBurstFifo,      Received: C2   Item Number: 195 at 670 ns
%% Log    PASSED    in receiver_1: RxBurstFifo,      Received: C3   Item Number: 196 at 670 ns
%% Log    PASSED    in receiver_1: RxBurstFifo,      Received: C4   Item Number: 197 at 670 ns
%% Log    PASSED    in receiver_1: RxBurstFifo,      Received: C5   Item Number: 198 at 670 ns
%% Log    PASSED    in receiver_1: RxBurstFifo,      Received: C6   Item Number: 199 at 670 ns
%% Log    PASSED    in receiver_1: RxBurstFifo,      Received: C7   Item Number: 200 at 670 ns
%% Log    PASSED    in receiver_1: RxBurstFifo,      Received: C8   Item Number: 201 at 670 ns
%% Log    PASSED    in receiver_1: RxBurstFifo,      Received: C9   Item Number: 202 at 670 ns
%% Log    PASSED    in receiver_1: RxBurstFifo,      Received: CA   Item Number: 203 at 670 ns
%% Log    PASSED    in receiver_1: RxBurstFifo,      Received: CB   Item Number: 204 at 670 ns
%% Log    PASSED    in receiver_1: RxBurstFifo,      Received: CC   Item Number: 205 at 670 ns
%% Log    PASSED    in receiver_1: RxBurstFifo,      Received: CD   Item Number: 206 at 670 ns
%% Log    PASSED    in receiver_1: RxBurstFifo,      Received: CE   Item Number: 207 at 670 ns
%% Log    PASSED    in receiver_1: RxBurstFifo,      Received: CF   Item Number: 208 at 670 ns
%% Log    PASSED    in receiver_1: RxBurstFifo,      Received: D0   Item Number: 209 at 670 ns
%% Log    PASSED    in receiver_1: RxBurstFifo,      Received: D1   Item Number: 210 at 670 ns
%% Log    PASSED    in receiver_1: RxBurstFifo,      Received: D2   Item Number: 211 at 670 ns
%% Log    PASSED    in receiver_1: RxBurstFifo,      Received: D3   Item Number: 212 at 670 ns
%% Log    PASSED    in receiver_1: RxBurstFifo,      Received: D4   Item Number: 213 at 670 ns
%% Log    PASSED    in receiver_1: RxBurstFifo,      Received: D5   Item Number: 214 at 670 ns
%% Log    PASSED    in receiver_1: RxBurstFifo,      Received: D6   Item Number: 215 at 670 ns
%% Log    PASSED    in receiver_1: RxBurstFifo,      Received: D7   Item Number: 216 at 670 ns
%% Log    PASSED    in receiver_1: RxBurstFifo,      Received: D8   Item Number: 217 at 670 ns
%% Log    PASSED    in receiver_1: RxBurstFifo,      Received: D9   Item Number: 218 at 670 ns
%% Log    PASSED    in receiver_1: RxBurstFifo,      Received: DA   Item Number: 219 at 670 ns
%% Log    PASSED    in receiver_1: RxBurstFifo,      Received: DB   Item Number: 220 at 670 ns
%% Log    PASSED    in receiver_1: RxBurstFifo,      Received: DC   Item Number: 221 at 670 ns
%% Log    PASSED    in receiver_1: RxBurstFifo,      Received: DD   Item Number: 222 at 670 ns
%% Log    PASSED    in receiver_1: RxBurstFifo,      Received: DE   Item Number: 223 at 670 ns
%% Log    PASSED    in receiver_1: RxBurstFifo,      Received: DF   Item Number: 224 at 670 ns
