%% Log    INFO      in transmitter_1,   Axi Stream Send.  TData: 00000000  TStrb: 1111  TKeep: 1111  TID: 03  TDest: 2  TUser: 0  TLast: 0  Operation# 1 at 110 ns
%% Log    INFO      in transmitter_1,   Axi Stream Send.  TData: 00000001  TStrb: 1111  TKeep: 1111  TID: 03  TDest: 2  TUser: 1  TLast: 0  Operation# 2 at 120 ns
%% Log    INFO      in transmitter_1,   Axi Stream Send.  TData: 00000002  TStrb: 1111  TKeep: 1111  TID: 03  TDest: 2  TUser: 2  TLast: 0  Operation# 3 at 130 ns
%% Log    INFO      in transmitter_1,   Axi Stream Send.  TData: 00000003  TStrb: 1111  TKeep: 1111  TID: 03  TDest: 2  TUser: 3  TLast: 0  Operation# 4 at 140 ns
%% Log    INFO      in transmitter_1,   Axi Stream Send.  TData: 00000004  TStrb: 1111  TKeep: 1111  TID: 03  TDest: 2  TUser: 4  TLast: 0  Operation# 5 at 150 ns
%% Log    INFO      in transmitter_1,   Axi Stream Send.  TData: 00000005  TStrb: 1111  TKeep: 1111  TID: 03  TDest: 2  TUser: 5  TLast: 0  Operation# 6 at 160 ns
%% Log    INFO      in transmitter_1,   Axi Stream Send.  TData: 00000006  TStrb: 1111  TKeep: 1111  TID: 03  TDest: 2  TUser: 6  TLast: 0  Operation# 7 at 170 ns
%% Log    INFO      in transmitter_1,   Axi Stream Send.  TData: 00000007  TStrb: 1111  TKeep: 1111  TID: 03  TDest: 2  TUser: 7  TLast: 0  Operation# 8 at 180 ns
%% Log    INFO      in transmitter_1,   Axi Stream Send.  TData: 00000008  TStrb: 1111  TKeep: 1111  TID: 03  TDest: 2  TUser: 8  TLast: 0  Operation# 9 at 190 ns
%% Log    INFO      in transmitter_1,   Axi Stream Send.  TData: 00000009  TStrb: 1111  TKeep: 1111  TID: 03  TDest: 2  TUser: 9  TLast: 0  Operation# 10 at 200 ns
%% Log    INFO      in transmitter_1,   Axi Stream Send.  TData: 0000000A  TStrb: 1111  TKeep: 1111  TID: 03  TDest: 2  TUser: A  TLast: 0  Operation# 11 at 210 ns
%% Log    INFO      in transmitter_1,   Axi Stream Send.  TData: 0000000B  TStrb: 1111  TKeep: 1111  TID: 03  TDest: 2  TUser: B  TLast: 0  Operation# 12 at 220 ns
%% Log    INFO      in transmitter_1,   Axi Stream Send.  TData: 0000000C  TStrb: 1111  TKeep: 1111  TID: 03  TDest: 2  TUser: C  TLast: 0  Operation# 13 at 230 ns
%% Log    INFO      in transmitter_1,   Axi Stream Send.  TData: 0000000D  TStrb: 1111  TKeep: 1111  TID: 03  TDest: 2  TUser: D  TLast: 0  Operation# 14 at 240 ns
%% Log    INFO      in transmitter_1,   Axi Stream Send.  TData: 0000000E  TStrb: 1111  TKeep: 1111  TID: 03  TDest: 2  TUser: E  TLast: 0  Operation# 15 at 250 ns
%% Log    INFO      in transmitter_1,   Axi Stream Send.  TData: 0000000F  TStrb: 1111  TKeep: 1111  TID: 03  TDest: 2  TUser: F  TLast: 0  Operation# 16 at 260 ns
%% Log    INFO      in transmitter_1,   Axi Stream Send.  TData: 00000010  TStrb: 1111  TKeep: 1111  TID: 03  TDest: 2  TUser: 0  TLast: 0  Operation# 17 at 270 ns
%% Log    INFO      in transmitter_1,   Axi Stream Send.  TData: 00000011  TStrb: 1111  TKeep: 1111  TID: 03  TDest: 2  TUser: 1  TLast: 0  Operation# 18 at 280 ns
%% Log    INFO      in transmitter_1,   Axi Stream Send.  TData: 00000012  TStrb: 1111  TKeep: 1111  TID: 03  TDest: 2  TUser: 2  TLast: 0  Operation# 19 at 290 ns
%% Log    INFO      in transmitter_1,   Axi Stream Send.  TData: 00000013  TStrb: 1111  TKeep: 1111  TID: 03  TDest: 2  TUser: 3  TLast: 0  Operation# 20 at 300 ns
%% Log    INFO      in transmitter_1,   Axi Stream Send.  TData: 00000014  TStrb: 1111  TKeep: 1111  TID: 03  TDest: 2  TUser: 4  TLast: 0  Operation# 21 at 310 ns
%% Log    INFO      in transmitter_1,   Axi Stream Send.  TData: 00000015  TStrb: 1111  TKeep: 1111  TID: 03  TDest: 2  TUser: 5  TLast: 0  Operation# 22 at 320 ns
%% Log    INFO      in transmitter_1,   Axi Stream Send.  TData: 00000016  TStrb: 1111  TKeep: 1111  TID: 03  TDest: 2  TUser: 6  TLast: 0  Operation# 23 at 330 ns
%% Log    INFO      in transmitter_1,   Axi Stream Send.  TData: 00000017  TStrb: 1111  TKeep: 1111  TID: 03  TDest: 2  TUser: 7  TLast: 0  Operation# 24 at 340 ns
%% Log    INFO      in transmitter_1,   Axi Stream Send.  TData: 00000018  TStrb: 1111  TKeep: 1111  TID: 03  TDest: 2  TUser: 8  TLast: 0  Operation# 25 at 350 ns
%% Log    INFO      in transmitter_1,   Axi Stream Send.  TData: 00000019  TStrb: 1111  TKeep: 1111  TID: 03  TDest: 2  TUser: 9  TLast: 0  Operation# 26 at 360 ns
%% Log    INFO      in transmitter_1,   Axi Stream Send.  TData: 0000001A  TStrb: 1111  TKeep: 1111  TID: 03  TDest: 2  TUser: A  TLast: 0  Operation# 27 at 370 ns
%% Log    INFO      in transmitter_1,   Axi Stream Send.  TData: 0000001B  TStrb: 1111  TKeep: 1111  TID: 03  TDest: 2  TUser: B  TLast: 0  Operation# 28 at 380 ns
%% Log    INFO      in transmitter_1,   Axi Stream Send.  TData: 0000001C  TStrb: 1111  TKeep: 1111  TID: 03  TDest: 2  TUser: C  TLast: 0  Operation# 29 at 390 ns
%% Log    INFO      in transmitter_1,   Axi Stream Send.  TData: 0000001D  TStrb: 1111  TKeep: 1111  TID: 03  TDest: 2  TUser: D  TLast: 0  Operation# 30 at 400 ns
%% Log    INFO      in transmitter_1,   Axi Stream Send.  TData: 0000001E  TStrb: 1111  TKeep: 1111  TID: 03  TDest: 2  TUser: E  TLast: 0  Operation# 31 at 410 ns
%% Log    INFO      in transmitter_1,   Axi Stream Send.  TData: 0000001F  TStrb: 1111  TKeep: 1111  TID: 03  TDest: 2  TUser: F  TLast: 1  Operation# 32 at 420 ns
%% Log    INFO      in transmitter_1,   Axi Stream Send.  TData: 00000020  TStrb: 1111  TKeep: 1111  TID: 03  TDest: 2  TUser: 0  TLast: 0  Operation# 33 at 430 ns
%% Log    INFO      in receiver_1,   Burst Receive.  Operation# 1  Last Data: 0000001F  TID: 03  TDest: 2  TUser: F  TLast: 1 at 430 ns
%% Log    PASSED    in Default,   TryCount 40 at 430 ns
%% Log    PASSED    in Default,   Param ID & Dest & User  Received : 0065F at 430 ns
%% Log    PASSED    in Default,   NumBytes  Received : 32 at 430 ns
%% Log    PASSED    in Default,   Data Received : 00000000 at 430 ns
%% Log    PASSED    in Default,   User Received : 0 at 430 ns
%% Log    PASSED    in Default,   Data Received : 00000001 at 430 ns
%% Log    PASSED    in Default,   User Received : 1 at 430 ns
%% Log    PASSED    in Default,   Data Received : 00000002 at 430 ns
%% Log    PASSED    in Default,   User Received : 2 at 430 ns
%% Log    PASSED    in Default,   Data Received : 00000003 at 430 ns
%% Log    PASSED    in Default,   User Received : 3 at 430 ns
%% Log    PASSED    in Default,   Data Received : 00000004 at 430 ns
%% Log    PASSED    in Default,   User Received : 4 at 430 ns
%% Log    PASSED    in Default,   Data Received : 00000005 at 430 ns
%% Log    PASSED    in Default,   User Received : 5 at 430 ns
%% Log    PASSED    in Default,   Data Received : 00000006 at 430 ns
%% Log    PASSED    in Default,   User Received : 6 at 430 ns
%% Log    PASSED    in Default,   Data Received : 00000007 at 430 ns
%% Log    PASSED    in Default,   User Received : 7 at 430 ns
%% Log    PASSED    in Default,   Data Received : 00000008 at 430 ns
%% Log    PASSED    in Default,   User Received : 8 at 430 ns
%% Log    PASSED    in Default,   Data Received : 00000009 at 430 ns
%% Log    PASSED    in Default,   User Received : 9 at 430 ns
%% Log    PASSED    in Default,   Data Received : 0000000A at 430 ns
%% Log    PASSED    in Default,   User Received : A at 430 ns
%% Log    PASSED    in Default,   Data Received : 0000000B at 430 ns
%% Log    PASSED    in Default,   User Received : B at 430 ns
%% Log    PASSED    in Default,   Data Received : 0000000C at 430 ns
%% Log    PASSED    in Default,   User Received : C at 430 ns
%% Log    PASSED    in Default,   Data Received : 0000000D at 430 ns
%% Log    PASSED    in Default,   User Received : D at 430 ns
%% Log    PASSED    in Default,   Data Received : 0000000E at 430 ns
%% Log    PASSED    in Default,   User Received : E at 430 ns
%% Log    PASSED    in Default,   Data Received : 0000000F at 430 ns
%% Log    PASSED    in Default,   User Received : F at 430 ns
%% Log    PASSED    in Default,   Data Received : 00000010 at 430 ns
%% Log    PASSED    in Default,   User Received : 0 at 430 ns
%% Log    PASSED    in Default,   Data Received : 00000011 at 430 ns
%% Log    PASSED    in Default,   User Received : 1 at 430 ns
%% Log    PASSED    in Default,   Data Received : 00000012 at 430 ns
%% Log    PASSED    in Default,   User Received : 2 at 430 ns
%% Log    PASSED    in Default,   Data Received : 00000013 at 430 ns
%% Log    PASSED    in Default,   User Received : 3 at 430 ns
%% Log    PASSED    in Default,   Data Received : 00000014 at 430 ns
%% Log    PASSED    in Default,   User Received : 4 at 430 ns
%% Log    PASSED    in Default,   Data Received : 00000015 at 430 ns
%% Log    PASSED    in Default,   User Received : 5 at 430 ns
%% Log    PASSED    in Default,   Data Received : 00000016 at 430 ns
%% Log    PASSED    in Default,   User Received : 6 at 430 ns
%% Log    PASSED    in Default,   Data Received : 00000017 at 430 ns
%% Log    PASSED    in Default,   User Received : 7 at 430 ns
%% Log    PASSED    in Default,   Data Received : 00000018 at 430 ns
%% Log    PASSED    in Default,   User Received : 8 at 430 ns
%% Log    PASSED    in Default,   Data Received : 00000019 at 430 ns
%% Log    PASSED    in Default,   User Received : 9 at 430 ns
%% Log    PASSED    in Default,   Data Received : 0000001A at 430 ns
%% Log    PASSED    in Default,   User Received : A at 430 ns
%% Log    PASSED    in Default,   Data Received : 0000001B at 430 ns
%% Log    PASSED    in Default,   User Received : B at 430 ns
%% Log    PASSED    in Default,   Data Received : 0000001C at 430 ns
%% Log    PASSED    in Default,   User Received : C at 430 ns
%% Log    PASSED    in Default,   Data Received : 0000001D at 430 ns
%% Log    PASSED    in Default,   User Received : D at 430 ns
%% Log    PASSED    in Default,   Data Received : 0000001E at 430 ns
%% Log    PASSED    in Default,   User Received : E at 430 ns
%% Log    PASSED    in Default,   Data Received : 0000001F at 430 ns
%% Log    PASSED    in Default,   User Received : F at 430 ns
%% Log    INFO      in transmitter_1,   Axi Stream Send.  TData: 00000021  TStrb: 1111  TKeep: 1111  TID: 03  TDest: 2  TUser: 1  TLast: 0  Operation# 34 at 440 ns
%% Log    INFO      in transmitter_1,   Axi Stream Send.  TData: 00000022  TStrb: 1111  TKeep: 1111  TID: 03  TDest: 2  TUser: 2  TLast: 0  Operation# 35 at 450 ns
%% Log    INFO      in transmitter_1,   Axi Stream Send.  TData: 00000023  TStrb: 1111  TKeep: 1111  TID: 03  TDest: 2  TUser: 3  TLast: 0  Operation# 36 at 460 ns
%% Log    INFO      in transmitter_1,   Axi Stream Send.  TData: 00000024  TStrb: 1111  TKeep: 1111  TID: 03  TDest: 2  TUser: 4  TLast: 0  Operation# 37 at 470 ns
%% Log    INFO      in transmitter_1,   Axi Stream Send.  TData: 00000025  TStrb: 1111  TKeep: 1111  TID: 03  TDest: 2  TUser: 5  TLast: 0  Operation# 38 at 480 ns
%% Log    INFO      in transmitter_1,   Axi Stream Send.  TData: 00000026  TStrb: 1111  TKeep: 1111  TID: 03  TDest: 2  TUser: 6  TLast: 0  Operation# 39 at 490 ns
%% Log    INFO      in transmitter_1,   Axi Stream Send.  TData: 00000027  TStrb: 1111  TKeep: 1111  TID: 03  TDest: 2  TUser: 7  TLast: 0  Operation# 40 at 500 ns
%% Log    INFO      in transmitter_1,   Axi Stream Send.  TData: 00000028  TStrb: 1111  TKeep: 1111  TID: 03  TDest: 2  TUser: 8  TLast: 0  Operation# 41 at 510 ns
%% Log    INFO      in transmitter_1,   Axi Stream Send.  TData: 00000029  TStrb: 1111  TKeep: 1111  TID: 03  TDest: 2  TUser: 9  TLast: 0  Operation# 42 at 520 ns
%% Log    INFO      in transmitter_1,   Axi Stream Send.  TData: 0000002A  TStrb: 1111  TKeep: 1111  TID: 03  TDest: 2  TUser: A  TLast: 0  Operation# 43 at 530 ns
%% Log    INFO      in transmitter_1,   Axi Stream Send.  TData: 0000002B  TStrb: 1111  TKeep: 1111  TID: 03  TDest: 2  TUser: B  TLast: 0  Operation# 44 at 540 ns
%% Log    INFO      in transmitter_1,   Axi Stream Send.  TData: 0000002C  TStrb: 1111  TKeep: 1111  TID: 03  TDest: 2  TUser: C  TLast: 0  Operation# 45 at 550 ns
%% Log    INFO      in transmitter_1,   Axi Stream Send.  TData: 0000002D  TStrb: 1111  TKeep: 1111  TID: 03  TDest: 2  TUser: D  TLast: 0  Operation# 46 at 560 ns
%% Log    INFO      in transmitter_1,   Axi Stream Send.  TData: 0000002E  TStrb: 1111  TKeep: 1111  TID: 03  TDest: 2  TUser: E  TLast: 0  Operation# 47 at 570 ns
%% Log    INFO      in transmitter_1,   Axi Stream Send.  TData: 0000002F  TStrb: 1111  TKeep: 1111  TID: 03  TDest: 2  TUser: F  TLast: 0  Operation# 48 at 580 ns
%% Log    INFO      in transmitter_1,   Axi Stream Send.  TData: 00000030  TStrb: 1111  TKeep: 1111  TID: 03  TDest: 2  TUser: 0  TLast: 0  Operation# 49 at 590 ns
%% Log    INFO      in transmitter_1,   Axi Stream Send.  TData: 00000031  TStrb: 1111  TKeep: 1111  TID: 03  TDest: 2  TUser: 1  TLast: 0  Operation# 50 at 600 ns
%% Log    INFO      in transmitter_1,   Axi Stream Send.  TData: 00000032  TStrb: 1111  TKeep: 1111  TID: 03  TDest: 2  TUser: 2  TLast: 0  Operation# 51 at 610 ns
%% Log    INFO      in transmitter_1,   Axi Stream Send.  TData: 00000033  TStrb: 1111  TKeep: 1111  TID: 03  TDest: 2  TUser: 3  TLast: 0  Operation# 52 at 620 ns
%% Log    INFO      in transmitter_1,   Axi Stream Send.  TData: 00000034  TStrb: 1111  TKeep: 1111  TID: 03  TDest: 2  TUser: 4  TLast: 0  Operation# 53 at 630 ns
%% Log    INFO      in transmitter_1,   Axi Stream Send.  TData: 00000035  TStrb: 1111  TKeep: 1111  TID: 03  TDest: 2  TUser: 5  TLast: 0  Operation# 54 at 640 ns
%% Log    INFO      in transmitter_1,   Axi Stream Send.  TData: 00000036  TStrb: 1111  TKeep: 1111  TID: 03  TDest: 2  TUser: 6  TLast: 0  Operation# 55 at 650 ns
%% Log    INFO      in transmitter_1,   Axi Stream Send.  TData: 00000037  TStrb: 1111  TKeep: 1111  TID: 03  TDest: 2  TUser: 7  TLast: 0  Operation# 56 at 660 ns
%% Log    INFO      in transmitter_1,   Axi Stream Send.  TData: 00000038  TStrb: 1111  TKeep: 1111  TID: 03  TDest: 2  TUser: 8  TLast: 0  Operation# 57 at 670 ns
%% Log    INFO      in transmitter_1,   Axi Stream Send.  TData: 00000039  TStrb: 1111  TKeep: 1111  TID: 03  TDest: 2  TUser: 9  TLast: 0  Operation# 58 at 680 ns
%% Log    INFO      in transmitter_1,   Axi Stream Send.  TData: 0000003A  TStrb: 1111  TKeep: 1111  TID: 03  TDest: 2  TUser: A  TLast: 0  Operation# 59 at 690 ns
%% Log    INFO      in transmitter_1,   Axi Stream Send.  TData: 0000003B  TStrb: 1111  TKeep: 1111  TID: 03  TDest: 2  TUser: B  TLast: 0  Operation# 60 at 700 ns
%% Log    INFO      in transmitter_1,   Axi Stream Send.  TData: 0000003C  TStrb: 1111  TKeep: 1111  TID: 03  TDest: 2  TUser: C  TLast: 0  Operation# 61 at 710 ns
%% Log    INFO      in transmitter_1,   Axi Stream Send.  TData: 0000003D  TStrb: 1111  TKeep: 1111  TID: 03  TDest: 2  TUser: D  TLast: 0  Operation# 62 at 720 ns
%% Log    INFO      in transmitter_1,   Axi Stream Send.  TData: 0000003E  TStrb: 1111  TKeep: 1111  TID: 03  TDest: 2  TUser: E  TLast: 0  Operation# 63 at 730 ns
%% Log    INFO      in transmitter_1,   Axi Stream Send.  TData: 0000003F  TStrb: 1111  TKeep: 1111  TID: 03  TDest: 2  TUser: F  TLast: 1  Operation# 64 at 740 ns
%% Log    INFO      in transmitter_1,   Axi Stream Send.  TData: 00000040  TStrb: 1111  TKeep: 1111  TID: 03  TDest: 6  TUser: 0  TLast: 0  Operation# 65 at 750 ns
%% Log    INFO      in receiver_1,   Burst Receive.  Operation# 2  Last Data: 0000003F  TID: 03  TDest: 2  TUser: F  TLast: 1 at 750 ns
%% Log    PASSED    in Default,   TryCount 32 at 750 ns
%% Log    PASSED    in Default,   Param ID & Dest & User  Received : 0065F at 750 ns
%% Log    PASSED    in Default,   NumBytes  Received : 32 at 750 ns
%% Log    PASSED    in Default,   Data Received : 00000020 at 750 ns
%% Log    PASSED    in Default,   User Received : 0 at 750 ns
%% Log    PASSED    in Default,   Data Received : 00000021 at 750 ns
%% Log    PASSED    in Default,   User Received : 1 at 750 ns
%% Log    PASSED    in Default,   Data Received : 00000022 at 750 ns
%% Log    PASSED    in Default,   User Received : 2 at 750 ns
%% Log    PASSED    in Default,   Data Received : 00000023 at 750 ns
%% Log    PASSED    in Default,   User Received : 3 at 750 ns
%% Log    PASSED    in Default,   Data Received : 00000024 at 750 ns
%% Log    PASSED    in Default,   User Received : 4 at 750 ns
%% Log    PASSED    in Default,   Data Received : 00000025 at 750 ns
%% Log    PASSED    in Default,   User Received : 5 at 750 ns
%% Log    PASSED    in Default,   Data Received : 00000026 at 750 ns
%% Log    PASSED    in Default,   User Received : 6 at 750 ns
%% Log    PASSED    in Default,   Data Received : 00000027 at 750 ns
%% Log    PASSED    in Default,   User Received : 7 at 750 ns
%% Log    PASSED    in Default,   Data Received : 00000028 at 750 ns
%% Log    PASSED    in Default,   User Received : 8 at 750 ns
%% Log    PASSED    in Default,   Data Received : 00000029 at 750 ns
%% Log    PASSED    in Default,   User Received : 9 at 750 ns
%% Log    PASSED    in Default,   Data Received : 0000002A at 750 ns
%% Log    PASSED    in Default,   User Received : A at 750 ns
%% Log    PASSED    in Default,   Data Received : 0000002B at 750 ns
%% Log    PASSED    in Default,   User Received : B at 750 ns
%% Log    PASSED    in Default,   Data Received : 0000002C at 750 ns
%% Log    PASSED    in Default,   User Received : C at 750 ns
%% Log    PASSED    in Default,   Data Received : 0000002D at 750 ns
%% Log    PASSED    in Default,   User Received : D at 750 ns
%% Log    PASSED    in Default,   Data Received : 0000002E at 750 ns
%% Log    PASSED    in Default,   User Received : E at 750 ns
%% Log    PASSED    in Default,   Data Received : 0000002F at 750 ns
%% Log    PASSED    in Default,   User Received : F at 750 ns
%% Log    PASSED    in Default,   Data Received : 00000030 at 750 ns
%% Log    PASSED    in Default,   User Received : 0 at 750 ns
%% Log    PASSED    in Default,   Data Received : 00000031 at 750 ns
%% Log    PASSED    in Default,   User Received : 1 at 750 ns
%% Log    PASSED    in Default,   Data Received : 00000032 at 750 ns
%% Log    PASSED    in Default,   User Received : 2 at 750 ns
%% Log    PASSED    in Default,   Data Received : 00000033 at 750 ns
%% Log    PASSED    in Default,   User Received : 3 at 750 ns
%% Log    PASSED    in Default,   Data Received : 00000034 at 750 ns
%% Log    PASSED    in Default,   User Received : 4 at 750 ns
%% Log    PASSED    in Default,   Data Received : 00000035 at 750 ns
%% Log    PASSED    in Default,   User Received : 5 at 750 ns
%% Log    PASSED    in Default,   Data Received : 00000036 at 750 ns
%% Log    PASSED    in Default,   User Received : 6 at 750 ns
%% Log    PASSED    in Default,   Data Received : 00000037 at 750 ns
%% Log    PASSED    in Default,   User Received : 7 at 750 ns
%% Log    PASSED    in Default,   Data Received : 00000038 at 750 ns
%% Log    PASSED    in Default,   User Received : 8 at 750 ns
%% Log    PASSED    in Default,   Data Received : 00000039 at 750 ns
%% Log    PASSED    in Default,   User Received : 9 at 750 ns
%% Log    PASSED    in Default,   Data Received : 0000003A at 750 ns
%% Log    PASSED    in Default,   User Received : A at 750 ns
%% Log    PASSED    in Default,   Data Received : 0000003B at 750 ns
%% Log    PASSED    in Default,   User Received : B at 750 ns
%% Log    PASSED    in Default,   Data Received : 0000003C at 750 ns
%% Log    PASSED    in Default,   User Received : C at 750 ns
%% Log    PASSED    in Default,   Data Received : 0000003D at 750 ns
%% Log    PASSED    in Default,   User Received : D at 750 ns
%% Log    PASSED    in Default,   Data Received : 0000003E at 750 ns
%% Log    PASSED    in Default,   User Received : E at 750 ns
%% Log    PASSED    in Default,   Data Received : 0000003F at 750 ns
%% Log    PASSED    in Default,   User Received : F at 750 ns
%% Log    INFO      in transmitter_1,   Axi Stream Send.  TData: 00000041  TStrb: 1111  TKeep: 1111  TID: 03  TDest: 6  TUser: 1  TLast: 0  Operation# 66 at 760 ns
%% Log    INFO      in transmitter_1,   Axi Stream Send.  TData: 00000042  TStrb: 1111  TKeep: 1111  TID: 03  TDest: 6  TUser: 2  TLast: 0  Operation# 67 at 770 ns
%% Log    INFO      in transmitter_1,   Axi Stream Send.  TData: 00000043  TStrb: 1111  TKeep: 1111  TID: 03  TDest: 6  TUser: 3  TLast: 0  Operation# 68 at 780 ns
%% Log    INFO      in transmitter_1,   Axi Stream Send.  TData: 00000044  TStrb: 1111  TKeep: 1111  TID: 03  TDest: 6  TUser: 4  TLast: 0  Operation# 69 at 790 ns
%% Log    INFO      in transmitter_1,   Axi Stream Send.  TData: 00000045  TStrb: 1111  TKeep: 1111  TID: 03  TDest: 6  TUser: 5  TLast: 0  Operation# 70 at 800 ns
%% Log    INFO      in transmitter_1,   Axi Stream Send.  TData: 00000046  TStrb: 1111  TKeep: 1111  TID: 03  TDest: 6  TUser: 6  TLast: 0  Operation# 71 at 810 ns
%% Log    INFO      in transmitter_1,   Axi Stream Send.  TData: 00000047  TStrb: 1111  TKeep: 1111  TID: 03  TDest: 6  TUser: 7  TLast: 0  Operation# 72 at 820 ns
%% Log    INFO      in transmitter_1,   Axi Stream Send.  TData: 00000048  TStrb: 1111  TKeep: 1111  TID: 03  TDest: 6  TUser: 8  TLast: 0  Operation# 73 at 830 ns
%% Log    INFO      in transmitter_1,   Axi Stream Send.  TData: 00000049  TStrb: 1111  TKeep: 1111  TID: 03  TDest: 6  TUser: 9  TLast: 0  Operation# 74 at 840 ns
%% Log    INFO      in transmitter_1,   Axi Stream Send.  TData: 0000004A  TStrb: 1111  TKeep: 1111  TID: 03  TDest: 6  TUser: A  TLast: 0  Operation# 75 at 850 ns
%% Log    INFO      in transmitter_1,   Axi Stream Send.  TData: 0000004B  TStrb: 1111  TKeep: 1111  TID: 03  TDest: 6  TUser: B  TLast: 0  Operation# 76 at 860 ns
%% Log    INFO      in transmitter_1,   Axi Stream Send.  TData: 0000004C  TStrb: 1111  TKeep: 1111  TID: 03  TDest: 6  TUser: C  TLast: 0  Operation# 77 at 870 ns
%% Log    INFO      in transmitter_1,   Axi Stream Send.  TData: 0000004D  TStrb: 1111  TKeep: 1111  TID: 03  TDest: 6  TUser: D  TLast: 0  Operation# 78 at 880 ns
%% Log    INFO      in transmitter_1,   Axi Stream Send.  TData: 0000004E  TStrb: 1111  TKeep: 1111  TID: 03  TDest: 6  TUser: E  TLast: 0  Operation# 79 at 890 ns
%% Log    INFO      in transmitter_1,   Axi Stream Send.  TData: 0000004F  TStrb: 1111  TKeep: 1111  TID: 03  TDest: 6  TUser: F  TLast: 0  Operation# 80 at 900 ns
%% Log    INFO      in transmitter_1,   Axi Stream Send.  TData: 00000050  TStrb: 1111  TKeep: 1111  TID: 03  TDest: 6  TUser: 0  TLast: 0  Operation# 81 at 910 ns
%% Log    INFO      in transmitter_1,   Axi Stream Send.  TData: 00000051  TStrb: 1111  TKeep: 1111  TID: 03  TDest: 6  TUser: 1  TLast: 0  Operation# 82 at 920 ns
%% Log    INFO      in transmitter_1,   Axi Stream Send.  TData: 00000052  TStrb: 1111  TKeep: 1111  TID: 03  TDest: 6  TUser: 2  TLast: 0  Operation# 83 at 930 ns
%% Log    INFO      in transmitter_1,   Axi Stream Send.  TData: 00000053  TStrb: 1111  TKeep: 1111  TID: 03  TDest: 6  TUser: 3  TLast: 0  Operation# 84 at 940 ns
%% Log    INFO      in transmitter_1,   Axi Stream Send.  TData: 00000054  TStrb: 1111  TKeep: 1111  TID: 03  TDest: 6  TUser: 4  TLast: 0  Operation# 85 at 950 ns
%% Log    INFO      in transmitter_1,   Axi Stream Send.  TData: 00000055  TStrb: 1111  TKeep: 1111  TID: 03  TDest: 6  TUser: 5  TLast: 0  Operation# 86 at 960 ns
%% Log    INFO      in transmitter_1,   Axi Stream Send.  TData: 00000056  TStrb: 1111  TKeep: 1111  TID: 03  TDest: 6  TUser: 6  TLast: 0  Operation# 87 at 970 ns
%% Log    INFO      in transmitter_1,   Axi Stream Send.  TData: 00000057  TStrb: 1111  TKeep: 1111  TID: 03  TDest: 6  TUser: 7  TLast: 0  Operation# 88 at 980 ns
%% Log    INFO      in transmitter_1,   Axi Stream Send.  TData: 00000058  TStrb: 1111  TKeep: 1111  TID: 03  TDest: 6  TUser: 8  TLast: 0  Operation# 89 at 990 ns
%% Log    INFO      in transmitter_1,   Axi Stream Send.  TData: 00000059  TStrb: 1111  TKeep: 1111  TID: 03  TDest: 6  TUser: 9  TLast: 0  Operation# 90 at 1000 ns
%% Log    INFO      in transmitter_1,   Axi Stream Send.  TData: 0000005A  TStrb: 1111  TKeep: 1111  TID: 03  TDest: 6  TUser: A  TLast: 0  Operation# 91 at 1010 ns
%% Log    INFO      in transmitter_1,   Axi Stream Send.  TData: 0000005B  TStrb: 1111  TKeep: 1111  TID: 03  TDest: 6  TUser: B  TLast: 0  Operation# 92 at 1020 ns
%% Log    INFO      in transmitter_1,   Axi Stream Send.  TData: 0000005C  TStrb: 1111  TKeep: 1111  TID: 03  TDest: 6  TUser: C  TLast: 0  Operation# 93 at 1030 ns
%% Log    INFO      in transmitter_1,   Axi Stream Send.  TData: 0000005D  TStrb: 1111  TKeep: 1111  TID: 03  TDest: 6  TUser: D  TLast: 0  Operation# 94 at 1040 ns
%% Log    INFO      in transmitter_1,   Axi Stream Send.  TData: 0000005E  TStrb: 1111  TKeep: 1111  TID: 03  TDest: 6  TUser: E  TLast: 0  Operation# 95 at 1050 ns
%% Log    INFO      in transmitter_1,   Axi Stream Send.  TData: 0000005F  TStrb: 1111  TKeep: 1111  TID: 03  TDest: 6  TUser: F  TLast: 1  Operation# 96 at 1060 ns
%% Log    INFO      in transmitter_1,   Axi Stream Send.  TData: 00000060  TStrb: 1111  TKeep: 1111  TID: 07  TDest: 6  TUser: 0  TLast: 0  Operation# 97 at 1070 ns
%% Log    INFO      in receiver_1,   Burst Receive.  Operation# 3  Last Data: 0000005F  TID: 03  TDest: 6  TUser: F  TLast: 1 at 1070 ns
%% Log    PASSED    in Default,   TryCount 32 at 1070 ns
%% Log    PASSED    in Default,   Param ID & Dest & User  Received : 006DF at 1070 ns
%% Log    PASSED    in Default,   NumBytes  Received : 32 at 1070 ns
%% Log    PASSED    in Default,   Data Received : 00000040 at 1070 ns
%% Log    PASSED    in Default,   User Received : 0 at 1070 ns
%% Log    PASSED    in Default,   Data Received : 00000041 at 1070 ns
%% Log    PASSED    in Default,   User Received : 1 at 1070 ns
%% Log    PASSED    in Default,   Data Received : 00000042 at 1070 ns
%% Log    PASSED    in Default,   User Received : 2 at 1070 ns
%% Log    PASSED    in Default,   Data Received : 00000043 at 1070 ns
%% Log    PASSED    in Default,   User Received : 3 at 1070 ns
%% Log    PASSED    in Default,   Data Received : 00000044 at 1070 ns
%% Log    PASSED    in Default,   User Received : 4 at 1070 ns
%% Log    PASSED    in Default,   Data Received : 00000045 at 1070 ns
%% Log    PASSED    in Default,   User Received : 5 at 1070 ns
%% Log    PASSED    in Default,   Data Received : 00000046 at 1070 ns
%% Log    PASSED    in Default,   User Received : 6 at 1070 ns
%% Log    PASSED    in Default,   Data Received : 00000047 at 1070 ns
%% Log    PASSED    in Default,   User Received : 7 at 1070 ns
%% Log    PASSED    in Default,   Data Received : 00000048 at 1070 ns
%% Log    PASSED    in Default,   User Received : 8 at 1070 ns
%% Log    PASSED    in Default,   Data Received : 00000049 at 1070 ns
%% Log    PASSED    in Default,   User Received : 9 at 1070 ns
%% Log    PASSED    in Default,   Data Received : 0000004A at 1070 ns
%% Log    PASSED    in Default,   User Received : A at 1070 ns
%% Log    PASSED    in Default,   Data Received : 0000004B at 1070 ns
%% Log    PASSED    in Default,   User Received : B at 1070 ns
%% Log    PASSED    in Default,   Data Received : 0000004C at 1070 ns
%% Log    PASSED    in Default,   User Received : C at 1070 ns
%% Log    PASSED    in Default,   Data Received : 0000004D at 1070 ns
%% Log    PASSED    in Default,   User Received : D at 1070 ns
%% Log    PASSED    in Default,   Data Received : 0000004E at 1070 ns
%% Log    PASSED    in Default,   User Received : E at 1070 ns
%% Log    PASSED    in Default,   Data Received : 0000004F at 1070 ns
%% Log    PASSED    in Default,   User Received : F at 1070 ns
%% Log    PASSED    in Default,   Data Received : 00000050 at 1070 ns
%% Log    PASSED    in Default,   User Received : 0 at 1070 ns
%% Log    PASSED    in Default,   Data Received : 00000051 at 1070 ns
%% Log    PASSED    in Default,   User Received : 1 at 1070 ns
%% Log    PASSED    in Default,   Data Received : 00000052 at 1070 ns
%% Log    PASSED    in Default,   User Received : 2 at 1070 ns
%% Log    PASSED    in Default,   Data Received : 00000053 at 1070 ns
%% Log    PASSED    in Default,   User Received : 3 at 1070 ns
%% Log    PASSED    in Default,   Data Received : 00000054 at 1070 ns
%% Log    PASSED    in Default,   User Received : 4 at 1070 ns
%% Log    PASSED    in Default,   Data Received : 00000055 at 1070 ns
%% Log    PASSED    in Default,   User Received : 5 at 1070 ns
%% Log    PASSED    in Default,   Data Received : 00000056 at 1070 ns
%% Log    PASSED    in Default,   User Received : 6 at 1070 ns
%% Log    PASSED    in Default,   Data Received : 00000057 at 1070 ns
%% Log    PASSED    in Default,   User Received : 7 at 1070 ns
%% Log    PASSED    in Default,   Data Received : 00000058 at 1070 ns
%% Log    PASSED    in Default,   User Received : 8 at 1070 ns
%% Log    PASSED    in Default,   Data Received : 00000059 at 1070 ns
%% Log    PASSED    in Default,   User Received : 9 at 1070 ns
%% Log    PASSED    in Default,   Data Received : 0000005A at 1070 ns
%% Log    PASSED    in Default,   User Received : A at 1070 ns
%% Log    PASSED    in Default,   Data Received : 0000005B at 1070 ns
%% Log    PASSED    in Default,   User Received : B at 1070 ns
%% Log    PASSED    in Default,   Data Received : 0000005C at 1070 ns
%% Log    PASSED    in Default,   User Received : C at 1070 ns
%% Log    PASSED    in Default,   Data Received : 0000005D at 1070 ns
%% Log    PASSED    in Default,   User Received : D at 1070 ns
%% Log    PASSED    in Default,   Data Received : 0000005E at 1070 ns
%% Log    PASSED    in Default,   User Received : E at 1070 ns
%% Log    PASSED    in Default,   Data Received : 0000005F at 1070 ns
%% Log    PASSED    in Default,   User Received : F at 1070 ns
%% Log    INFO      in transmitter_1,   Axi Stream Send.  TData: 00000061  TStrb: 1111  TKeep: 1111  TID: 07  TDest: 6  TUser: 1  TLast: 0  Operation# 98 at 1080 ns
%% Log    INFO      in transmitter_1,   Axi Stream Send.  TData: 00000062  TStrb: 1111  TKeep: 1111  TID: 07  TDest: 6  TUser: 2  TLast: 0  Operation# 99 at 1090 ns
%% Log    INFO      in transmitter_1,   Axi Stream Send.  TData: 00000063  TStrb: 1111  TKeep: 1111  TID: 07  TDest: 6  TUser: 3  TLast: 0  Operation# 100 at 1100 ns
%% Log    INFO      in transmitter_1,   Axi Stream Send.  TData: 00000064  TStrb: 1111  TKeep: 1111  TID: 07  TDest: 6  TUser: 4  TLast: 0  Operation# 101 at 1110 ns
%% Log    INFO      in transmitter_1,   Axi Stream Send.  TData: 00000065  TStrb: 1111  TKeep: 1111  TID: 07  TDest: 6  TUser: 5  TLast: 0  Operation# 102 at 1120 ns
%% Log    INFO      in transmitter_1,   Axi Stream Send.  TData: 00000066  TStrb: 1111  TKeep: 1111  TID: 07  TDest: 6  TUser: 6  TLast: 0  Operation# 103 at 1130 ns
%% Log    INFO      in transmitter_1,   Axi Stream Send.  TData: 00000067  TStrb: 1111  TKeep: 1111  TID: 07  TDest: 6  TUser: 7  TLast: 0  Operation# 104 at 1140 ns
%% Log    INFO      in transmitter_1,   Axi Stream Send.  TData: 00000068  TStrb: 1111  TKeep: 1111  TID: 07  TDest: 6  TUser: 8  TLast: 0  Operation# 105 at 1150 ns
%% Log    INFO      in transmitter_1,   Axi Stream Send.  TData: 00000069  TStrb: 1111  TKeep: 1111  TID: 07  TDest: 6  TUser: 9  TLast: 0  Operation# 106 at 1160 ns
%% Log    INFO      in transmitter_1,   Axi Stream Send.  TData: 0000006A  TStrb: 1111  TKeep: 1111  TID: 07  TDest: 6  TUser: A  TLast: 0  Operation# 107 at 1170 ns
%% Log    INFO      in transmitter_1,   Axi Stream Send.  TData: 0000006B  TStrb: 1111  TKeep: 1111  TID: 07  TDest: 6  TUser: B  TLast: 0  Operation# 108 at 1180 ns
%% Log    INFO      in transmitter_1,   Axi Stream Send.  TData: 0000006C  TStrb: 1111  TKeep: 1111  TID: 07  TDest: 6  TUser: C  TLast: 0  Operation# 109 at 1190 ns
%% Log    INFO      in transmitter_1,   Axi Stream Send.  TData: 0000006D  TStrb: 1111  TKeep: 1111  TID: 07  TDest: 6  TUser: D  TLast: 0  Operation# 110 at 1200 ns
%% Log    INFO      in transmitter_1,   Axi Stream Send.  TData: 0000006E  TStrb: 1111  TKeep: 1111  TID: 07  TDest: 6  TUser: E  TLast: 0  Operation# 111 at 1210 ns
%% Log    INFO      in transmitter_1,   Axi Stream Send.  TData: 0000006F  TStrb: 1111  TKeep: 1111  TID: 07  TDest: 6  TUser: F  TLast: 0  Operation# 112 at 1220 ns
%% Log    INFO      in transmitter_1,   Axi Stream Send.  TData: 00000070  TStrb: 1111  TKeep: 1111  TID: 07  TDest: 6  TUser: 0  TLast: 0  Operation# 113 at 1230 ns
%% Log    INFO      in transmitter_1,   Axi Stream Send.  TData: 00000071  TStrb: 1111  TKeep: 1111  TID: 07  TDest: 6  TUser: 1  TLast: 0  Operation# 114 at 1240 ns
%% Log    INFO      in transmitter_1,   Axi Stream Send.  TData: 00000072  TStrb: 1111  TKeep: 1111  TID: 07  TDest: 6  TUser: 2  TLast: 0  Operation# 115 at 1250 ns
%% Log    INFO      in transmitter_1,   Axi Stream Send.  TData: 00000073  TStrb: 1111  TKeep: 1111  TID: 07  TDest: 6  TUser: 3  TLast: 0  Operation# 116 at 1260 ns
%% Log    INFO      in transmitter_1,   Axi Stream Send.  TData: 00000074  TStrb: 1111  TKeep: 1111  TID: 07  TDest: 6  TUser: 4  TLast: 0  Operation# 117 at 1270 ns
%% Log    INFO      in transmitter_1,   Axi Stream Send.  TData: 00000075  TStrb: 1111  TKeep: 1111  TID: 07  TDest: 6  TUser: 5  TLast: 0  Operation# 118 at 1280 ns
%% Log    INFO      in transmitter_1,   Axi Stream Send.  TData: 00000076  TStrb: 1111  TKeep: 1111  TID: 07  TDest: 6  TUser: 6  TLast: 0  Operation# 119 at 1290 ns
%% Log    INFO      in transmitter_1,   Axi Stream Send.  TData: 00000077  TStrb: 1111  TKeep: 1111  TID: 07  TDest: 6  TUser: 7  TLast: 0  Operation# 120 at 1300 ns
%% Log    INFO      in transmitter_1,   Axi Stream Send.  TData: 00000078  TStrb: 1111  TKeep: 1111  TID: 07  TDest: 6  TUser: 8  TLast: 0  Operation# 121 at 1310 ns
%% Log    INFO      in transmitter_1,   Axi Stream Send.  TData: 00000079  TStrb: 1111  TKeep: 1111  TID: 07  TDest: 6  TUser: 9  TLast: 0  Operation# 122 at 1320 ns
%% Log    INFO      in transmitter_1,   Axi Stream Send.  TData: 0000007A  TStrb: 1111  TKeep: 1111  TID: 07  TDest: 6  TUser: A  TLast: 0  Operation# 123 at 1330 ns
%% Log    INFO      in transmitter_1,   Axi Stream Send.  TData: 0000007B  TStrb: 1111  TKeep: 1111  TID: 07  TDest: 6  TUser: B  TLast: 0  Operation# 124 at 1340 ns
%% Log    INFO      in transmitter_1,   Axi Stream Send.  TData: 0000007C  TStrb: 1111  TKeep: 1111  TID: 07  TDest: 6  TUser: C  TLast: 0  Operation# 125 at 1350 ns
%% Log    INFO      in transmitter_1,   Axi Stream Send.  TData: 0000007D  TStrb: 1111  TKeep: 1111  TID: 07  TDest: 6  TUser: D  TLast: 0  Operation# 126 at 1360 ns
%% Log    INFO      in transmitter_1,   Axi Stream Send.  TData: 0000007E  TStrb: 1111  TKeep: 1111  TID: 07  TDest: 6  TUser: E  TLast: 0  Operation# 127 at 1370 ns
%% Log    INFO      in transmitter_1,   Axi Stream Send.  TData: 0000007F  TStrb: 1111  TKeep: 1111  TID: 07  TDest: 6  TUser: F  TLast: 1  Operation# 128 at 1380 ns
%% Log    INFO      in transmitter_1,   Axi Stream Send.  TData: 00000080  TStrb: 1111  TKeep: 1111  TID: 03  TDest: 2  TUser: 0  TLast: 0  Operation# 129 at 1390 ns
%% Log    INFO      in receiver_1,   Burst Receive.  Operation# 4  Last Data: 0000007F  TID: 07  TDest: 6  TUser: F  TLast: 1 at 1390 ns
%% Log    PASSED    in Default,   TryCount 32 at 1390 ns
%% Log    PASSED    in Default,   Param ID & Dest & User  Received : 00EDF at 1390 ns
%% Log    PASSED    in Default,   NumBytes  Received : 32 at 1390 ns
%% Log    PASSED    in Default,   Data Received : 00000060 at 1390 ns
%% Log    PASSED    in Default,   User Received : 0 at 1390 ns
%% Log    PASSED    in Default,   Data Received : 00000061 at 1390 ns
%% Log    PASSED    in Default,   User Received : 1 at 1390 ns
%% Log    PASSED    in Default,   Data Received : 00000062 at 1390 ns
%% Log    PASSED    in Default,   User Received : 2 at 1390 ns
%% Log    PASSED    in Default,   Data Received : 00000063 at 1390 ns
%% Log    PASSED    in Default,   User Received : 3 at 1390 ns
%% Log    PASSED    in Default,   Data Received : 00000064 at 1390 ns
%% Log    PASSED    in Default,   User Received : 4 at 1390 ns
%% Log    PASSED    in Default,   Data Received : 00000065 at 1390 ns
%% Log    PASSED    in Default,   User Received : 5 at 1390 ns
%% Log    PASSED    in Default,   Data Received : 00000066 at 1390 ns
%% Log    PASSED    in Default,   User Received : 6 at 1390 ns
%% Log    PASSED    in Default,   Data Received : 00000067 at 1390 ns
%% Log    PASSED    in Default,   User Received : 7 at 1390 ns
%% Log    PASSED    in Default,   Data Received : 00000068 at 1390 ns
%% Log    PASSED    in Default,   User Received : 8 at 1390 ns
%% Log    PASSED    in Default,   Data Received : 00000069 at 1390 ns
%% Log    PASSED    in Default,   User Received : 9 at 1390 ns
%% Log    PASSED    in Default,   Data Received : 0000006A at 1390 ns
%% Log    PASSED    in Default,   User Received : A at 1390 ns
%% Log    PASSED    in Default,   Data Received : 0000006B at 1390 ns
%% Log    PASSED    in Default,   User Received : B at 1390 ns
%% Log    PASSED    in Default,   Data Received : 0000006C at 1390 ns
%% Log    PASSED    in Default,   User Received : C at 1390 ns
%% Log    PASSED    in Default,   Data Received : 0000006D at 1390 ns
%% Log    PASSED    in Default,   User Received : D at 1390 ns
%% Log    PASSED    in Default,   Data Received : 0000006E at 1390 ns
%% Log    PASSED    in Default,   User Received : E at 1390 ns
%% Log    PASSED    in Default,   Data Received : 0000006F at 1390 ns
%% Log    PASSED    in Default,   User Received : F at 1390 ns
%% Log    PASSED    in Default,   Data Received : 00000070 at 1390 ns
%% Log    PASSED    in Default,   User Received : 0 at 1390 ns
%% Log    PASSED    in Default,   Data Received : 00000071 at 1390 ns
%% Log    PASSED    in Default,   User Received : 1 at 1390 ns
%% Log    PASSED    in Default,   Data Received : 00000072 at 1390 ns
%% Log    PASSED    in Default,   User Received : 2 at 1390 ns
%% Log    PASSED    in Default,   Data Received : 00000073 at 1390 ns
%% Log    PASSED    in Default,   User Received : 3 at 1390 ns
%% Log    PASSED    in Default,   Data Received : 00000074 at 1390 ns
%% Log    PASSED    in Default,   User Received : 4 at 1390 ns
%% Log    PASSED    in Default,   Data Received : 00000075 at 1390 ns
%% Log    PASSED    in Default,   User Received : 5 at 1390 ns
%% Log    PASSED    in Default,   Data Received : 00000076 at 1390 ns
%% Log    PASSED    in Default,   User Received : 6 at 1390 ns
%% Log    PASSED    in Default,   Data Received : 00000077 at 1390 ns
%% Log    PASSED    in Default,   User Received : 7 at 1390 ns
%% Log    PASSED    in Default,   Data Received : 00000078 at 1390 ns
%% Log    PASSED    in Default,   User Received : 8 at 1390 ns
%% Log    PASSED    in Default,   Data Received : 00000079 at 1390 ns
%% Log    PASSED    in Default,   User Received : 9 at 1390 ns
%% Log    PASSED    in Default,   Data Received : 0000007A at 1390 ns
%% Log    PASSED    in Default,   User Received : A at 1390 ns
%% Log    PASSED    in Default,   Data Received : 0000007B at 1390 ns
%% Log    PASSED    in Default,   User Received : B at 1390 ns
%% Log    PASSED    in Default,   Data Received : 0000007C at 1390 ns
%% Log    PASSED    in Default,   User Received : C at 1390 ns
%% Log    PASSED    in Default,   Data Received : 0000007D at 1390 ns
%% Log    PASSED    in Default,   User Received : D at 1390 ns
%% Log    PASSED    in Default,   Data Received : 0000007E at 1390 ns
%% Log    PASSED    in Default,   User Received : E at 1390 ns
%% Log    PASSED    in Default,   Data Received : 0000007F at 1390 ns
%% Log    PASSED    in Default,   User Received : F at 1390 ns
%% Log    INFO      in transmitter_1,   Axi Stream Send.  TData: 00000081  TStrb: 1111  TKeep: 1111  TID: 03  TDest: 2  TUser: 1  TLast: 0  Operation# 130 at 1400 ns
%% Log    INFO      in transmitter_1,   Axi Stream Send.  TData: 00000082  TStrb: 1111  TKeep: 1111  TID: 03  TDest: 2  TUser: 2  TLast: 0  Operation# 131 at 1410 ns
%% Log    INFO      in transmitter_1,   Axi Stream Send.  TData: 00000083  TStrb: 1111  TKeep: 1111  TID: 03  TDest: 2  TUser: 3  TLast: 0  Operation# 132 at 1420 ns
%% Log    INFO      in transmitter_1,   Axi Stream Send.  TData: 00000084  TStrb: 1111  TKeep: 1111  TID: 03  TDest: 2  TUser: 4  TLast: 0  Operation# 133 at 1430 ns
%% Log    INFO      in transmitter_1,   Axi Stream Send.  TData: 00000085  TStrb: 1111  TKeep: 1111  TID: 03  TDest: 2  TUser: 5  TLast: 0  Operation# 134 at 1440 ns
%% Log    INFO      in transmitter_1,   Axi Stream Send.  TData: 00000086  TStrb: 1111  TKeep: 1111  TID: 03  TDest: 2  TUser: 6  TLast: 0  Operation# 135 at 1450 ns
%% Log    INFO      in transmitter_1,   Axi Stream Send.  TData: 00000087  TStrb: 1111  TKeep: 1111  TID: 03  TDest: 2  TUser: 7  TLast: 0  Operation# 136 at 1460 ns
%% Log    INFO      in transmitter_1,   Axi Stream Send.  TData: 00000088  TStrb: 1111  TKeep: 1111  TID: 03  TDest: 2  TUser: 8  TLast: 0  Operation# 137 at 1470 ns
%% Log    INFO      in transmitter_1,   Axi Stream Send.  TData: 00000089  TStrb: 1111  TKeep: 1111  TID: 03  TDest: 2  TUser: 9  TLast: 0  Operation# 138 at 1480 ns
%% Log    INFO      in transmitter_1,   Axi Stream Send.  TData: 0000008A  TStrb: 1111  TKeep: 1111  TID: 03  TDest: 2  TUser: A  TLast: 0  Operation# 139 at 1490 ns
%% Log    INFO      in transmitter_1,   Axi Stream Send.  TData: 0000008B  TStrb: 1111  TKeep: 1111  TID: 03  TDest: 2  TUser: B  TLast: 0  Operation# 140 at 1500 ns
%% Log    INFO      in transmitter_1,   Axi Stream Send.  TData: 0000008C  TStrb: 1111  TKeep: 1111  TID: 03  TDest: 2  TUser: C  TLast: 0  Operation# 141 at 1510 ns
%% Log    INFO      in transmitter_1,   Axi Stream Send.  TData: 0000008D  TStrb: 1111  TKeep: 1111  TID: 03  TDest: 2  TUser: D  TLast: 0  Operation# 142 at 1520 ns
%% Log    INFO      in transmitter_1,   Axi Stream Send.  TData: 0000008E  TStrb: 1111  TKeep: 1111  TID: 03  TDest: 2  TUser: E  TLast: 0  Operation# 143 at 1530 ns
%% Log    INFO      in transmitter_1,   Axi Stream Send.  TData: 0000008F  TStrb: 1111  TKeep: 1111  TID: 03  TDest: 2  TUser: F  TLast: 0  Operation# 144 at 1540 ns
%% Log    INFO      in transmitter_1,   Axi Stream Send.  TData: 00000090  TStrb: 1111  TKeep: 1111  TID: 03  TDest: 2  TUser: 0  TLast: 0  Operation# 145 at 1550 ns
%% Log    INFO      in transmitter_1,   Axi Stream Send.  TData: 00000091  TStrb: 1111  TKeep: 1111  TID: 03  TDest: 2  TUser: 1  TLast: 0  Operation# 146 at 1560 ns
%% Log    INFO      in transmitter_1,   Axi Stream Send.  TData: 00000092  TStrb: 1111  TKeep: 1111  TID: 03  TDest: 2  TUser: 2  TLast: 0  Operation# 147 at 1570 ns
%% Log    INFO      in transmitter_1,   Axi Stream Send.  TData: 00000093  TStrb: 1111  TKeep: 1111  TID: 03  TDest: 2  TUser: 3  TLast: 0  Operation# 148 at 1580 ns
%% Log    INFO      in transmitter_1,   Axi Stream Send.  TData: 00000094  TStrb: 1111  TKeep: 1111  TID: 03  TDest: 2  TUser: 4  TLast: 0  Operation# 149 at 1590 ns
%% Log    INFO      in transmitter_1,   Axi Stream Send.  TData: 00000095  TStrb: 1111  TKeep: 1111  TID: 03  TDest: 2  TUser: 5  TLast: 0  Operation# 150 at 1600 ns
%% Log    INFO      in transmitter_1,   Axi Stream Send.  TData: 00000096  TStrb: 1111  TKeep: 1111  TID: 03  TDest: 2  TUser: 6  TLast: 0  Operation# 151 at 1610 ns
%% Log    INFO      in transmitter_1,   Axi Stream Send.  TData: 00000097  TStrb: 1111  TKeep: 1111  TID: 03  TDest: 2  TUser: 7  TLast: 0  Operation# 152 at 1620 ns
%% Log    INFO      in transmitter_1,   Axi Stream Send.  TData: 00000098  TStrb: 1111  TKeep: 1111  TID: 03  TDest: 2  TUser: 8  TLast: 0  Operation# 153 at 1630 ns
%% Log    INFO      in transmitter_1,   Axi Stream Send.  TData: 00000099  TStrb: 1111  TKeep: 1111  TID: 03  TDest: 2  TUser: 9  TLast: 0  Operation# 154 at 1640 ns
%% Log    INFO      in transmitter_1,   Axi Stream Send.  TData: 0000009A  TStrb: 1111  TKeep: 1111  TID: 03  TDest: 2  TUser: A  TLast: 0  Operation# 155 at 1650 ns
%% Log    INFO      in transmitter_1,   Axi Stream Send.  TData: 0000009B  TStrb: 1111  TKeep: 1111  TID: 03  TDest: 2  TUser: B  TLast: 0  Operation# 156 at 1660 ns
%% Log    INFO      in transmitter_1,   Axi Stream Send.  TData: 0000009C  TStrb: 1111  TKeep: 1111  TID: 03  TDest: 2  TUser: C  TLast: 0  Operation# 157 at 1670 ns
%% Log    INFO      in transmitter_1,   Axi Stream Send.  TData: 0000009D  TStrb: 1111  TKeep: 1111  TID: 03  TDest: 2  TUser: D  TLast: 0  Operation# 158 at 1680 ns
%% Log    INFO      in transmitter_1,   Axi Stream Send.  TData: 0000009E  TStrb: 1111  TKeep: 1111  TID: 03  TDest: 2  TUser: E  TLast: 0  Operation# 159 at 1690 ns
%% Log    INFO      in transmitter_1,   Axi Stream Send.  TData: 0000009F  TStrb: 1111  TKeep: 1111  TID: 03  TDest: 2  TUser: F  TLast: 1  Operation# 160 at 1700 ns
%% Log    INFO      in transmitter_1,   Axi Stream Send.  TData: 000000A0  TStrb: 1111  TKeep: 1111  TID: 03  TDest: 6  TUser: 0  TLast: 0  Operation# 161 at 1710 ns
%% Log    INFO      in receiver_1,   Burst Receive.  Operation# 5  Last Data: 0000009F  TID: 03  TDest: 2  TUser: F  TLast: 1 at 1710 ns
%% Log    PASSED    in Default,   TryCount 32 at 1710 ns
%% Log    PASSED    in Default,   Param ID & Dest & User  Received : 0065F at 1710 ns
%% Log    PASSED    in Default,   NumBytes  Received : 32 at 1710 ns
%% Log    PASSED    in Default,   Data Received : 00000080 at 1710 ns
%% Log    PASSED    in Default,   User Received : 0 at 1710 ns
%% Log    PASSED    in Default,   Data Received : 00000081 at 1710 ns
%% Log    PASSED    in Default,   User Received : 1 at 1710 ns
%% Log    PASSED    in Default,   Data Received : 00000082 at 1710 ns
%% Log    PASSED    in Default,   User Received : 2 at 1710 ns
%% Log    PASSED    in Default,   Data Received : 00000083 at 1710 ns
%% Log    PASSED    in Default,   User Received : 3 at 1710 ns
%% Log    PASSED    in Default,   Data Received : 00000084 at 1710 ns
%% Log    PASSED    in Default,   User Received : 4 at 1710 ns
%% Log    PASSED    in Default,   Data Received : 00000085 at 1710 ns
%% Log    PASSED    in Default,   User Received : 5 at 1710 ns
%% Log    PASSED    in Default,   Data Received : 00000086 at 1710 ns
%% Log    PASSED    in Default,   User Received : 6 at 1710 ns
%% Log    PASSED    in Default,   Data Received : 00000087 at 1710 ns
%% Log    PASSED    in Default,   User Received : 7 at 1710 ns
%% Log    PASSED    in Default,   Data Received : 00000088 at 1710 ns
%% Log    PASSED    in Default,   User Received : 8 at 1710 ns
%% Log    PASSED    in Default,   Data Received : 00000089 at 1710 ns
%% Log    PASSED    in Default,   User Received : 9 at 1710 ns
%% Log    PASSED    in Default,   Data Received : 0000008A at 1710 ns
%% Log    PASSED    in Default,   User Received : A at 1710 ns
%% Log    PASSED    in Default,   Data Received : 0000008B at 1710 ns
%% Log    PASSED    in Default,   User Received : B at 1710 ns
%% Log    PASSED    in Default,   Data Received : 0000008C at 1710 ns
%% Log    PASSED    in Default,   User Received : C at 1710 ns
%% Log    PASSED    in Default,   Data Received : 0000008D at 1710 ns
%% Log    PASSED    in Default,   User Received : D at 1710 ns
%% Log    PASSED    in Default,   Data Received : 0000008E at 1710 ns
%% Log    PASSED    in Default,   User Received : E at 1710 ns
%% Log    PASSED    in Default,   Data Received : 0000008F at 1710 ns
%% Log    PASSED    in Default,   User Received : F at 1710 ns
%% Log    PASSED    in Default,   Data Received : 00000090 at 1710 ns
%% Log    PASSED    in Default,   User Received : 0 at 1710 ns
%% Log    PASSED    in Default,   Data Received : 00000091 at 1710 ns
%% Log    PASSED    in Default,   User Received : 1 at 1710 ns
%% Log    PASSED    in Default,   Data Received : 00000092 at 1710 ns
%% Log    PASSED    in Default,   User Received : 2 at 1710 ns
%% Log    PASSED    in Default,   Data Received : 00000093 at 1710 ns
%% Log    PASSED    in Default,   User Received : 3 at 1710 ns
%% Log    PASSED    in Default,   Data Received : 00000094 at 1710 ns
%% Log    PASSED    in Default,   User Received : 4 at 1710 ns
%% Log    PASSED    in Default,   Data Received : 00000095 at 1710 ns
%% Log    PASSED    in Default,   User Received : 5 at 1710 ns
%% Log    PASSED    in Default,   Data Received : 00000096 at 1710 ns
%% Log    PASSED    in Default,   User Received : 6 at 1710 ns
%% Log    PASSED    in Default,   Data Received : 00000097 at 1710 ns
%% Log    PASSED    in Default,   User Received : 7 at 1710 ns
%% Log    PASSED    in Default,   Data Received : 00000098 at 1710 ns
%% Log    PASSED    in Default,   User Received : 8 at 1710 ns
%% Log    PASSED    in Default,   Data Received : 00000099 at 1710 ns
%% Log    PASSED    in Default,   User Received : 9 at 1710 ns
%% Log    PASSED    in Default,   Data Received : 0000009A at 1710 ns
%% Log    PASSED    in Default,   User Received : A at 1710 ns
%% Log    PASSED    in Default,   Data Received : 0000009B at 1710 ns
%% Log    PASSED    in Default,   User Received : B at 1710 ns
%% Log    PASSED    in Default,   Data Received : 0000009C at 1710 ns
%% Log    PASSED    in Default,   User Received : C at 1710 ns
%% Log    PASSED    in Default,   Data Received : 0000009D at 1710 ns
%% Log    PASSED    in Default,   User Received : D at 1710 ns
%% Log    PASSED    in Default,   Data Received : 0000009E at 1710 ns
%% Log    PASSED    in Default,   User Received : E at 1710 ns
%% Log    PASSED    in Default,   Data Received : 0000009F at 1710 ns
%% Log    PASSED    in Default,   User Received : F at 1710 ns
%% Log    INFO      in transmitter_1,   Axi Stream Send.  TData: 000000A1  TStrb: 1111  TKeep: 1111  TID: 03  TDest: 6  TUser: 1  TLast: 0  Operation# 162 at 1720 ns
%% Log    INFO      in transmitter_1,   Axi Stream Send.  TData: 000000A2  TStrb: 1111  TKeep: 1111  TID: 03  TDest: 6  TUser: 2  TLast: 0  Operation# 163 at 1730 ns
%% Log    INFO      in transmitter_1,   Axi Stream Send.  TData: 000000A3  TStrb: 1111  TKeep: 1111  TID: 03  TDest: 6  TUser: 3  TLast: 0  Operation# 164 at 1740 ns
%% Log    INFO      in transmitter_1,   Axi Stream Send.  TData: 000000A4  TStrb: 1111  TKeep: 1111  TID: 03  TDest: 6  TUser: 4  TLast: 0  Operation# 165 at 1750 ns
%% Log    INFO      in transmitter_1,   Axi Stream Send.  TData: 000000A5  TStrb: 1111  TKeep: 1111  TID: 03  TDest: 6  TUser: 5  TLast: 0  Operation# 166 at 1760 ns
%% Log    INFO      in transmitter_1,   Axi Stream Send.  TData: 000000A6  TStrb: 1111  TKeep: 1111  TID: 03  TDest: 6  TUser: 6  TLast: 0  Operation# 167 at 1770 ns
%% Log    INFO      in transmitter_1,   Axi Stream Send.  TData: 000000A7  TStrb: 1111  TKeep: 1111  TID: 03  TDest: 6  TUser: 7  TLast: 0  Operation# 168 at 1780 ns
%% Log    INFO      in transmitter_1,   Axi Stream Send.  TData: 000000A8  TStrb: 1111  TKeep: 1111  TID: 03  TDest: 6  TUser: 8  TLast: 0  Operation# 169 at 1790 ns
%% Log    INFO      in transmitter_1,   Axi Stream Send.  TData: 000000A9  TStrb: 1111  TKeep: 1111  TID: 03  TDest: 6  TUser: 9  TLast: 0  Operation# 170 at 1800 ns
%% Log    INFO      in transmitter_1,   Axi Stream Send.  TData: 000000AA  TStrb: 1111  TKeep: 1111  TID: 03  TDest: 6  TUser: A  TLast: 0  Operation# 171 at 1810 ns
%% Log    INFO      in transmitter_1,   Axi Stream Send.  TData: 000000AB  TStrb: 1111  TKeep: 1111  TID: 03  TDest: 6  TUser: B  TLast: 0  Operation# 172 at 1820 ns
%% Log    INFO      in transmitter_1,   Axi Stream Send.  TData: 000000AC  TStrb: 1111  TKeep: 1111  TID: 03  TDest: 6  TUser: C  TLast: 0  Operation# 173 at 1830 ns
%% Log    INFO      in transmitter_1,   Axi Stream Send.  TData: 000000AD  TStrb: 1111  TKeep: 1111  TID: 03  TDest: 6  TUser: D  TLast: 0  Operation# 174 at 1840 ns
%% Log    INFO      in transmitter_1,   Axi Stream Send.  TData: 000000AE  TStrb: 1111  TKeep: 1111  TID: 03  TDest: 6  TUser: E  TLast: 0  Operation# 175 at 1850 ns
%% Log    INFO      in transmitter_1,   Axi Stream Send.  TData: 000000AF  TStrb: 1111  TKeep: 1111  TID: 03  TDest: 6  TUser: F  TLast: 0  Operation# 176 at 1860 ns
%% Log    INFO      in transmitter_1,   Axi Stream Send.  TData: 000000B0  TStrb: 1111  TKeep: 1111  TID: 03  TDest: 6  TUser: 0  TLast: 0  Operation# 177 at 1870 ns
%% Log    INFO      in transmitter_1,   Axi Stream Send.  TData: 000000B1  TStrb: 1111  TKeep: 1111  TID: 03  TDest: 6  TUser: 1  TLast: 0  Operation# 178 at 1880 ns
%% Log    INFO      in transmitter_1,   Axi Stream Send.  TData: 000000B2  TStrb: 1111  TKeep: 1111  TID: 03  TDest: 6  TUser: 2  TLast: 0  Operation# 179 at 1890 ns
%% Log    INFO      in transmitter_1,   Axi Stream Send.  TData: 000000B3  TStrb: 1111  TKeep: 1111  TID: 03  TDest: 6  TUser: 3  TLast: 0  Operation# 180 at 1900 ns
%% Log    INFO      in transmitter_1,   Axi Stream Send.  TData: 000000B4  TStrb: 1111  TKeep: 1111  TID: 03  TDest: 6  TUser: 4  TLast: 0  Operation# 181 at 1910 ns
%% Log    INFO      in transmitter_1,   Axi Stream Send.  TData: 000000B5  TStrb: 1111  TKeep: 1111  TID: 03  TDest: 6  TUser: 5  TLast: 0  Operation# 182 at 1920 ns
%% Log    INFO      in transmitter_1,   Axi Stream Send.  TData: 000000B6  TStrb: 1111  TKeep: 1111  TID: 03  TDest: 6  TUser: 6  TLast: 0  Operation# 183 at 1930 ns
%% Log    INFO      in transmitter_1,   Axi Stream Send.  TData: 000000B7  TStrb: 1111  TKeep: 1111  TID: 03  TDest: 6  TUser: 7  TLast: 0  Operation# 184 at 1940 ns
%% Log    INFO      in transmitter_1,   Axi Stream Send.  TData: 000000B8  TStrb: 1111  TKeep: 1111  TID: 03  TDest: 6  TUser: 8  TLast: 0  Operation# 185 at 1950 ns
%% Log    INFO      in transmitter_1,   Axi Stream Send.  TData: 000000B9  TStrb: 1111  TKeep: 1111  TID: 03  TDest: 6  TUser: 9  TLast: 0  Operation# 186 at 1960 ns
%% Log    INFO      in transmitter_1,   Axi Stream Send.  TData: 000000BA  TStrb: 1111  TKeep: 1111  TID: 03  TDest: 6  TUser: A  TLast: 0  Operation# 187 at 1970 ns
%% Log    INFO      in transmitter_1,   Axi Stream Send.  TData: 000000BB  TStrb: 1111  TKeep: 1111  TID: 03  TDest: 6  TUser: B  TLast: 0  Operation# 188 at 1980 ns
%% Log    INFO      in transmitter_1,   Axi Stream Send.  TData: 000000BC  TStrb: 1111  TKeep: 1111  TID: 03  TDest: 6  TUser: C  TLast: 0  Operation# 189 at 1990 ns
%% Log    INFO      in transmitter_1,   Axi Stream Send.  TData: 000000BD  TStrb: 1111  TKeep: 1111  TID: 03  TDest: 6  TUser: D  TLast: 0  Operation# 190 at 2000 ns
%% Log    INFO      in transmitter_1,   Axi Stream Send.  TData: 000000BE  TStrb: 1111  TKeep: 1111  TID: 03  TDest: 6  TUser: E  TLast: 0  Operation# 191 at 2010 ns
%% Log    INFO      in transmitter_1,   Axi Stream Send.  TData: 000000BF  TStrb: 1111  TKeep: 1111  TID: 03  TDest: 6  TUser: F  TLast: 1  Operation# 192 at 2020 ns
%% Log    INFO      in transmitter_1,   Axi Stream Send.  TData: 000000C0  TStrb: 1111  TKeep: 1111  TID: 07  TDest: 2  TUser: 0  TLast: 0  Operation# 193 at 2030 ns
%% Log    INFO      in receiver_1,   Burst Receive.  Operation# 6  Last Data: 000000BF  TID: 03  TDest: 6  TUser: F  TLast: 1 at 2030 ns
%% Log    PASSED    in Default,   TryCount 32 at 2030 ns
%% Log    PASSED    in Default,   Param ID & Dest & User  Received : 006DF at 2030 ns
%% Log    PASSED    in Default,   NumBytes  Received : 32 at 2030 ns
%% Log    PASSED    in Default,   Data Received : 000000A0 at 2030 ns
%% Log    PASSED    in Default,   User Received : 0 at 2030 ns
%% Log    PASSED    in Default,   Data Received : 000000A1 at 2030 ns
%% Log    PASSED    in Default,   User Received : 1 at 2030 ns
%% Log    PASSED    in Default,   Data Received : 000000A2 at 2030 ns
%% Log    PASSED    in Default,   User Received : 2 at 2030 ns
%% Log    PASSED    in Default,   Data Received : 000000A3 at 2030 ns
%% Log    PASSED    in Default,   User Received : 3 at 2030 ns
%% Log    PASSED    in Default,   Data Received : 000000A4 at 2030 ns
%% Log    PASSED    in Default,   User Received : 4 at 2030 ns
%% Log    PASSED    in Default,   Data Received : 000000A5 at 2030 ns
%% Log    PASSED    in Default,   User Received : 5 at 2030 ns
%% Log    PASSED    in Default,   Data Received : 000000A6 at 2030 ns
%% Log    PASSED    in Default,   User Received : 6 at 2030 ns
%% Log    PASSED    in Default,   Data Received : 000000A7 at 2030 ns
%% Log    PASSED    in Default,   User Received : 7 at 2030 ns
%% Log    PASSED    in Default,   Data Received : 000000A8 at 2030 ns
%% Log    PASSED    in Default,   User Received : 8 at 2030 ns
%% Log    PASSED    in Default,   Data Received : 000000A9 at 2030 ns
%% Log    PASSED    in Default,   User Received : 9 at 2030 ns
%% Log    PASSED    in Default,   Data Received : 000000AA at 2030 ns
%% Log    PASSED    in Default,   User Received : A at 2030 ns
%% Log    PASSED    in Default,   Data Received : 000000AB at 2030 ns
%% Log    PASSED    in Default,   User Received : B at 2030 ns
%% Log    PASSED    in Default,   Data Received : 000000AC at 2030 ns
%% Log    PASSED    in Default,   User Received : C at 2030 ns
%% Log    PASSED    in Default,   Data Received : 000000AD at 2030 ns
%% Log    PASSED    in Default,   User Received : D at 2030 ns
%% Log    PASSED    in Default,   Data Received : 000000AE at 2030 ns
%% Log    PASSED    in Default,   User Received : E at 2030 ns
%% Log    PASSED    in Default,   Data Received : 000000AF at 2030 ns
%% Log    PASSED    in Default,   User Received : F at 2030 ns
%% Log    PASSED    in Default,   Data Received : 000000B0 at 2030 ns
%% Log    PASSED    in Default,   User Received : 0 at 2030 ns
%% Log    PASSED    in Default,   Data Received : 000000B1 at 2030 ns
%% Log    PASSED    in Default,   User Received : 1 at 2030 ns
%% Log    PASSED    in Default,   Data Received : 000000B2 at 2030 ns
%% Log    PASSED    in Default,   User Received : 2 at 2030 ns
%% Log    PASSED    in Default,   Data Received : 000000B3 at 2030 ns
%% Log    PASSED    in Default,   User Received : 3 at 2030 ns
%% Log    PASSED    in Default,   Data Received : 000000B4 at 2030 ns
%% Log    PASSED    in Default,   User Received : 4 at 2030 ns
%% Log    PASSED    in Default,   Data Received : 000000B5 at 2030 ns
%% Log    PASSED    in Default,   User Received : 5 at 2030 ns
%% Log    PASSED    in Default,   Data Received : 000000B6 at 2030 ns
%% Log    PASSED    in Default,   User Received : 6 at 2030 ns
%% Log    PASSED    in Default,   Data Received : 000000B7 at 2030 ns
%% Log    PASSED    in Default,   User Received : 7 at 2030 ns
%% Log    PASSED    in Default,   Data Received : 000000B8 at 2030 ns
%% Log    PASSED    in Default,   User Received : 8 at 2030 ns
%% Log    PASSED    in Default,   Data Received : 000000B9 at 2030 ns
%% Log    PASSED    in Default,   User Received : 9 at 2030 ns
%% Log    PASSED    in Default,   Data Received : 000000BA at 2030 ns
%% Log    PASSED    in Default,   User Received : A at 2030 ns
%% Log    PASSED    in Default,   Data Received : 000000BB at 2030 ns
%% Log    PASSED    in Default,   User Received : B at 2030 ns
%% Log    PASSED    in Default,   Data Received : 000000BC at 2030 ns
%% Log    PASSED    in Default,   User Received : C at 2030 ns
%% Log    PASSED    in Default,   Data Received : 000000BD at 2030 ns
%% Log    PASSED    in Default,   User Received : D at 2030 ns
%% Log    PASSED    in Default,   Data Received : 000000BE at 2030 ns
%% Log    PASSED    in Default,   User Received : E at 2030 ns
%% Log    PASSED    in Default,   Data Received : 000000BF at 2030 ns
%% Log    PASSED    in Default,   User Received : F at 2030 ns
%% Log    INFO      in transmitter_1,   Axi Stream Send.  TData: 000000C1  TStrb: 1111  TKeep: 1111  TID: 07  TDest: 2  TUser: 1  TLast: 0  Operation# 194 at 2040 ns
%% Log    INFO      in transmitter_1,   Axi Stream Send.  TData: 000000C2  TStrb: 1111  TKeep: 1111  TID: 07  TDest: 2  TUser: 2  TLast: 0  Operation# 195 at 2050 ns
%% Log    INFO      in transmitter_1,   Axi Stream Send.  TData: 000000C3  TStrb: 1111  TKeep: 1111  TID: 07  TDest: 2  TUser: 3  TLast: 0  Operation# 196 at 2060 ns
%% Log    INFO      in transmitter_1,   Axi Stream Send.  TData: 000000C4  TStrb: 1111  TKeep: 1111  TID: 07  TDest: 2  TUser: 4  TLast: 0  Operation# 197 at 2070 ns
%% Log    INFO      in transmitter_1,   Axi Stream Send.  TData: 000000C5  TStrb: 1111  TKeep: 1111  TID: 07  TDest: 2  TUser: 5  TLast: 0  Operation# 198 at 2080 ns
%% Log    INFO      in transmitter_1,   Axi Stream Send.  TData: 000000C6  TStrb: 1111  TKeep: 1111  TID: 07  TDest: 2  TUser: 6  TLast: 0  Operation# 199 at 2090 ns
%% Log    INFO      in transmitter_1,   Axi Stream Send.  TData: 000000C7  TStrb: 1111  TKeep: 1111  TID: 07  TDest: 2  TUser: 7  TLast: 0  Operation# 200 at 2100 ns
%% Log    INFO      in transmitter_1,   Axi Stream Send.  TData: 000000C8  TStrb: 1111  TKeep: 1111  TID: 07  TDest: 2  TUser: 8  TLast: 0  Operation# 201 at 2110 ns
%% Log    INFO      in transmitter_1,   Axi Stream Send.  TData: 000000C9  TStrb: 1111  TKeep: 1111  TID: 07  TDest: 2  TUser: 9  TLast: 0  Operation# 202 at 2120 ns
%% Log    INFO      in transmitter_1,   Axi Stream Send.  TData: 000000CA  TStrb: 1111  TKeep: 1111  TID: 07  TDest: 2  TUser: A  TLast: 0  Operation# 203 at 2130 ns
%% Log    INFO      in transmitter_1,   Axi Stream Send.  TData: 000000CB  TStrb: 1111  TKeep: 1111  TID: 07  TDest: 2  TUser: B  TLast: 0  Operation# 204 at 2140 ns
%% Log    INFO      in transmitter_1,   Axi Stream Send.  TData: 000000CC  TStrb: 1111  TKeep: 1111  TID: 07  TDest: 2  TUser: C  TLast: 0  Operation# 205 at 2150 ns
%% Log    INFO      in transmitter_1,   Axi Stream Send.  TData: 000000CD  TStrb: 1111  TKeep: 1111  TID: 07  TDest: 2  TUser: D  TLast: 0  Operation# 206 at 2160 ns
%% Log    INFO      in transmitter_1,   Axi Stream Send.  TData: 000000CE  TStrb: 1111  TKeep: 1111  TID: 07  TDest: 2  TUser: E  TLast: 0  Operation# 207 at 2170 ns
%% Log    INFO      in transmitter_1,   Axi Stream Send.  TData: 000000CF  TStrb: 1111  TKeep: 1111  TID: 07  TDest: 2  TUser: F  TLast: 0  Operation# 208 at 2180 ns
%% Log    INFO      in transmitter_1,   Axi Stream Send.  TData: 000000D0  TStrb: 1111  TKeep: 1111  TID: 07  TDest: 2  TUser: 0  TLast: 0  Operation# 209 at 2190 ns
%% Log    INFO      in transmitter_1,   Axi Stream Send.  TData: 000000D1  TStrb: 1111  TKeep: 1111  TID: 07  TDest: 2  TUser: 1  TLast: 0  Operation# 210 at 2200 ns
%% Log    INFO      in transmitter_1,   Axi Stream Send.  TData: 000000D2  TStrb: 1111  TKeep: 1111  TID: 07  TDest: 2  TUser: 2  TLast: 0  Operation# 211 at 2210 ns
%% Log    INFO      in transmitter_1,   Axi Stream Send.  TData: 000000D3  TStrb: 1111  TKeep: 1111  TID: 07  TDest: 2  TUser: 3  TLast: 0  Operation# 212 at 2220 ns
%% Log    INFO      in transmitter_1,   Axi Stream Send.  TData: 000000D4  TStrb: 1111  TKeep: 1111  TID: 07  TDest: 2  TUser: 4  TLast: 0  Operation# 213 at 2230 ns
%% Log    INFO      in transmitter_1,   Axi Stream Send.  TData: 000000D5  TStrb: 1111  TKeep: 1111  TID: 07  TDest: 2  TUser: 5  TLast: 0  Operation# 214 at 2240 ns
%% Log    INFO      in transmitter_1,   Axi Stream Send.  TData: 000000D6  TStrb: 1111  TKeep: 1111  TID: 07  TDest: 2  TUser: 6  TLast: 0  Operation# 215 at 2250 ns
%% Log    INFO      in transmitter_1,   Axi Stream Send.  TData: 000000D7  TStrb: 1111  TKeep: 1111  TID: 07  TDest: 2  TUser: 7  TLast: 0  Operation# 216 at 2260 ns
%% Log    INFO      in transmitter_1,   Axi Stream Send.  TData: 000000D8  TStrb: 1111  TKeep: 1111  TID: 07  TDest: 2  TUser: 8  TLast: 0  Operation# 217 at 2270 ns
%% Log    INFO      in transmitter_1,   Axi Stream Send.  TData: 000000D9  TStrb: 1111  TKeep: 1111  TID: 07  TDest: 2  TUser: 9  TLast: 0  Operation# 218 at 2280 ns
%% Log    INFO      in transmitter_1,   Axi Stream Send.  TData: 000000DA  TStrb: 1111  TKeep: 1111  TID: 07  TDest: 2  TUser: A  TLast: 0  Operation# 219 at 2290 ns
%% Log    INFO      in transmitter_1,   Axi Stream Send.  TData: 000000DB  TStrb: 1111  TKeep: 1111  TID: 07  TDest: 2  TUser: B  TLast: 0  Operation# 220 at 2300 ns
%% Log    INFO      in transmitter_1,   Axi Stream Send.  TData: 000000DC  TStrb: 1111  TKeep: 1111  TID: 07  TDest: 2  TUser: C  TLast: 0  Operation# 221 at 2310 ns
%% Log    INFO      in transmitter_1,   Axi Stream Send.  TData: 000000DD  TStrb: 1111  TKeep: 1111  TID: 07  TDest: 2  TUser: D  TLast: 0  Operation# 222 at 2320 ns
%% Log    INFO      in transmitter_1,   Axi Stream Send.  TData: 000000DE  TStrb: 1111  TKeep: 1111  TID: 07  TDest: 2  TUser: E  TLast: 0  Operation# 223 at 2330 ns
%% Log    INFO      in transmitter_1,   Axi Stream Send.  TData: 000000DF  TStrb: 1111  TKeep: 1111  TID: 07  TDest: 2  TUser: F  TLast: 1  Operation# 224 at 2340 ns
%% Log    INFO      in receiver_1,   Burst Receive.  Operation# 7  Last Data: 000000DF  TID: 07  TDest: 2  TUser: F  TLast: 1 at 2350 ns
%% Log    PASSED    in Default,   TryCount 32 at 2350 ns
%% Log    PASSED    in Default,   Param ID & Dest & User  Received : 00E5F at 2350 ns
%% Log    PASSED    in Default,   NumBytes  Received : 32 at 2350 ns
%% Log    PASSED    in Default,   Data Received : 000000C0 at 2350 ns
%% Log    PASSED    in Default,   User Received : 0 at 2350 ns
%% Log    PASSED    in Default,   Data Received : 000000C1 at 2350 ns
%% Log    PASSED    in Default,   User Received : 1 at 2350 ns
%% Log    PASSED    in Default,   Data Received : 000000C2 at 2350 ns
%% Log    PASSED    in Default,   User Received : 2 at 2350 ns
%% Log    PASSED    in Default,   Data Received : 000000C3 at 2350 ns
%% Log    PASSED    in Default,   User Received : 3 at 2350 ns
%% Log    PASSED    in Default,   Data Received : 000000C4 at 2350 ns
%% Log    PASSED    in Default,   User Received : 4 at 2350 ns
%% Log    PASSED    in Default,   Data Received : 000000C5 at 2350 ns
%% Log    PASSED    in Default,   User Received : 5 at 2350 ns
%% Log    PASSED    in Default,   Data Received : 000000C6 at 2350 ns
%% Log    PASSED    in Default,   User Received : 6 at 2350 ns
%% Log    PASSED    in Default,   Data Received : 000000C7 at 2350 ns
%% Log    PASSED    in Default,   User Received : 7 at 2350 ns
%% Log    PASSED    in Default,   Data Received : 000000C8 at 2350 ns
%% Log    PASSED    in Default,   User Received : 8 at 2350 ns
%% Log    PASSED    in Default,   Data Received : 000000C9 at 2350 ns
%% Log    PASSED    in Default,   User Received : 9 at 2350 ns
%% Log    PASSED    in Default,   Data Received : 000000CA at 2350 ns
%% Log    PASSED    in Default,   User Received : A at 2350 ns
%% Log    PASSED    in Default,   Data Received : 000000CB at 2350 ns
%% Log    PASSED    in Default,   User Received : B at 2350 ns
%% Log    PASSED    in Default,   Data Received : 000000CC at 2350 ns
%% Log    PASSED    in Default,   User Received : C at 2350 ns
%% Log    PASSED    in Default,   Data Received : 000000CD at 2350 ns
%% Log    PASSED    in Default,   User Received : D at 2350 ns
%% Log    PASSED    in Default,   Data Received : 000000CE at 2350 ns
%% Log    PASSED    in Default,   User Received : E at 2350 ns
%% Log    PASSED    in Default,   Data Received : 000000CF at 2350 ns
%% Log    PASSED    in Default,   User Received : F at 2350 ns
%% Log    PASSED    in Default,   Data Received : 000000D0 at 2350 ns
%% Log    PASSED    in Default,   User Received : 0 at 2350 ns
%% Log    PASSED    in Default,   Data Received : 000000D1 at 2350 ns
%% Log    PASSED    in Default,   User Received : 1 at 2350 ns
%% Log    PASSED    in Default,   Data Received : 000000D2 at 2350 ns
%% Log    PASSED    in Default,   User Received : 2 at 2350 ns
%% Log    PASSED    in Default,   Data Received : 000000D3 at 2350 ns
%% Log    PASSED    in Default,   User Received : 3 at 2350 ns
%% Log    PASSED    in Default,   Data Received : 000000D4 at 2350 ns
%% Log    PASSED    in Default,   User Received : 4 at 2350 ns
%% Log    PASSED    in Default,   Data Received : 000000D5 at 2350 ns
%% Log    PASSED    in Default,   User Received : 5 at 2350 ns
%% Log    PASSED    in Default,   Data Received : 000000D6 at 2350 ns
%% Log    PASSED    in Default,   User Received : 6 at 2350 ns
%% Log    PASSED    in Default,   Data Received : 000000D7 at 2350 ns
%% Log    PASSED    in Default,   User Received : 7 at 2350 ns
%% Log    PASSED    in Default,   Data Received : 000000D8 at 2350 ns
%% Log    PASSED    in Default,   User Received : 8 at 2350 ns
%% Log    PASSED    in Default,   Data Received : 000000D9 at 2350 ns
%% Log    PASSED    in Default,   User Received : 9 at 2350 ns
%% Log    PASSED    in Default,   Data Received : 000000DA at 2350 ns
%% Log    PASSED    in Default,   User Received : A at 2350 ns
%% Log    PASSED    in Default,   Data Received : 000000DB at 2350 ns
%% Log    PASSED    in Default,   User Received : B at 2350 ns
%% Log    PASSED    in Default,   Data Received : 000000DC at 2350 ns
%% Log    PASSED    in Default,   User Received : C at 2350 ns
%% Log    PASSED    in Default,   Data Received : 000000DD at 2350 ns
%% Log    PASSED    in Default,   User Received : D at 2350 ns
%% Log    PASSED    in Default,   Data Received : 000000DE at 2350 ns
%% Log    PASSED    in Default,   User Received : E at 2350 ns
%% Log    PASSED    in Default,   Data Received : 000000DF at 2350 ns
%% Log    PASSED    in Default,   User Received : F at 2350 ns
