%%         110.0 ns  Log    ALWAYS  in Default,                      Sending Packet 1 of length 206
%%         110.0 ns  Log    ALWAYS  in Default,                      Sending Packet 2 of length 166
%%         110.0 ns  Log    ALWAYS  in Default,                      Sending Packet 3 of length 236
%%         110.0 ns  Log    ALWAYS  in Default,                      Sending Packet 4 of length 190
%%         110.0 ns  Log    ALWAYS  in Default,                      Sending Packet 5 of length 241
%%         110.0 ns  Log    ALWAYS  in Default,                      Sending Packet 6 of length 198
%%         110.0 ns  Log    ALWAYS  in Default,                      Sending Packet 7 of length 215
%%         110.0 ns  Log    ALWAYS  in Default,                      Sending Packet 8 of length 230
%%         110.0 ns  Log    ALWAYS  in Default,                      Sending Packet 9 of length 209
%%         110.0 ns  Log    ALWAYS  in Default,                      Sending Packet 10 of length 179
%%         110.0 ns  Log    ALWAYS  in Default,                      Sending Packet 11 of length 200
%%         110.0 ns  Log    ALWAYS  in Default,                      Sending Packet 12 of length 213
%%         110.0 ns  Log    ALWAYS  in Default,                      Sending Packet 13 of length 224
%%         110.0 ns  Log    ALWAYS  in Default,                      Sending Packet 14 of length 214
%%         110.0 ns  Log    ALWAYS  in Default,                      Sending Packet 15 of length 249
%%         110.0 ns  Log    ALWAYS  in Default,                      Sending Packet 16 of length 130
%%         110.0 ns  Log    ALWAYS  in Default,                      Sending Packet 17 of length 203
%%         110.0 ns  Log    ALWAYS  in Default,                      Sending Packet 18 of length 228
%%         110.0 ns  Log    ALWAYS  in Default,                      Sending Packet 19 of length 205
%%         110.0 ns  Log    ALWAYS  in Default,                      Sending Packet 20 of length 224
%%         110.0 ns  Log    ALWAYS  in Default,                      Sending Packet 21 of length 156
%%         110.0 ns  Log    ALWAYS  in Default,                      Sending Packet 22 of length 221
%%         110.0 ns  Log    ALWAYS  in Default,                      Sending Packet 23 of length 188
%%         110.0 ns  Log    ALWAYS  in Default,                      Sending Packet 24 of length 238
%%         110.0 ns  Log    ALWAYS  in Default,                      Sending Packet 25 of length 152
%%         110.0 ns  Log    ALWAYS  in Default,                      Sending Packet 26 of length 223
%%         110.0 ns  Log    ALWAYS  in Default,                      Sending Packet 27 of length 230
%%         110.0 ns  Log    ALWAYS  in Default,                      Sending Packet 28 of length 140
%%         110.0 ns  Log    ALWAYS  in Default,                      Sending Packet 29 of length 205
%%         110.0 ns  Log    ALWAYS  in Default,                      Sending Packet 30 of length 174
%%         110.0 ns  Log    ALWAYS  in Default,                      Sending Packet 31 of length 187
%%         110.0 ns  Log    ALWAYS  in Default,                      Sending Packet 32 of length 154
%%         140.0 ns  Log    INFO    in transmitter_1,                Axi Stream Send.  TData: EE640388  TStrb: 1111  TKeep: 1111  TID: 01  TDest: 2  TUser: 3  TLast: 0  Operation# 1
%%         160.0 ns  Log    INFO    in transmitter_1,                Axi Stream Send.  TData: 33117587  TStrb: 1111  TKeep: 1111  TID: 01  TDest: 2  TUser: 3  TLast: 0  Operation# 2
%%         190.0 ns  Log    INFO    in transmitter_1,                Axi Stream Send.  TData: FA7189CC  TStrb: 1111  TKeep: 1111  TID: 01  TDest: 2  TUser: 3  TLast: 0  Operation# 3
%%         210.0 ns  Log    INFO    in transmitter_1,                Axi Stream Send.  TData: 62600795  TStrb: 1111  TKeep: 1111  TID: 01  TDest: 2  TUser: 3  TLast: 0  Operation# 4
%%         220.0 ns  Log    INFO    in transmitter_1,                Axi Stream Send.  TData: 0EE44C07  TStrb: 1111  TKeep: 1111  TID: 01  TDest: 2  TUser: 3  TLast: 0  Operation# 5
%%         250.0 ns  Log    INFO    in transmitter_1,                Axi Stream Send.  TData: 51886EFB  TStrb: 1111  TKeep: 1111  TID: 01  TDest: 2  TUser: 3  TLast: 0  Operation# 6
%%         270.0 ns  Log    INFO    in transmitter_1,                Axi Stream Send.  TData: 6A7C0659  TStrb: 1111  TKeep: 1111  TID: 01  TDest: 2  TUser: 3  TLast: 0  Operation# 7
%%         290.0 ns  Log    INFO    in transmitter_1,                Axi Stream Send.  TData: 51E268A8  TStrb: 1111  TKeep: 1111  TID: 01  TDest: 2  TUser: 3  TLast: 0  Operation# 8
%%         300.0 ns  Log    INFO    in transmitter_1,                Axi Stream Send.  TData: D51C9BEC  TStrb: 1111  TKeep: 1111  TID: 01  TDest: 2  TUser: 3  TLast: 0  Operation# 9
%%         320.0 ns  Log    INFO    in transmitter_1,                Axi Stream Send.  TData: 8DBE2717  TStrb: 1111  TKeep: 1111  TID: 01  TDest: 2  TUser: 3  TLast: 0  Operation# 10
%%         330.0 ns  Log    INFO    in transmitter_1,                Axi Stream Send.  TData: A6068DEF  TStrb: 1111  TKeep: 1111  TID: 01  TDest: 2  TUser: 3  TLast: 0  Operation# 11
%%         390.0 ns  Log    INFO    in transmitter_1,                Axi Stream Send.  TData: 8EA3F6E3  TStrb: 1111  TKeep: 1111  TID: 01  TDest: 2  TUser: 3  TLast: 0  Operation# 12
%%         410.0 ns  Log    INFO    in transmitter_1,                Axi Stream Send.  TData: 2826807E  TStrb: 1111  TKeep: 1111  TID: 01  TDest: 2  TUser: 3  TLast: 0  Operation# 13
%%         460.0 ns  Log    INFO    in transmitter_1,                Axi Stream Send.  TData: 58B16EBB  TStrb: 1111  TKeep: 1111  TID: 01  TDest: 2  TUser: 3  TLast: 0  Operation# 14
%%         470.0 ns  Log    INFO    in transmitter_1,                Axi Stream Send.  TData: A831C57D  TStrb: 1111  TKeep: 1111  TID: 01  TDest: 2  TUser: 3  TLast: 0  Operation# 15
%%         480.0 ns  Log    INFO    in transmitter_1,                Axi Stream Send.  TData: F22EC5EA  TStrb: 1111  TKeep: 1111  TID: 01  TDest: 2  TUser: 3  TLast: 0  Operation# 16
%%         500.0 ns  Log    INFO    in transmitter_1,                Axi Stream Send.  TData: A9868231  TStrb: 1111  TKeep: 1111  TID: 01  TDest: 2  TUser: 3  TLast: 0  Operation# 17
%%         530.0 ns  Log    INFO    in transmitter_1,                Axi Stream Send.  TData: 4399EA0D  TStrb: 1111  TKeep: 1111  TID: 01  TDest: 2  TUser: 3  TLast: 0  Operation# 18
%%         540.0 ns  Log    INFO    in transmitter_1,                Axi Stream Send.  TData: 1A273D5E  TStrb: 1111  TKeep: 1111  TID: 01  TDest: 2  TUser: 3  TLast: 0  Operation# 19
%%         560.0 ns  Log    INFO    in transmitter_1,                Axi Stream Send.  TData: AB97C509  TStrb: 1111  TKeep: 1111  TID: 01  TDest: 2  TUser: 3  TLast: 0  Operation# 20
%%         600.0 ns  Log    INFO    in transmitter_1,                Axi Stream Send.  TData: 254DD6E3  TStrb: 1111  TKeep: 1111  TID: 01  TDest: 2  TUser: 3  TLast: 0  Operation# 21
%%         610.0 ns  Log    INFO    in transmitter_1,                Axi Stream Send.  TData: FCFEECED  TStrb: 1111  TKeep: 1111  TID: 01  TDest: 2  TUser: 3  TLast: 0  Operation# 22
%%         670.0 ns  Log    INFO    in transmitter_1,                Axi Stream Send.  TData: 8B07100C  TStrb: 1111  TKeep: 1111  TID: 01  TDest: 2  TUser: 3  TLast: 0  Operation# 23
%%         690.0 ns  Log    INFO    in transmitter_1,                Axi Stream Send.  TData: 7A258AF4  TStrb: 1111  TKeep: 1111  TID: 01  TDest: 2  TUser: 3  TLast: 0  Operation# 24
%%         710.0 ns  Log    INFO    in transmitter_1,                Axi Stream Send.  TData: CFE2E9F5  TStrb: 1111  TKeep: 1111  TID: 01  TDest: 2  TUser: 3  TLast: 0  Operation# 25
%%         730.0 ns  Log    INFO    in transmitter_1,                Axi Stream Send.  TData: 6301A366  TStrb: 1111  TKeep: 1111  TID: 01  TDest: 2  TUser: 3  TLast: 0  Operation# 26
%%         740.0 ns  Log    INFO    in transmitter_1,                Axi Stream Send.  TData: DA12049B  TStrb: 1111  TKeep: 1111  TID: 01  TDest: 2  TUser: 3  TLast: 0  Operation# 27
%%         750.0 ns  Log    INFO    in transmitter_1,                Axi Stream Send.  TData: B579F153  TStrb: 1111  TKeep: 1111  TID: 01  TDest: 2  TUser: 3  TLast: 0  Operation# 28
%%         770.0 ns  Log    INFO    in transmitter_1,                Axi Stream Send.  TData: 9988BCB8  TStrb: 1111  TKeep: 1111  TID: 01  TDest: 2  TUser: 3  TLast: 0  Operation# 29
%%         780.0 ns  Log    INFO    in transmitter_1,                Axi Stream Send.  TData: D28A8937  TStrb: 1111  TKeep: 1111  TID: 01  TDest: 2  TUser: 3  TLast: 0  Operation# 30
%%         790.0 ns  Log    INFO    in transmitter_1,                Axi Stream Send.  TData: ED91580B  TStrb: 1111  TKeep: 1111  TID: 01  TDest: 2  TUser: 3  TLast: 0  Operation# 31
%%         870.0 ns  Log    INFO    in transmitter_1,                Axi Stream Send.  TData: 1095099F  TStrb: 1111  TKeep: 1111  TID: 01  TDest: 2  TUser: 3  TLast: 0  Operation# 32
%%         890.0 ns  Log    INFO    in transmitter_1,                Axi Stream Send.  TData: B8BD3ED0  TStrb: 1111  TKeep: 1111  TID: 01  TDest: 2  TUser: 3  TLast: 0  Operation# 33
%%         900.0 ns  Log    INFO    in transmitter_1,                Axi Stream Send.  TData: A6A851B4  TStrb: 1111  TKeep: 1111  TID: 01  TDest: 2  TUser: 3  TLast: 0  Operation# 34
%%         920.0 ns  Log    INFO    in transmitter_1,                Axi Stream Send.  TData: A900D2DB  TStrb: 1111  TKeep: 1111  TID: 01  TDest: 2  TUser: 3  TLast: 0  Operation# 35
%%         940.0 ns  Log    INFO    in transmitter_1,                Axi Stream Send.  TData: 8544F5AD  TStrb: 1111  TKeep: 1111  TID: 01  TDest: 2  TUser: 3  TLast: 0  Operation# 36
%%         950.0 ns  Log    INFO    in transmitter_1,                Axi Stream Send.  TData: 97844CCD  TStrb: 1111  TKeep: 1111  TID: 01  TDest: 2  TUser: 3  TLast: 0  Operation# 37
%%         960.0 ns  Log    INFO    in transmitter_1,                Axi Stream Send.  TData: 679F8CD0  TStrb: 1111  TKeep: 1111  TID: 01  TDest: 2  TUser: 3  TLast: 0  Operation# 38
%%         990.0 ns  Log    INFO    in transmitter_1,                Axi Stream Send.  TData: 148493C5  TStrb: 1111  TKeep: 1111  TID: 01  TDest: 2  TUser: 3  TLast: 0  Operation# 39
%%        1010.0 ns  Log    INFO    in transmitter_1,                Axi Stream Send.  TData: F24CE3F4  TStrb: 1111  TKeep: 1111  TID: 01  TDest: 2  TUser: 3  TLast: 0  Operation# 40
%%        1070.0 ns  Log    INFO    in transmitter_1,                Axi Stream Send.  TData: 0CC59F58  TStrb: 1111  TKeep: 1111  TID: 01  TDest: 2  TUser: 3  TLast: 0  Operation# 41
%%        1080.0 ns  Log    INFO    in transmitter_1,                Axi Stream Send.  TData: 3DAF41C6  TStrb: 1111  TKeep: 1111  TID: 01  TDest: 2  TUser: 3  TLast: 0  Operation# 42
%%        1100.0 ns  Log    INFO    in transmitter_1,                Axi Stream Send.  TData: 3FCA3FE1  TStrb: 1111  TKeep: 1111  TID: 01  TDest: 2  TUser: 3  TLast: 0  Operation# 43
%%        1110.0 ns  Log    INFO    in transmitter_1,                Axi Stream Send.  TData: 5D0B59BD  TStrb: 1111  TKeep: 1111  TID: 01  TDest: 2  TUser: 3  TLast: 0  Operation# 44
%%        1130.0 ns  Log    INFO    in transmitter_1,                Axi Stream Send.  TData: 64169BB0  TStrb: 1111  TKeep: 1111  TID: 01  TDest: 2  TUser: 3  TLast: 0  Operation# 45
%%        1140.0 ns  Log    INFO    in transmitter_1,                Axi Stream Send.  TData: 7F078DA0  TStrb: 1111  TKeep: 1111  TID: 01  TDest: 2  TUser: 3  TLast: 0  Operation# 46
%%        1170.0 ns  Log    INFO    in transmitter_1,                Axi Stream Send.  TData: C6A09573  TStrb: 1111  TKeep: 1111  TID: 01  TDest: 2  TUser: 3  TLast: 0  Operation# 47
%%        1180.0 ns  Log    INFO    in transmitter_1,                Axi Stream Send.  TData: F2F0B18D  TStrb: 1111  TKeep: 1111  TID: 01  TDest: 2  TUser: 3  TLast: 0  Operation# 48
%%        1200.0 ns  Log    INFO    in transmitter_1,                Axi Stream Send.  TData: 1FD98B8D  TStrb: 1111  TKeep: 1111  TID: 01  TDest: 2  TUser: 3  TLast: 0  Operation# 49
%%        1210.0 ns  Log    INFO    in transmitter_1,                Axi Stream Send.  TData: A6208394  TStrb: 1111  TKeep: 1111  TID: 01  TDest: 2  TUser: 3  TLast: 0  Operation# 50
%%        1240.0 ns  Log    INFO    in transmitter_1,                Axi Stream Send.  TData: 7B5FDD8D  TStrb: 1111  TKeep: 1111  TID: 01  TDest: 2  TUser: 3  TLast: 0  Operation# 51
%%        1310.0 ns  Log    INFO    in transmitter_1,                Axi Stream Send.  TData: XXXXE1ED  TStrb: 0011  TKeep: 0011  TID: 01  TDest: 2  TUser: 3  TLast: 1  Operation# 52
%%        1320.0 ns  Log    INFO    in receiver_1,                   Burst Receive.  Operation# 1  Last Data: ----E1ED  TID: 01  TDest: 2  TUser: 3  TLast: 1
%%        1320.0 ns  Log    PASSED  in Default,                      Receiver, ID:  Received : 01
%%        1320.0 ns  Log    PASSED  in Default,                      Receiver, Dest:  Received : 2
%%        1320.0 ns  Log    PASSED  in Default,                      Receiver, User:  Received : 3
%%        1320.0 ns  Log    ALWAYS  in Default,                      Received Packet A1 of length 206
%%        1320.0 ns  Log    PASSED  in Testbench: SB1,               Received: 88   Item Number: 1
%%        1320.0 ns  Log    PASSED  in Testbench: SB1,               Received: 03   Item Number: 2
%%        1320.0 ns  Log    PASSED  in Testbench: SB1,               Received: 64   Item Number: 3
%%        1320.0 ns  Log    PASSED  in Testbench: SB1,               Received: EE   Item Number: 4
%%        1320.0 ns  Log    PASSED  in Testbench: SB1,               Received: 87   Item Number: 5
%%        1320.0 ns  Log    PASSED  in Testbench: SB1,               Received: 75   Item Number: 6
%%        1320.0 ns  Log    PASSED  in Testbench: SB1,               Received: 11   Item Number: 7
%%        1320.0 ns  Log    PASSED  in Testbench: SB1,               Received: 33   Item Number: 8
%%        1320.0 ns  Log    PASSED  in Testbench: SB1,               Received: CC   Item Number: 9
%%        1320.0 ns  Log    PASSED  in Testbench: SB1,               Received: 89   Item Number: 10
%%        1320.0 ns  Log    PASSED  in Testbench: SB1,               Received: 71   Item Number: 11
%%        1320.0 ns  Log    PASSED  in Testbench: SB1,               Received: FA   Item Number: 12
%%        1320.0 ns  Log    PASSED  in Testbench: SB1,               Received: 95   Item Number: 13
%%        1320.0 ns  Log    PASSED  in Testbench: SB1,               Received: 07   Item Number: 14
%%        1320.0 ns  Log    PASSED  in Testbench: SB1,               Received: 60   Item Number: 15
%%        1320.0 ns  Log    PASSED  in Testbench: SB1,               Received: 62   Item Number: 16
%%        1320.0 ns  Log    PASSED  in Testbench: SB1,               Received: 07   Item Number: 17
%%        1320.0 ns  Log    PASSED  in Testbench: SB1,               Received: 4C   Item Number: 18
%%        1320.0 ns  Log    PASSED  in Testbench: SB1,               Received: E4   Item Number: 19
%%        1320.0 ns  Log    PASSED  in Testbench: SB1,               Received: 0E   Item Number: 20
%%        1320.0 ns  Log    PASSED  in Testbench: SB1,               Received: FB   Item Number: 21
%%        1320.0 ns  Log    PASSED  in Testbench: SB1,               Received: 6E   Item Number: 22
%%        1320.0 ns  Log    PASSED  in Testbench: SB1,               Received: 88   Item Number: 23
%%        1320.0 ns  Log    PASSED  in Testbench: SB1,               Received: 51   Item Number: 24
%%        1320.0 ns  Log    PASSED  in Testbench: SB1,               Received: 59   Item Number: 25
%%        1320.0 ns  Log    PASSED  in Testbench: SB1,               Received: 06   Item Number: 26
%%        1320.0 ns  Log    PASSED  in Testbench: SB1,               Received: 7C   Item Number: 27
%%        1320.0 ns  Log    PASSED  in Testbench: SB1,               Received: 6A   Item Number: 28
%%        1320.0 ns  Log    PASSED  in Testbench: SB1,               Received: A8   Item Number: 29
%%        1320.0 ns  Log    PASSED  in Testbench: SB1,               Received: 68   Item Number: 30
%%        1320.0 ns  Log    PASSED  in Testbench: SB1,               Received: E2   Item Number: 31
%%        1320.0 ns  Log    PASSED  in Testbench: SB1,               Received: 51   Item Number: 32
%%        1320.0 ns  Log    PASSED  in Testbench: SB1,               Received: EC   Item Number: 33
%%        1320.0 ns  Log    PASSED  in Testbench: SB1,               Received: 9B   Item Number: 34
%%        1320.0 ns  Log    PASSED  in Testbench: SB1,               Received: 1C   Item Number: 35
%%        1320.0 ns  Log    PASSED  in Testbench: SB1,               Received: D5   Item Number: 36
%%        1320.0 ns  Log    PASSED  in Testbench: SB1,               Received: 17   Item Number: 37
%%        1320.0 ns  Log    PASSED  in Testbench: SB1,               Received: 27   Item Number: 38
%%        1320.0 ns  Log    PASSED  in Testbench: SB1,               Received: BE   Item Number: 39
%%        1320.0 ns  Log    PASSED  in Testbench: SB1,               Received: 8D   Item Number: 40
%%        1320.0 ns  Log    PASSED  in Testbench: SB1,               Received: EF   Item Number: 41
%%        1320.0 ns  Log    PASSED  in Testbench: SB1,               Received: 8D   Item Number: 42
%%        1320.0 ns  Log    PASSED  in Testbench: SB1,               Received: 06   Item Number: 43
%%        1320.0 ns  Log    PASSED  in Testbench: SB1,               Received: A6   Item Number: 44
%%        1320.0 ns  Log    PASSED  in Testbench: SB1,               Received: E3   Item Number: 45
%%        1320.0 ns  Log    PASSED  in Testbench: SB1,               Received: F6   Item Number: 46
%%        1320.0 ns  Log    PASSED  in Testbench: SB1,               Received: A3   Item Number: 47
%%        1320.0 ns  Log    PASSED  in Testbench: SB1,               Received: 8E   Item Number: 48
%%        1320.0 ns  Log    PASSED  in Testbench: SB1,               Received: 7E   Item Number: 49
%%        1320.0 ns  Log    PASSED  in Testbench: SB1,               Received: 80   Item Number: 50
%%        1320.0 ns  Log    PASSED  in Testbench: SB1,               Received: 26   Item Number: 51
%%        1320.0 ns  Log    PASSED  in Testbench: SB1,               Received: 28   Item Number: 52
%%        1320.0 ns  Log    PASSED  in Testbench: SB1,               Received: BB   Item Number: 53
%%        1320.0 ns  Log    PASSED  in Testbench: SB1,               Received: 6E   Item Number: 54
%%        1320.0 ns  Log    PASSED  in Testbench: SB1,               Received: B1   Item Number: 55
%%        1320.0 ns  Log    PASSED  in Testbench: SB1,               Received: 58   Item Number: 56
%%        1320.0 ns  Log    PASSED  in Testbench: SB1,               Received: 7D   Item Number: 57
%%        1320.0 ns  Log    PASSED  in Testbench: SB1,               Received: C5   Item Number: 58
%%        1320.0 ns  Log    PASSED  in Testbench: SB1,               Received: 31   Item Number: 59
%%        1320.0 ns  Log    PASSED  in Testbench: SB1,               Received: A8   Item Number: 60
%%        1320.0 ns  Log    PASSED  in Testbench: SB1,               Received: EA   Item Number: 61
%%        1320.0 ns  Log    PASSED  in Testbench: SB1,               Received: C5   Item Number: 62
%%        1320.0 ns  Log    PASSED  in Testbench: SB1,               Received: 2E   Item Number: 63
%%        1320.0 ns  Log    PASSED  in Testbench: SB1,               Received: F2   Item Number: 64
%%        1320.0 ns  Log    PASSED  in Testbench: SB1,               Received: 31   Item Number: 65
%%        1320.0 ns  Log    PASSED  in Testbench: SB1,               Received: 82   Item Number: 66
%%        1320.0 ns  Log    PASSED  in Testbench: SB1,               Received: 86   Item Number: 67
%%        1320.0 ns  Log    PASSED  in Testbench: SB1,               Received: A9   Item Number: 68
%%        1320.0 ns  Log    PASSED  in Testbench: SB1,               Received: 0D   Item Number: 69
%%        1320.0 ns  Log    PASSED  in Testbench: SB1,               Received: EA   Item Number: 70
%%        1320.0 ns  Log    PASSED  in Testbench: SB1,               Received: 99   Item Number: 71
%%        1320.0 ns  Log    PASSED  in Testbench: SB1,               Received: 43   Item Number: 72
%%        1320.0 ns  Log    PASSED  in Testbench: SB1,               Received: 5E   Item Number: 73
%%        1320.0 ns  Log    PASSED  in Testbench: SB1,               Received: 3D   Item Number: 74
%%        1320.0 ns  Log    PASSED  in Testbench: SB1,               Received: 27   Item Number: 75
%%        1320.0 ns  Log    PASSED  in Testbench: SB1,               Received: 1A   Item Number: 76
%%        1320.0 ns  Log    PASSED  in Testbench: SB1,               Received: 09   Item Number: 77
%%        1320.0 ns  Log    PASSED  in Testbench: SB1,               Received: C5   Item Number: 78
%%        1320.0 ns  Log    PASSED  in Testbench: SB1,               Received: 97   Item Number: 79
%%        1320.0 ns  Log    PASSED  in Testbench: SB1,               Received: AB   Item Number: 80
%%        1320.0 ns  Log    PASSED  in Testbench: SB1,               Received: E3   Item Number: 81
%%        1320.0 ns  Log    PASSED  in Testbench: SB1,               Received: D6   Item Number: 82
%%        1320.0 ns  Log    PASSED  in Testbench: SB1,               Received: 4D   Item Number: 83
%%        1320.0 ns  Log    PASSED  in Testbench: SB1,               Received: 25   Item Number: 84
%%        1320.0 ns  Log    PASSED  in Testbench: SB1,               Received: ED   Item Number: 85
%%        1320.0 ns  Log    PASSED  in Testbench: SB1,               Received: EC   Item Number: 86
%%        1320.0 ns  Log    PASSED  in Testbench: SB1,               Received: FE   Item Number: 87
%%        1320.0 ns  Log    PASSED  in Testbench: SB1,               Received: FC   Item Number: 88
%%        1320.0 ns  Log    PASSED  in Testbench: SB1,               Received: 0C   Item Number: 89
%%        1320.0 ns  Log    PASSED  in Testbench: SB1,               Received: 10   Item Number: 90
%%        1320.0 ns  Log    PASSED  in Testbench: SB1,               Received: 07   Item Number: 91
%%        1320.0 ns  Log    PASSED  in Testbench: SB1,               Received: 8B   Item Number: 92
%%        1320.0 ns  Log    PASSED  in Testbench: SB1,               Received: F4   Item Number: 93
%%        1320.0 ns  Log    PASSED  in Testbench: SB1,               Received: 8A   Item Number: 94
%%        1320.0 ns  Log    PASSED  in Testbench: SB1,               Received: 25   Item Number: 95
%%        1320.0 ns  Log    PASSED  in Testbench: SB1,               Received: 7A   Item Number: 96
%%        1320.0 ns  Log    PASSED  in Testbench: SB1,               Received: F5   Item Number: 97
%%        1320.0 ns  Log    PASSED  in Testbench: SB1,               Received: E9   Item Number: 98
%%        1320.0 ns  Log    PASSED  in Testbench: SB1,               Received: E2   Item Number: 99
%%        1320.0 ns  Log    PASSED  in Testbench: SB1,               Received: CF   Item Number: 100
%%        1320.0 ns  Log    PASSED  in Testbench: SB1,               Received: 66   Item Number: 101
%%        1320.0 ns  Log    PASSED  in Testbench: SB1,               Received: A3   Item Number: 102
%%        1320.0 ns  Log    PASSED  in Testbench: SB1,               Received: 01   Item Number: 103
%%        1320.0 ns  Log    PASSED  in Testbench: SB1,               Received: 63   Item Number: 104
%%        1320.0 ns  Log    PASSED  in Testbench: SB1,               Received: 9B   Item Number: 105
%%        1320.0 ns  Log    PASSED  in Testbench: SB1,               Received: 04   Item Number: 106
%%        1320.0 ns  Log    PASSED  in Testbench: SB1,               Received: 12   Item Number: 107
%%        1320.0 ns  Log    PASSED  in Testbench: SB1,               Received: DA   Item Number: 108
%%        1320.0 ns  Log    PASSED  in Testbench: SB1,               Received: 53   Item Number: 109
%%        1320.0 ns  Log    PASSED  in Testbench: SB1,               Received: F1   Item Number: 110
%%        1320.0 ns  Log    PASSED  in Testbench: SB1,               Received: 79   Item Number: 111
%%        1320.0 ns  Log    PASSED  in Testbench: SB1,               Received: B5   Item Number: 112
%%        1320.0 ns  Log    PASSED  in Testbench: SB1,               Received: B8   Item Number: 113
%%        1320.0 ns  Log    PASSED  in Testbench: SB1,               Received: BC   Item Number: 114
%%        1320.0 ns  Log    PASSED  in Testbench: SB1,               Received: 88   Item Number: 115
%%        1320.0 ns  Log    PASSED  in Testbench: SB1,               Received: 99   Item Number: 116
%%        1320.0 ns  Log    PASSED  in Testbench: SB1,               Received: 37   Item Number: 117
%%        1320.0 ns  Log    PASSED  in Testbench: SB1,               Received: 89   Item Number: 118
%%        1320.0 ns  Log    PASSED  in Testbench: SB1,               Received: 8A   Item Number: 119
%%        1320.0 ns  Log    PASSED  in Testbench: SB1,               Received: D2   Item Number: 120
%%        1320.0 ns  Log    PASSED  in Testbench: SB1,               Received: 0B   Item Number: 121
%%        1320.0 ns  Log    PASSED  in Testbench: SB1,               Received: 58   Item Number: 122
%%        1320.0 ns  Log    PASSED  in Testbench: SB1,               Received: 91   Item Number: 123
%%        1320.0 ns  Log    PASSED  in Testbench: SB1,               Received: ED   Item Number: 124
%%        1320.0 ns  Log    PASSED  in Testbench: SB1,               Received: 9F   Item Number: 125
%%        1320.0 ns  Log    PASSED  in Testbench: SB1,               Received: 09   Item Number: 126
%%        1320.0 ns  Log    PASSED  in Testbench: SB1,               Received: 95   Item Number: 127
%%        1320.0 ns  Log    PASSED  in Testbench: SB1,               Received: 10   Item Number: 128
%%        1320.0 ns  Log    PASSED  in Testbench: SB1,               Received: D0   Item Number: 129
%%        1320.0 ns  Log    PASSED  in Testbench: SB1,               Received: 3E   Item Number: 130
%%        1320.0 ns  Log    PASSED  in Testbench: SB1,               Received: BD   Item Number: 131
%%        1320.0 ns  Log    PASSED  in Testbench: SB1,               Received: B8   Item Number: 132
%%        1320.0 ns  Log    PASSED  in Testbench: SB1,               Received: B4   Item Number: 133
%%        1320.0 ns  Log    PASSED  in Testbench: SB1,               Received: 51   Item Number: 134
%%        1320.0 ns  Log    PASSED  in Testbench: SB1,               Received: A8   Item Number: 135
%%        1320.0 ns  Log    PASSED  in Testbench: SB1,               Received: A6   Item Number: 136
%%        1320.0 ns  Log    PASSED  in Testbench: SB1,               Received: DB   Item Number: 137
%%        1320.0 ns  Log    PASSED  in Testbench: SB1,               Received: D2   Item Number: 138
%%        1320.0 ns  Log    PASSED  in Testbench: SB1,               Received: 00   Item Number: 139
%%        1320.0 ns  Log    PASSED  in Testbench: SB1,               Received: A9   Item Number: 140
%%        1320.0 ns  Log    PASSED  in Testbench: SB1,               Received: AD   Item Number: 141
%%        1320.0 ns  Log    PASSED  in Testbench: SB1,               Received: F5   Item Number: 142
%%        1320.0 ns  Log    PASSED  in Testbench: SB1,               Received: 44   Item Number: 143
%%        1320.0 ns  Log    PASSED  in Testbench: SB1,               Received: 85   Item Number: 144
%%        1320.0 ns  Log    PASSED  in Testbench: SB1,               Received: CD   Item Number: 145
%%        1320.0 ns  Log    PASSED  in Testbench: SB1,               Received: 4C   Item Number: 146
%%        1320.0 ns  Log    PASSED  in Testbench: SB1,               Received: 84   Item Number: 147
%%        1320.0 ns  Log    PASSED  in Testbench: SB1,               Received: 97   Item Number: 148
%%        1320.0 ns  Log    PASSED  in Testbench: SB1,               Received: D0   Item Number: 149
%%        1320.0 ns  Log    PASSED  in Testbench: SB1,               Received: 8C   Item Number: 150
%%        1320.0 ns  Log    PASSED  in Testbench: SB1,               Received: 9F   Item Number: 151
%%        1320.0 ns  Log    PASSED  in Testbench: SB1,               Received: 67   Item Number: 152
%%        1320.0 ns  Log    PASSED  in Testbench: SB1,               Received: C5   Item Number: 153
%%        1320.0 ns  Log    PASSED  in Testbench: SB1,               Received: 93   Item Number: 154
%%        1320.0 ns  Log    PASSED  in Testbench: SB1,               Received: 84   Item Number: 155
%%        1320.0 ns  Log    PASSED  in Testbench: SB1,               Received: 14   Item Number: 156
%%        1320.0 ns  Log    PASSED  in Testbench: SB1,               Received: F4   Item Number: 157
%%        1320.0 ns  Log    PASSED  in Testbench: SB1,               Received: E3   Item Number: 158
%%        1320.0 ns  Log    PASSED  in Testbench: SB1,               Received: 4C   Item Number: 159
%%        1320.0 ns  Log    PASSED  in Testbench: SB1,               Received: F2   Item Number: 160
%%        1320.0 ns  Log    PASSED  in Testbench: SB1,               Received: 58   Item Number: 161
%%        1320.0 ns  Log    PASSED  in Testbench: SB1,               Received: 9F   Item Number: 162
%%        1320.0 ns  Log    PASSED  in Testbench: SB1,               Received: C5   Item Number: 163
%%        1320.0 ns  Log    PASSED  in Testbench: SB1,               Received: 0C   Item Number: 164
%%        1320.0 ns  Log    PASSED  in Testbench: SB1,               Received: C6   Item Number: 165
%%        1320.0 ns  Log    PASSED  in Testbench: SB1,               Received: 41   Item Number: 166
%%        1320.0 ns  Log    PASSED  in Testbench: SB1,               Received: AF   Item Number: 167
%%        1320.0 ns  Log    PASSED  in Testbench: SB1,               Received: 3D   Item Number: 168
%%        1320.0 ns  Log    PASSED  in Testbench: SB1,               Received: E1   Item Number: 169
%%        1320.0 ns  Log    PASSED  in Testbench: SB1,               Received: 3F   Item Number: 170
%%        1320.0 ns  Log    PASSED  in Testbench: SB1,               Received: CA   Item Number: 171
%%        1320.0 ns  Log    PASSED  in Testbench: SB1,               Received: 3F   Item Number: 172
%%        1320.0 ns  Log    PASSED  in Testbench: SB1,               Received: BD   Item Number: 173
%%        1320.0 ns  Log    PASSED  in Testbench: SB1,               Received: 59   Item Number: 174
%%        1320.0 ns  Log    PASSED  in Testbench: SB1,               Received: 0B   Item Number: 175
%%        1320.0 ns  Log    PASSED  in Testbench: SB1,               Received: 5D   Item Number: 176
%%        1320.0 ns  Log    PASSED  in Testbench: SB1,               Received: B0   Item Number: 177
%%        1320.0 ns  Log    PASSED  in Testbench: SB1,               Received: 9B   Item Number: 178
%%        1320.0 ns  Log    PASSED  in Testbench: SB1,               Received: 16   Item Number: 179
%%        1320.0 ns  Log    PASSED  in Testbench: SB1,               Received: 64   Item Number: 180
%%        1320.0 ns  Log    PASSED  in Testbench: SB1,               Received: A0   Item Number: 181
%%        1320.0 ns  Log    PASSED  in Testbench: SB1,               Received: 8D   Item Number: 182
%%        1320.0 ns  Log    PASSED  in Testbench: SB1,               Received: 07   Item Number: 183
%%        1320.0 ns  Log    PASSED  in Testbench: SB1,               Received: 7F   Item Number: 184
%%        1320.0 ns  Log    PASSED  in Testbench: SB1,               Received: 73   Item Number: 185
%%        1320.0 ns  Log    PASSED  in Testbench: SB1,               Received: 95   Item Number: 186
%%        1320.0 ns  Log    PASSED  in Testbench: SB1,               Received: A0   Item Number: 187
%%        1320.0 ns  Log    PASSED  in Testbench: SB1,               Received: C6   Item Number: 188
%%        1320.0 ns  Log    PASSED  in Testbench: SB1,               Received: 8D   Item Number: 189
%%        1320.0 ns  Log    PASSED  in Testbench: SB1,               Received: B1   Item Number: 190
%%        1320.0 ns  Log    PASSED  in Testbench: SB1,               Received: F0   Item Number: 191
%%        1320.0 ns  Log    PASSED  in Testbench: SB1,               Received: F2   Item Number: 192
%%        1320.0 ns  Log    PASSED  in Testbench: SB1,               Received: 8D   Item Number: 193
%%        1320.0 ns  Log    PASSED  in Testbench: SB1,               Received: 8B   Item Number: 194
%%        1320.0 ns  Log    PASSED  in Testbench: SB1,               Received: D9   Item Number: 195
%%        1320.0 ns  Log    PASSED  in Testbench: SB1,               Received: 1F   Item Number: 196
%%        1320.0 ns  Log    PASSED  in Testbench: SB1,               Received: 94   Item Number: 197
%%        1320.0 ns  Log    PASSED  in Testbench: SB1,               Received: 83   Item Number: 198
%%        1320.0 ns  Log    PASSED  in Testbench: SB1,               Received: 20   Item Number: 199
%%        1320.0 ns  Log    PASSED  in Testbench: SB1,               Received: A6   Item Number: 200
%%        1320.0 ns  Log    PASSED  in Testbench: SB1,               Received: 8D   Item Number: 201
%%        1320.0 ns  Log    PASSED  in Testbench: SB1,               Received: DD   Item Number: 202
%%        1320.0 ns  Log    PASSED  in Testbench: SB1,               Received: 5F   Item Number: 203
%%        1320.0 ns  Log    PASSED  in Testbench: SB1,               Received: 7B   Item Number: 204
%%        1320.0 ns  Log    PASSED  in Testbench: SB1,               Received: ED   Item Number: 205
%%        1320.0 ns  Log    PASSED  in Testbench: SB1,               Received: E1   Item Number: 206
%%        1330.0 ns  Log    INFO    in transmitter_1,                Axi Stream Send.  TData: 8978E324  TStrb: 1111  TKeep: 1111  TID: 02  TDest: 3  TUser: 4  TLast: 0  Operation# 53
%%        1340.0 ns  Log    INFO    in transmitter_1,                Axi Stream Send.  TData: 73F0101B  TStrb: 1111  TKeep: 1111  TID: 02  TDest: 3  TUser: 4  TLast: 0  Operation# 54
%%        1360.0 ns  Log    INFO    in transmitter_1,                Axi Stream Send.  TData: C99DFD13  TStrb: 1111  TKeep: 1111  TID: 02  TDest: 3  TUser: 4  TLast: 0  Operation# 55
%%        1370.0 ns  Log    INFO    in transmitter_1,                Axi Stream Send.  TData: EBC01C14  TStrb: 1111  TKeep: 1111  TID: 02  TDest: 3  TUser: 4  TLast: 0  Operation# 56
%%        1400.0 ns  Log    INFO    in transmitter_1,                Axi Stream Send.  TData: AA5DCDC1  TStrb: 1111  TKeep: 1111  TID: 02  TDest: 3  TUser: 4  TLast: 0  Operation# 57
%%        1410.0 ns  Log    INFO    in transmitter_1,                Axi Stream Send.  TData: 9A0A7B38  TStrb: 1111  TKeep: 1111  TID: 02  TDest: 3  TUser: 4  TLast: 0  Operation# 58
%%        1440.0 ns  Log    INFO    in transmitter_1,                Axi Stream Send.  TData: 11B7F882  TStrb: 1111  TKeep: 1111  TID: 02  TDest: 3  TUser: 4  TLast: 0  Operation# 59
%%        1460.0 ns  Log    INFO    in transmitter_1,                Axi Stream Send.  TData: 1F2EBB64  TStrb: 1111  TKeep: 1111  TID: 02  TDest: 3  TUser: 4  TLast: 0  Operation# 60
%%        1530.0 ns  Log    INFO    in transmitter_1,                Axi Stream Send.  TData: E557BF8E  TStrb: 1111  TKeep: 1111  TID: 02  TDest: 3  TUser: 4  TLast: 0  Operation# 61
%%        1540.0 ns  Log    INFO    in transmitter_1,                Axi Stream Send.  TData: 07FF67CF  TStrb: 1111  TKeep: 1111  TID: 02  TDest: 3  TUser: 4  TLast: 0  Operation# 62
%%        1560.0 ns  Log    INFO    in transmitter_1,                Axi Stream Send.  TData: DC4586A0  TStrb: 1111  TKeep: 1111  TID: 02  TDest: 3  TUser: 4  TLast: 0  Operation# 63
%%        1580.0 ns  Log    INFO    in transmitter_1,                Axi Stream Send.  TData: 9B566CFE  TStrb: 1111  TKeep: 1111  TID: 02  TDest: 3  TUser: 4  TLast: 0  Operation# 64
%%        1590.0 ns  Log    INFO    in transmitter_1,                Axi Stream Send.  TData: 5F0C381D  TStrb: 1111  TKeep: 1111  TID: 02  TDest: 3  TUser: 4  TLast: 0  Operation# 65
%%        1610.0 ns  Log    INFO    in transmitter_1,                Axi Stream Send.  TData: A091C854  TStrb: 1111  TKeep: 1111  TID: 02  TDest: 3  TUser: 4  TLast: 0  Operation# 66
%%        1630.0 ns  Log    INFO    in transmitter_1,                Axi Stream Send.  TData: 11D8A681  TStrb: 1111  TKeep: 1111  TID: 02  TDest: 3  TUser: 4  TLast: 0  Operation# 67
%%        1640.0 ns  Log    INFO    in transmitter_1,                Axi Stream Send.  TData: 6B677766  TStrb: 1111  TKeep: 1111  TID: 02  TDest: 3  TUser: 4  TLast: 0  Operation# 68
%%        1650.0 ns  Log    INFO    in transmitter_1,                Axi Stream Send.  TData: 6328404F  TStrb: 1111  TKeep: 1111  TID: 02  TDest: 3  TUser: 4  TLast: 0  Operation# 69
%%        1710.0 ns  Log    INFO    in transmitter_1,                Axi Stream Send.  TData: 2AF5805F  TStrb: 1111  TKeep: 1111  TID: 02  TDest: 3  TUser: 4  TLast: 0  Operation# 70
%%        1720.0 ns  Log    INFO    in transmitter_1,                Axi Stream Send.  TData: 6E866F79  TStrb: 1111  TKeep: 1111  TID: 02  TDest: 3  TUser: 4  TLast: 0  Operation# 71
%%        1770.0 ns  Log    INFO    in transmitter_1,                Axi Stream Send.  TData: 361EB018  TStrb: 1111  TKeep: 1111  TID: 02  TDest: 3  TUser: 4  TLast: 0  Operation# 72
%%        1790.0 ns  Log    INFO    in transmitter_1,                Axi Stream Send.  TData: 3A8C8D0D  TStrb: 1111  TKeep: 1111  TID: 02  TDest: 3  TUser: 4  TLast: 0  Operation# 73
%%        1800.0 ns  Log    INFO    in transmitter_1,                Axi Stream Send.  TData: 4EDCCF78  TStrb: 1111  TKeep: 1111  TID: 02  TDest: 3  TUser: 4  TLast: 0  Operation# 74
%%        1810.0 ns  Log    INFO    in transmitter_1,                Axi Stream Send.  TData: D1D558F6  TStrb: 1111  TKeep: 1111  TID: 02  TDest: 3  TUser: 4  TLast: 0  Operation# 75
%%        1830.0 ns  Log    INFO    in transmitter_1,                Axi Stream Send.  TData: 32F75890  TStrb: 1111  TKeep: 1111  TID: 02  TDest: 3  TUser: 4  TLast: 0  Operation# 76
%%        1860.0 ns  Log    INFO    in transmitter_1,                Axi Stream Send.  TData: EBAA6161  TStrb: 1111  TKeep: 1111  TID: 02  TDest: 3  TUser: 4  TLast: 0  Operation# 77
%%        1880.0 ns  Log    INFO    in transmitter_1,                Axi Stream Send.  TData: C73DFFC1  TStrb: 1111  TKeep: 1111  TID: 02  TDest: 3  TUser: 4  TLast: 0  Operation# 78
%%        1900.0 ns  Log    INFO    in transmitter_1,                Axi Stream Send.  TData: C4CC9154  TStrb: 1111  TKeep: 1111  TID: 02  TDest: 3  TUser: 4  TLast: 0  Operation# 79
%%        1920.0 ns  Log    INFO    in transmitter_1,                Axi Stream Send.  TData: E3CF8860  TStrb: 1111  TKeep: 1111  TID: 02  TDest: 3  TUser: 4  TLast: 0  Operation# 80
%%        1990.0 ns  Log    INFO    in transmitter_1,                Axi Stream Send.  TData: 819AE262  TStrb: 1111  TKeep: 1111  TID: 02  TDest: 3  TUser: 4  TLast: 0  Operation# 81
%%        2010.0 ns  Log    INFO    in transmitter_1,                Axi Stream Send.  TData: 0933AE25  TStrb: 1111  TKeep: 1111  TID: 02  TDest: 3  TUser: 4  TLast: 0  Operation# 82
%%        2030.0 ns  Log    INFO    in transmitter_1,                Axi Stream Send.  TData: 966B61F1  TStrb: 1111  TKeep: 1111  TID: 02  TDest: 3  TUser: 4  TLast: 0  Operation# 83
%%        2040.0 ns  Log    INFO    in transmitter_1,                Axi Stream Send.  TData: EF4B4A48  TStrb: 1111  TKeep: 1111  TID: 02  TDest: 3  TUser: 4  TLast: 0  Operation# 84
%%        2050.0 ns  Log    INFO    in transmitter_1,                Axi Stream Send.  TData: 872AC015  TStrb: 1111  TKeep: 1111  TID: 02  TDest: 3  TUser: 4  TLast: 0  Operation# 85
%%        2070.0 ns  Log    INFO    in transmitter_1,                Axi Stream Send.  TData: 2421B27B  TStrb: 1111  TKeep: 1111  TID: 02  TDest: 3  TUser: 4  TLast: 0  Operation# 86
%%        2090.0 ns  Log    INFO    in transmitter_1,                Axi Stream Send.  TData: 09AEF3DC  TStrb: 1111  TKeep: 1111  TID: 02  TDest: 3  TUser: 4  TLast: 0  Operation# 87
%%        2110.0 ns  Log    INFO    in transmitter_1,                Axi Stream Send.  TData: 80173821  TStrb: 1111  TKeep: 1111  TID: 02  TDest: 3  TUser: 4  TLast: 0  Operation# 88
%%        2130.0 ns  Log    INFO    in transmitter_1,                Axi Stream Send.  TData: CE6FDB03  TStrb: 1111  TKeep: 1111  TID: 02  TDest: 3  TUser: 4  TLast: 0  Operation# 89
%%        2160.0 ns  Log    INFO    in transmitter_1,                Axi Stream Send.  TData: 3ED5FACC  TStrb: 1111  TKeep: 1111  TID: 02  TDest: 3  TUser: 4  TLast: 0  Operation# 90
%%        2180.0 ns  Log    INFO    in transmitter_1,                Axi Stream Send.  TData: B328C776  TStrb: 1111  TKeep: 1111  TID: 02  TDest: 3  TUser: 4  TLast: 0  Operation# 91
%%        2230.0 ns  Log    INFO    in transmitter_1,                Axi Stream Send.  TData: 5A5A9A3B  TStrb: 1111  TKeep: 1111  TID: 02  TDest: 3  TUser: 4  TLast: 0  Operation# 92
%%        2250.0 ns  Log    INFO    in transmitter_1,                Axi Stream Send.  TData: AA69FDDC  TStrb: 1111  TKeep: 1111  TID: 02  TDest: 3  TUser: 4  TLast: 0  Operation# 93
%%        2270.0 ns  Log    INFO    in transmitter_1,                Axi Stream Send.  TData: XXXX8787  TStrb: 0011  TKeep: 0011  TID: 02  TDest: 3  TUser: 4  TLast: 1  Operation# 94
%%        2280.0 ns  Log    INFO    in transmitter_1,                Axi Stream Send.  TData: D2A65124  TStrb: 1111  TKeep: 1111  TID: 03  TDest: 4  TUser: 5  TLast: 0  Operation# 95
%%        2280.0 ns  Log    INFO    in receiver_1,                   Burst Receive.  Operation# 2  Last Data: ----8787  TID: 02  TDest: 3  TUser: 4  TLast: 1
%%        2280.0 ns  Log    PASSED  in Default,                      Receiver, ID:  Received : 02
%%        2280.0 ns  Log    PASSED  in Default,                      Receiver, Dest:  Received : 3
%%        2280.0 ns  Log    PASSED  in Default,                      Receiver, User:  Received : 4
%%        2280.0 ns  Log    ALWAYS  in Default,                      Received Packet B2 of length 166
%%        2280.0 ns  Log    PASSED  in Testbench: SB1,               Received: 24   Item Number: 207
%%        2280.0 ns  Log    PASSED  in Testbench: SB1,               Received: E3   Item Number: 208
%%        2280.0 ns  Log    PASSED  in Testbench: SB1,               Received: 78   Item Number: 209
%%        2280.0 ns  Log    PASSED  in Testbench: SB1,               Received: 89   Item Number: 210
%%        2280.0 ns  Log    PASSED  in Testbench: SB1,               Received: 1B   Item Number: 211
%%        2280.0 ns  Log    PASSED  in Testbench: SB1,               Received: 10   Item Number: 212
%%        2280.0 ns  Log    PASSED  in Testbench: SB1,               Received: F0   Item Number: 213
%%        2280.0 ns  Log    PASSED  in Testbench: SB1,               Received: 73   Item Number: 214
%%        2280.0 ns  Log    PASSED  in Testbench: SB1,               Received: 13   Item Number: 215
%%        2280.0 ns  Log    PASSED  in Testbench: SB1,               Received: FD   Item Number: 216
%%        2280.0 ns  Log    PASSED  in Testbench: SB1,               Received: 9D   Item Number: 217
%%        2280.0 ns  Log    PASSED  in Testbench: SB1,               Received: C9   Item Number: 218
%%        2280.0 ns  Log    PASSED  in Testbench: SB1,               Received: 14   Item Number: 219
%%        2280.0 ns  Log    PASSED  in Testbench: SB1,               Received: 1C   Item Number: 220
%%        2280.0 ns  Log    PASSED  in Testbench: SB1,               Received: C0   Item Number: 221
%%        2280.0 ns  Log    PASSED  in Testbench: SB1,               Received: EB   Item Number: 222
%%        2280.0 ns  Log    PASSED  in Testbench: SB1,               Received: C1   Item Number: 223
%%        2280.0 ns  Log    PASSED  in Testbench: SB1,               Received: CD   Item Number: 224
%%        2280.0 ns  Log    PASSED  in Testbench: SB1,               Received: 5D   Item Number: 225
%%        2280.0 ns  Log    PASSED  in Testbench: SB1,               Received: AA   Item Number: 226
%%        2280.0 ns  Log    PASSED  in Testbench: SB1,               Received: 38   Item Number: 227
%%        2280.0 ns  Log    PASSED  in Testbench: SB1,               Received: 7B   Item Number: 228
%%        2280.0 ns  Log    PASSED  in Testbench: SB1,               Received: 0A   Item Number: 229
%%        2280.0 ns  Log    PASSED  in Testbench: SB1,               Received: 9A   Item Number: 230
%%        2280.0 ns  Log    PASSED  in Testbench: SB1,               Received: 82   Item Number: 231
%%        2280.0 ns  Log    PASSED  in Testbench: SB1,               Received: F8   Item Number: 232
%%        2280.0 ns  Log    PASSED  in Testbench: SB1,               Received: B7   Item Number: 233
%%        2280.0 ns  Log    PASSED  in Testbench: SB1,               Received: 11   Item Number: 234
%%        2280.0 ns  Log    PASSED  in Testbench: SB1,               Received: 64   Item Number: 235
%%        2280.0 ns  Log    PASSED  in Testbench: SB1,               Received: BB   Item Number: 236
%%        2280.0 ns  Log    PASSED  in Testbench: SB1,               Received: 2E   Item Number: 237
%%        2280.0 ns  Log    PASSED  in Testbench: SB1,               Received: 1F   Item Number: 238
%%        2280.0 ns  Log    PASSED  in Testbench: SB1,               Received: 8E   Item Number: 239
%%        2280.0 ns  Log    PASSED  in Testbench: SB1,               Received: BF   Item Number: 240
%%        2280.0 ns  Log    PASSED  in Testbench: SB1,               Received: 57   Item Number: 241
%%        2280.0 ns  Log    PASSED  in Testbench: SB1,               Received: E5   Item Number: 242
%%        2280.0 ns  Log    PASSED  in Testbench: SB1,               Received: CF   Item Number: 243
%%        2280.0 ns  Log    PASSED  in Testbench: SB1,               Received: 67   Item Number: 244
%%        2280.0 ns  Log    PASSED  in Testbench: SB1,               Received: FF   Item Number: 245
%%        2280.0 ns  Log    PASSED  in Testbench: SB1,               Received: 07   Item Number: 246
%%        2280.0 ns  Log    PASSED  in Testbench: SB1,               Received: A0   Item Number: 247
%%        2280.0 ns  Log    PASSED  in Testbench: SB1,               Received: 86   Item Number: 248
%%        2280.0 ns  Log    PASSED  in Testbench: SB1,               Received: 45   Item Number: 249
%%        2280.0 ns  Log    PASSED  in Testbench: SB1,               Received: DC   Item Number: 250
%%        2280.0 ns  Log    PASSED  in Testbench: SB1,               Received: FE   Item Number: 251
%%        2280.0 ns  Log    PASSED  in Testbench: SB1,               Received: 6C   Item Number: 252
%%        2280.0 ns  Log    PASSED  in Testbench: SB1,               Received: 56   Item Number: 253
%%        2280.0 ns  Log    PASSED  in Testbench: SB1,               Received: 9B   Item Number: 254
%%        2280.0 ns  Log    PASSED  in Testbench: SB1,               Received: 1D   Item Number: 255
%%        2280.0 ns  Log    PASSED  in Testbench: SB1,               Received: 38   Item Number: 256
%%        2280.0 ns  Log    PASSED  in Testbench: SB1,               Received: 0C   Item Number: 257
%%        2280.0 ns  Log    PASSED  in Testbench: SB1,               Received: 5F   Item Number: 258
%%        2280.0 ns  Log    PASSED  in Testbench: SB1,               Received: 54   Item Number: 259
%%        2280.0 ns  Log    PASSED  in Testbench: SB1,               Received: C8   Item Number: 260
%%        2280.0 ns  Log    PASSED  in Testbench: SB1,               Received: 91   Item Number: 261
%%        2280.0 ns  Log    PASSED  in Testbench: SB1,               Received: A0   Item Number: 262
%%        2280.0 ns  Log    PASSED  in Testbench: SB1,               Received: 81   Item Number: 263
%%        2280.0 ns  Log    PASSED  in Testbench: SB1,               Received: A6   Item Number: 264
%%        2280.0 ns  Log    PASSED  in Testbench: SB1,               Received: D8   Item Number: 265
%%        2280.0 ns  Log    PASSED  in Testbench: SB1,               Received: 11   Item Number: 266
%%        2280.0 ns  Log    PASSED  in Testbench: SB1,               Received: 66   Item Number: 267
%%        2280.0 ns  Log    PASSED  in Testbench: SB1,               Received: 77   Item Number: 268
%%        2280.0 ns  Log    PASSED  in Testbench: SB1,               Received: 67   Item Number: 269
%%        2280.0 ns  Log    PASSED  in Testbench: SB1,               Received: 6B   Item Number: 270
%%        2280.0 ns  Log    PASSED  in Testbench: SB1,               Received: 4F   Item Number: 271
%%        2280.0 ns  Log    PASSED  in Testbench: SB1,               Received: 40   Item Number: 272
%%        2280.0 ns  Log    PASSED  in Testbench: SB1,               Received: 28   Item Number: 273
%%        2280.0 ns  Log    PASSED  in Testbench: SB1,               Received: 63   Item Number: 274
%%        2280.0 ns  Log    PASSED  in Testbench: SB1,               Received: 5F   Item Number: 275
%%        2280.0 ns  Log    PASSED  in Testbench: SB1,               Received: 80   Item Number: 276
%%        2280.0 ns  Log    PASSED  in Testbench: SB1,               Received: F5   Item Number: 277
%%        2280.0 ns  Log    PASSED  in Testbench: SB1,               Received: 2A   Item Number: 278
%%        2280.0 ns  Log    PASSED  in Testbench: SB1,               Received: 79   Item Number: 279
%%        2280.0 ns  Log    PASSED  in Testbench: SB1,               Received: 6F   Item Number: 280
%%        2280.0 ns  Log    PASSED  in Testbench: SB1,               Received: 86   Item Number: 281
%%        2280.0 ns  Log    PASSED  in Testbench: SB1,               Received: 6E   Item Number: 282
%%        2280.0 ns  Log    PASSED  in Testbench: SB1,               Received: 18   Item Number: 283
%%        2280.0 ns  Log    PASSED  in Testbench: SB1,               Received: B0   Item Number: 284
%%        2280.0 ns  Log    PASSED  in Testbench: SB1,               Received: 1E   Item Number: 285
%%        2280.0 ns  Log    PASSED  in Testbench: SB1,               Received: 36   Item Number: 286
%%        2280.0 ns  Log    PASSED  in Testbench: SB1,               Received: 0D   Item Number: 287
%%        2280.0 ns  Log    PASSED  in Testbench: SB1,               Received: 8D   Item Number: 288
%%        2280.0 ns  Log    PASSED  in Testbench: SB1,               Received: 8C   Item Number: 289
%%        2280.0 ns  Log    PASSED  in Testbench: SB1,               Received: 3A   Item Number: 290
%%        2280.0 ns  Log    PASSED  in Testbench: SB1,               Received: 78   Item Number: 291
%%        2280.0 ns  Log    PASSED  in Testbench: SB1,               Received: CF   Item Number: 292
%%        2280.0 ns  Log    PASSED  in Testbench: SB1,               Received: DC   Item Number: 293
%%        2280.0 ns  Log    PASSED  in Testbench: SB1,               Received: 4E   Item Number: 294
%%        2280.0 ns  Log    PASSED  in Testbench: SB1,               Received: F6   Item Number: 295
%%        2280.0 ns  Log    PASSED  in Testbench: SB1,               Received: 58   Item Number: 296
%%        2280.0 ns  Log    PASSED  in Testbench: SB1,               Received: D5   Item Number: 297
%%        2280.0 ns  Log    PASSED  in Testbench: SB1,               Received: D1   Item Number: 298
%%        2280.0 ns  Log    PASSED  in Testbench: SB1,               Received: 90   Item Number: 299
%%        2280.0 ns  Log    PASSED  in Testbench: SB1,               Received: 58   Item Number: 300
%%        2280.0 ns  Log    PASSED  in Testbench: SB1,               Received: F7   Item Number: 301
%%        2280.0 ns  Log    PASSED  in Testbench: SB1,               Received: 32   Item Number: 302
%%        2280.0 ns  Log    PASSED  in Testbench: SB1,               Received: 61   Item Number: 303
%%        2280.0 ns  Log    PASSED  in Testbench: SB1,               Received: 61   Item Number: 304
%%        2280.0 ns  Log    PASSED  in Testbench: SB1,               Received: AA   Item Number: 305
%%        2280.0 ns  Log    PASSED  in Testbench: SB1,               Received: EB   Item Number: 306
%%        2280.0 ns  Log    PASSED  in Testbench: SB1,               Received: C1   Item Number: 307
%%        2280.0 ns  Log    PASSED  in Testbench: SB1,               Received: FF   Item Number: 308
%%        2280.0 ns  Log    PASSED  in Testbench: SB1,               Received: 3D   Item Number: 309
%%        2280.0 ns  Log    PASSED  in Testbench: SB1,               Received: C7   Item Number: 310
%%        2280.0 ns  Log    PASSED  in Testbench: SB1,               Received: 54   Item Number: 311
%%        2280.0 ns  Log    PASSED  in Testbench: SB1,               Received: 91   Item Number: 312
%%        2280.0 ns  Log    PASSED  in Testbench: SB1,               Received: CC   Item Number: 313
%%        2280.0 ns  Log    PASSED  in Testbench: SB1,               Received: C4   Item Number: 314
%%        2280.0 ns  Log    PASSED  in Testbench: SB1,               Received: 60   Item Number: 315
%%        2280.0 ns  Log    PASSED  in Testbench: SB1,               Received: 88   Item Number: 316
%%        2280.0 ns  Log    PASSED  in Testbench: SB1,               Received: CF   Item Number: 317
%%        2280.0 ns  Log    PASSED  in Testbench: SB1,               Received: E3   Item Number: 318
%%        2280.0 ns  Log    PASSED  in Testbench: SB1,               Received: 62   Item Number: 319
%%        2280.0 ns  Log    PASSED  in Testbench: SB1,               Received: E2   Item Number: 320
%%        2280.0 ns  Log    PASSED  in Testbench: SB1,               Received: 9A   Item Number: 321
%%        2280.0 ns  Log    PASSED  in Testbench: SB1,               Received: 81   Item Number: 322
%%        2280.0 ns  Log    PASSED  in Testbench: SB1,               Received: 25   Item Number: 323
%%        2280.0 ns  Log    PASSED  in Testbench: SB1,               Received: AE   Item Number: 324
%%        2280.0 ns  Log    PASSED  in Testbench: SB1,               Received: 33   Item Number: 325
%%        2280.0 ns  Log    PASSED  in Testbench: SB1,               Received: 09   Item Number: 326
%%        2280.0 ns  Log    PASSED  in Testbench: SB1,               Received: F1   Item Number: 327
%%        2280.0 ns  Log    PASSED  in Testbench: SB1,               Received: 61   Item Number: 328
%%        2280.0 ns  Log    PASSED  in Testbench: SB1,               Received: 6B   Item Number: 329
%%        2280.0 ns  Log    PASSED  in Testbench: SB1,               Received: 96   Item Number: 330
%%        2280.0 ns  Log    PASSED  in Testbench: SB1,               Received: 48   Item Number: 331
%%        2280.0 ns  Log    PASSED  in Testbench: SB1,               Received: 4A   Item Number: 332
%%        2280.0 ns  Log    PASSED  in Testbench: SB1,               Received: 4B   Item Number: 333
%%        2280.0 ns  Log    PASSED  in Testbench: SB1,               Received: EF   Item Number: 334
%%        2280.0 ns  Log    PASSED  in Testbench: SB1,               Received: 15   Item Number: 335
%%        2280.0 ns  Log    PASSED  in Testbench: SB1,               Received: C0   Item Number: 336
%%        2280.0 ns  Log    PASSED  in Testbench: SB1,               Received: 2A   Item Number: 337
%%        2280.0 ns  Log    PASSED  in Testbench: SB1,               Received: 87   Item Number: 338
%%        2280.0 ns  Log    PASSED  in Testbench: SB1,               Received: 7B   Item Number: 339
%%        2280.0 ns  Log    PASSED  in Testbench: SB1,               Received: B2   Item Number: 340
%%        2280.0 ns  Log    PASSED  in Testbench: SB1,               Received: 21   Item Number: 341
%%        2280.0 ns  Log    PASSED  in Testbench: SB1,               Received: 24   Item Number: 342
%%        2280.0 ns  Log    PASSED  in Testbench: SB1,               Received: DC   Item Number: 343
%%        2280.0 ns  Log    PASSED  in Testbench: SB1,               Received: F3   Item Number: 344
%%        2280.0 ns  Log    PASSED  in Testbench: SB1,               Received: AE   Item Number: 345
%%        2280.0 ns  Log    PASSED  in Testbench: SB1,               Received: 09   Item Number: 346
%%        2280.0 ns  Log    PASSED  in Testbench: SB1,               Received: 21   Item Number: 347
%%        2280.0 ns  Log    PASSED  in Testbench: SB1,               Received: 38   Item Number: 348
%%        2280.0 ns  Log    PASSED  in Testbench: SB1,               Received: 17   Item Number: 349
%%        2280.0 ns  Log    PASSED  in Testbench: SB1,               Received: 80   Item Number: 350
%%        2280.0 ns  Log    PASSED  in Testbench: SB1,               Received: 03   Item Number: 351
%%        2280.0 ns  Log    PASSED  in Testbench: SB1,               Received: DB   Item Number: 352
%%        2280.0 ns  Log    PASSED  in Testbench: SB1,               Received: 6F   Item Number: 353
%%        2280.0 ns  Log    PASSED  in Testbench: SB1,               Received: CE   Item Number: 354
%%        2280.0 ns  Log    PASSED  in Testbench: SB1,               Received: CC   Item Number: 355
%%        2280.0 ns  Log    PASSED  in Testbench: SB1,               Received: FA   Item Number: 356
%%        2280.0 ns  Log    PASSED  in Testbench: SB1,               Received: D5   Item Number: 357
%%        2280.0 ns  Log    PASSED  in Testbench: SB1,               Received: 3E   Item Number: 358
%%        2280.0 ns  Log    PASSED  in Testbench: SB1,               Received: 76   Item Number: 359
%%        2280.0 ns  Log    PASSED  in Testbench: SB1,               Received: C7   Item Number: 360
%%        2280.0 ns  Log    PASSED  in Testbench: SB1,               Received: 28   Item Number: 361
%%        2280.0 ns  Log    PASSED  in Testbench: SB1,               Received: B3   Item Number: 362
%%        2280.0 ns  Log    PASSED  in Testbench: SB1,               Received: 3B   Item Number: 363
%%        2280.0 ns  Log    PASSED  in Testbench: SB1,               Received: 9A   Item Number: 364
%%        2280.0 ns  Log    PASSED  in Testbench: SB1,               Received: 5A   Item Number: 365
%%        2280.0 ns  Log    PASSED  in Testbench: SB1,               Received: 5A   Item Number: 366
%%        2280.0 ns  Log    PASSED  in Testbench: SB1,               Received: DC   Item Number: 367
%%        2280.0 ns  Log    PASSED  in Testbench: SB1,               Received: FD   Item Number: 368
%%        2280.0 ns  Log    PASSED  in Testbench: SB1,               Received: 69   Item Number: 369
%%        2280.0 ns  Log    PASSED  in Testbench: SB1,               Received: AA   Item Number: 370
%%        2280.0 ns  Log    PASSED  in Testbench: SB1,               Received: 87   Item Number: 371
%%        2280.0 ns  Log    PASSED  in Testbench: SB1,               Received: 87   Item Number: 372
%%        2310.0 ns  Log    INFO    in transmitter_1,                Axi Stream Send.  TData: E3072A6C  TStrb: 1111  TKeep: 1111  TID: 03  TDest: 4  TUser: 5  TLast: 0  Operation# 96
%%        2320.0 ns  Log    INFO    in transmitter_1,                Axi Stream Send.  TData: CE0F15B6  TStrb: 1111  TKeep: 1111  TID: 03  TDest: 4  TUser: 5  TLast: 0  Operation# 97
%%        2340.0 ns  Log    INFO    in transmitter_1,                Axi Stream Send.  TData: 59E5CB1C  TStrb: 1111  TKeep: 1111  TID: 03  TDest: 4  TUser: 5  TLast: 0  Operation# 98
%%        2350.0 ns  Log    INFO    in transmitter_1,                Axi Stream Send.  TData: 044761E5  TStrb: 1111  TKeep: 1111  TID: 03  TDest: 4  TUser: 5  TLast: 0  Operation# 99
%%        2360.0 ns  Log    INFO    in transmitter_1,                Axi Stream Send.  TData: CB3DE4CB  TStrb: 1111  TKeep: 1111  TID: 03  TDest: 4  TUser: 5  TLast: 0  Operation# 100
%%        2450.0 ns  Log    INFO    in transmitter_1,                Axi Stream Send.  TData: 27364C45  TStrb: 1111  TKeep: 1111  TID: 03  TDest: 4  TUser: 5  TLast: 0  Operation# 101
%%        2470.0 ns  Log    INFO    in transmitter_1,                Axi Stream Send.  TData: AD117930  TStrb: 1111  TKeep: 1111  TID: 03  TDest: 4  TUser: 5  TLast: 0  Operation# 102
%%        2480.0 ns  Log    INFO    in transmitter_1,                Axi Stream Send.  TData: 87FE870C  TStrb: 1111  TKeep: 1111  TID: 03  TDest: 4  TUser: 5  TLast: 0  Operation# 103
%%        2500.0 ns  Log    INFO    in transmitter_1,                Axi Stream Send.  TData: 32D9EAF7  TStrb: 1111  TKeep: 1111  TID: 03  TDest: 4  TUser: 5  TLast: 0  Operation# 104
%%        2520.0 ns  Log    INFO    in transmitter_1,                Axi Stream Send.  TData: 291188DB  TStrb: 1111  TKeep: 1111  TID: 03  TDest: 4  TUser: 5  TLast: 0  Operation# 105
%%        2540.0 ns  Log    INFO    in transmitter_1,                Axi Stream Send.  TData: 07FD6369  TStrb: 1111  TKeep: 1111  TID: 03  TDest: 4  TUser: 5  TLast: 0  Operation# 106
%%        2560.0 ns  Log    INFO    in transmitter_1,                Axi Stream Send.  TData: F171E7B8  TStrb: 1111  TKeep: 1111  TID: 03  TDest: 4  TUser: 5  TLast: 0  Operation# 107
%%        2580.0 ns  Log    INFO    in transmitter_1,                Axi Stream Send.  TData: 4C542BA3  TStrb: 1111  TKeep: 1111  TID: 03  TDest: 4  TUser: 5  TLast: 0  Operation# 108
%%        2590.0 ns  Log    INFO    in transmitter_1,                Axi Stream Send.  TData: C9923753  TStrb: 1111  TKeep: 1111  TID: 03  TDest: 4  TUser: 5  TLast: 0  Operation# 109
%%        2610.0 ns  Log    INFO    in transmitter_1,                Axi Stream Send.  TData: DFE4D904  TStrb: 1111  TKeep: 1111  TID: 03  TDest: 4  TUser: 5  TLast: 0  Operation# 110
%%        2630.0 ns  Log    INFO    in transmitter_1,                Axi Stream Send.  TData: C7CED7A4  TStrb: 1111  TKeep: 1111  TID: 03  TDest: 4  TUser: 5  TLast: 0  Operation# 111
%%        2710.0 ns  Log    INFO    in transmitter_1,                Axi Stream Send.  TData: 4C610B87  TStrb: 1111  TKeep: 1111  TID: 03  TDest: 4  TUser: 5  TLast: 0  Operation# 112
%%        2720.0 ns  Log    INFO    in transmitter_1,                Axi Stream Send.  TData: E408B311  TStrb: 1111  TKeep: 1111  TID: 03  TDest: 4  TUser: 5  TLast: 0  Operation# 113
%%        2740.0 ns  Log    INFO    in transmitter_1,                Axi Stream Send.  TData: 06ACEF37  TStrb: 1111  TKeep: 1111  TID: 03  TDest: 4  TUser: 5  TLast: 0  Operation# 114
%%        2760.0 ns  Log    INFO    in transmitter_1,                Axi Stream Send.  TData: 3EECB739  TStrb: 1111  TKeep: 1111  TID: 03  TDest: 4  TUser: 5  TLast: 0  Operation# 115
%%        2770.0 ns  Log    INFO    in transmitter_1,                Axi Stream Send.  TData: A50B3714  TStrb: 1111  TKeep: 1111  TID: 03  TDest: 4  TUser: 5  TLast: 0  Operation# 116
%%        2780.0 ns  Log    INFO    in transmitter_1,                Axi Stream Send.  TData: E4B12C63  TStrb: 1111  TKeep: 1111  TID: 03  TDest: 4  TUser: 5  TLast: 0  Operation# 117
%%        2800.0 ns  Log    INFO    in transmitter_1,                Axi Stream Send.  TData: 79D53827  TStrb: 1111  TKeep: 1111  TID: 03  TDest: 4  TUser: 5  TLast: 0  Operation# 118
%%        2830.0 ns  Log    INFO    in transmitter_1,                Axi Stream Send.  TData: D02C96F7  TStrb: 1111  TKeep: 1111  TID: 03  TDest: 4  TUser: 5  TLast: 0  Operation# 119
%%        2850.0 ns  Log    INFO    in transmitter_1,                Axi Stream Send.  TData: 1EF35AA2  TStrb: 1111  TKeep: 1111  TID: 03  TDest: 4  TUser: 5  TLast: 0  Operation# 120
%%        2900.0 ns  Log    INFO    in transmitter_1,                Axi Stream Send.  TData: 1C328772  TStrb: 1111  TKeep: 1111  TID: 03  TDest: 4  TUser: 5  TLast: 0  Operation# 121
%%        2910.0 ns  Log    INFO    in transmitter_1,                Axi Stream Send.  TData: D033104B  TStrb: 1111  TKeep: 1111  TID: 03  TDest: 4  TUser: 5  TLast: 0  Operation# 122
%%        2960.0 ns  Log    INFO    in transmitter_1,                Axi Stream Send.  TData: ACC2A6BB  TStrb: 1111  TKeep: 1111  TID: 03  TDest: 4  TUser: 5  TLast: 0  Operation# 123
%%        2980.0 ns  Log    INFO    in transmitter_1,                Axi Stream Send.  TData: 8668B4D7  TStrb: 1111  TKeep: 1111  TID: 03  TDest: 4  TUser: 5  TLast: 0  Operation# 124
%%        2990.0 ns  Log    INFO    in transmitter_1,                Axi Stream Send.  TData: 5E5DBB84  TStrb: 1111  TKeep: 1111  TID: 03  TDest: 4  TUser: 5  TLast: 0  Operation# 125
%%        3010.0 ns  Log    INFO    in transmitter_1,                Axi Stream Send.  TData: 6507D85B  TStrb: 1111  TKeep: 1111  TID: 03  TDest: 4  TUser: 5  TLast: 0  Operation# 126
%%        3030.0 ns  Log    INFO    in transmitter_1,                Axi Stream Send.  TData: 162DA0EC  TStrb: 1111  TKeep: 1111  TID: 03  TDest: 4  TUser: 5  TLast: 0  Operation# 127
%%        3040.0 ns  Log    INFO    in transmitter_1,                Axi Stream Send.  TData: 1FDBB449  TStrb: 1111  TKeep: 1111  TID: 03  TDest: 4  TUser: 5  TLast: 0  Operation# 128
%%        3050.0 ns  Log    INFO    in transmitter_1,                Axi Stream Send.  TData: 09D5D25B  TStrb: 1111  TKeep: 1111  TID: 03  TDest: 4  TUser: 5  TLast: 0  Operation# 129
%%        3100.0 ns  Log    INFO    in transmitter_1,                Axi Stream Send.  TData: D2BC143E  TStrb: 1111  TKeep: 1111  TID: 03  TDest: 4  TUser: 5  TLast: 0  Operation# 130
%%        3110.0 ns  Log    INFO    in transmitter_1,                Axi Stream Send.  TData: C27BA610  TStrb: 1111  TKeep: 1111  TID: 03  TDest: 4  TUser: 5  TLast: 0  Operation# 131
%%        3150.0 ns  Log    INFO    in transmitter_1,                Axi Stream Send.  TData: 38EC7E4A  TStrb: 1111  TKeep: 1111  TID: 03  TDest: 4  TUser: 5  TLast: 0  Operation# 132
%%        3170.0 ns  Log    INFO    in transmitter_1,                Axi Stream Send.  TData: 30CE3D72  TStrb: 1111  TKeep: 1111  TID: 03  TDest: 4  TUser: 5  TLast: 0  Operation# 133
%%        3190.0 ns  Log    INFO    in transmitter_1,                Axi Stream Send.  TData: 8D5B9D18  TStrb: 1111  TKeep: 1111  TID: 03  TDest: 4  TUser: 5  TLast: 0  Operation# 134
%%        3200.0 ns  Log    INFO    in transmitter_1,                Axi Stream Send.  TData: 0DAE326B  TStrb: 1111  TKeep: 1111  TID: 03  TDest: 4  TUser: 5  TLast: 0  Operation# 135
%%        3220.0 ns  Log    INFO    in transmitter_1,                Axi Stream Send.  TData: 0F6D3D5B  TStrb: 1111  TKeep: 1111  TID: 03  TDest: 4  TUser: 5  TLast: 0  Operation# 136
%%        3230.0 ns  Log    INFO    in transmitter_1,                Axi Stream Send.  TData: B5FC3AA5  TStrb: 1111  TKeep: 1111  TID: 03  TDest: 4  TUser: 5  TLast: 0  Operation# 137
%%        3240.0 ns  Log    INFO    in transmitter_1,                Axi Stream Send.  TData: 674AFBE5  TStrb: 1111  TKeep: 1111  TID: 03  TDest: 4  TUser: 5  TLast: 0  Operation# 138
%%        3260.0 ns  Log    INFO    in transmitter_1,                Axi Stream Send.  TData: D96FA73E  TStrb: 1111  TKeep: 1111  TID: 03  TDest: 4  TUser: 5  TLast: 0  Operation# 139
%%        3280.0 ns  Log    INFO    in transmitter_1,                Axi Stream Send.  TData: C5677224  TStrb: 1111  TKeep: 1111  TID: 03  TDest: 4  TUser: 5  TLast: 0  Operation# 140
%%        3330.0 ns  Log    INFO    in transmitter_1,                Axi Stream Send.  TData: 17F7E500  TStrb: 1111  TKeep: 1111  TID: 03  TDest: 4  TUser: 5  TLast: 0  Operation# 141
%%        3340.0 ns  Log    INFO    in transmitter_1,                Axi Stream Send.  TData: D6330403  TStrb: 1111  TKeep: 1111  TID: 03  TDest: 4  TUser: 5  TLast: 0  Operation# 142
%%        3390.0 ns  Log    INFO    in transmitter_1,                Axi Stream Send.  TData: 77A6B8E9  TStrb: 1111  TKeep: 1111  TID: 03  TDest: 4  TUser: 5  TLast: 0  Operation# 143
%%        3410.0 ns  Log    INFO    in transmitter_1,                Axi Stream Send.  TData: 0F2BC088  TStrb: 1111  TKeep: 1111  TID: 03  TDest: 4  TUser: 5  TLast: 0  Operation# 144
%%        3420.0 ns  Log    INFO    in transmitter_1,                Axi Stream Send.  TData: D72CEA3C  TStrb: 1111  TKeep: 1111  TID: 03  TDest: 4  TUser: 5  TLast: 0  Operation# 145
%%        3440.0 ns  Log    INFO    in transmitter_1,                Axi Stream Send.  TData: 8174BB42  TStrb: 1111  TKeep: 1111  TID: 03  TDest: 4  TUser: 5  TLast: 0  Operation# 146
%%        3460.0 ns  Log    INFO    in transmitter_1,                Axi Stream Send.  TData: 5E21BD78  TStrb: 1111  TKeep: 1111  TID: 03  TDest: 4  TUser: 5  TLast: 0  Operation# 147
%%        3480.0 ns  Log    INFO    in transmitter_1,                Axi Stream Send.  TData: 5C223BB4  TStrb: 1111  TKeep: 1111  TID: 03  TDest: 4  TUser: 5  TLast: 0  Operation# 148
%%        3490.0 ns  Log    INFO    in transmitter_1,                Axi Stream Send.  TData: 97B014F1  TStrb: 1111  TKeep: 1111  TID: 03  TDest: 4  TUser: 5  TLast: 0  Operation# 149
%%        3500.0 ns  Log    INFO    in transmitter_1,                Axi Stream Send.  TData: 54BB2AB5  TStrb: 1111  TKeep: 1111  TID: 03  TDest: 4  TUser: 5  TLast: 0  Operation# 150
%%        3520.0 ns  Log    INFO    in transmitter_1,                Axi Stream Send.  TData: B0CA045A  TStrb: 1111  TKeep: 1111  TID: 03  TDest: 4  TUser: 5  TLast: 0  Operation# 151
%%        3590.0 ns  Log    INFO    in transmitter_1,                Axi Stream Send.  TData: CA465422  TStrb: 1111  TKeep: 1111  TID: 03  TDest: 4  TUser: 5  TLast: 0  Operation# 152
%%        3610.0 ns  Log    INFO    in transmitter_1,                Axi Stream Send.  TData: 7474C3B5  TStrb: 1111  TKeep: 1111  TID: 03  TDest: 4  TUser: 5  TLast: 1  Operation# 153
%%        3620.0 ns  Log    INFO    in receiver_1,                   Burst Receive.  Operation# 3  Last Data: 7474C3B5  TID: 03  TDest: 4  TUser: 5  TLast: 1
%%        3620.0 ns  Log    PASSED  in Default,                      Receiver, ID:  Received : 03
%%        3620.0 ns  Log    PASSED  in Default,                      Receiver, Dest:  Received : 4
%%        3620.0 ns  Log    PASSED  in Default,                      Receiver, User:  Received : 5
%%        3620.0 ns  Log    ALWAYS  in Default,                      Received Packet A3 of length 236
%%        3620.0 ns  Log    PASSED  in Testbench: SB1,               Received: 24   Item Number: 373
%%        3620.0 ns  Log    PASSED  in Testbench: SB1,               Received: 51   Item Number: 374
%%        3620.0 ns  Log    PASSED  in Testbench: SB1,               Received: A6   Item Number: 375
%%        3620.0 ns  Log    PASSED  in Testbench: SB1,               Received: D2   Item Number: 376
%%        3620.0 ns  Log    PASSED  in Testbench: SB1,               Received: 6C   Item Number: 377
%%        3620.0 ns  Log    PASSED  in Testbench: SB1,               Received: 2A   Item Number: 378
%%        3620.0 ns  Log    PASSED  in Testbench: SB1,               Received: 07   Item Number: 379
%%        3620.0 ns  Log    PASSED  in Testbench: SB1,               Received: E3   Item Number: 380
%%        3620.0 ns  Log    PASSED  in Testbench: SB1,               Received: B6   Item Number: 381
%%        3620.0 ns  Log    PASSED  in Testbench: SB1,               Received: 15   Item Number: 382
%%        3620.0 ns  Log    PASSED  in Testbench: SB1,               Received: 0F   Item Number: 383
%%        3620.0 ns  Log    PASSED  in Testbench: SB1,               Received: CE   Item Number: 384
%%        3620.0 ns  Log    PASSED  in Testbench: SB1,               Received: 1C   Item Number: 385
%%        3620.0 ns  Log    PASSED  in Testbench: SB1,               Received: CB   Item Number: 386
%%        3620.0 ns  Log    PASSED  in Testbench: SB1,               Received: E5   Item Number: 387
%%        3620.0 ns  Log    PASSED  in Testbench: SB1,               Received: 59   Item Number: 388
%%        3620.0 ns  Log    PASSED  in Testbench: SB1,               Received: E5   Item Number: 389
%%        3620.0 ns  Log    PASSED  in Testbench: SB1,               Received: 61   Item Number: 390
%%        3620.0 ns  Log    PASSED  in Testbench: SB1,               Received: 47   Item Number: 391
%%        3620.0 ns  Log    PASSED  in Testbench: SB1,               Received: 04   Item Number: 392
%%        3620.0 ns  Log    PASSED  in Testbench: SB1,               Received: CB   Item Number: 393
%%        3620.0 ns  Log    PASSED  in Testbench: SB1,               Received: E4   Item Number: 394
%%        3620.0 ns  Log    PASSED  in Testbench: SB1,               Received: 3D   Item Number: 395
%%        3620.0 ns  Log    PASSED  in Testbench: SB1,               Received: CB   Item Number: 396
%%        3620.0 ns  Log    PASSED  in Testbench: SB1,               Received: 45   Item Number: 397
%%        3620.0 ns  Log    PASSED  in Testbench: SB1,               Received: 4C   Item Number: 398
%%        3620.0 ns  Log    PASSED  in Testbench: SB1,               Received: 36   Item Number: 399
%%        3620.0 ns  Log    PASSED  in Testbench: SB1,               Received: 27   Item Number: 400
%%        3620.0 ns  Log    PASSED  in Testbench: SB1,               Received: 30   Item Number: 401
%%        3620.0 ns  Log    PASSED  in Testbench: SB1,               Received: 79   Item Number: 402
%%        3620.0 ns  Log    PASSED  in Testbench: SB1,               Received: 11   Item Number: 403
%%        3620.0 ns  Log    PASSED  in Testbench: SB1,               Received: AD   Item Number: 404
%%        3620.0 ns  Log    PASSED  in Testbench: SB1,               Received: 0C   Item Number: 405
%%        3620.0 ns  Log    PASSED  in Testbench: SB1,               Received: 87   Item Number: 406
%%        3620.0 ns  Log    PASSED  in Testbench: SB1,               Received: FE   Item Number: 407
%%        3620.0 ns  Log    PASSED  in Testbench: SB1,               Received: 87   Item Number: 408
%%        3620.0 ns  Log    PASSED  in Testbench: SB1,               Received: F7   Item Number: 409
%%        3620.0 ns  Log    PASSED  in Testbench: SB1,               Received: EA   Item Number: 410
%%        3620.0 ns  Log    PASSED  in Testbench: SB1,               Received: D9   Item Number: 411
%%        3620.0 ns  Log    PASSED  in Testbench: SB1,               Received: 32   Item Number: 412
%%        3620.0 ns  Log    PASSED  in Testbench: SB1,               Received: DB   Item Number: 413
%%        3620.0 ns  Log    PASSED  in Testbench: SB1,               Received: 88   Item Number: 414
%%        3620.0 ns  Log    PASSED  in Testbench: SB1,               Received: 11   Item Number: 415
%%        3620.0 ns  Log    PASSED  in Testbench: SB1,               Received: 29   Item Number: 416
%%        3620.0 ns  Log    PASSED  in Testbench: SB1,               Received: 69   Item Number: 417
%%        3620.0 ns  Log    PASSED  in Testbench: SB1,               Received: 63   Item Number: 418
%%        3620.0 ns  Log    PASSED  in Testbench: SB1,               Received: FD   Item Number: 419
%%        3620.0 ns  Log    PASSED  in Testbench: SB1,               Received: 07   Item Number: 420
%%        3620.0 ns  Log    PASSED  in Testbench: SB1,               Received: B8   Item Number: 421
%%        3620.0 ns  Log    PASSED  in Testbench: SB1,               Received: E7   Item Number: 422
%%        3620.0 ns  Log    PASSED  in Testbench: SB1,               Received: 71   Item Number: 423
%%        3620.0 ns  Log    PASSED  in Testbench: SB1,               Received: F1   Item Number: 424
%%        3620.0 ns  Log    PASSED  in Testbench: SB1,               Received: A3   Item Number: 425
%%        3620.0 ns  Log    PASSED  in Testbench: SB1,               Received: 2B   Item Number: 426
%%        3620.0 ns  Log    PASSED  in Testbench: SB1,               Received: 54   Item Number: 427
%%        3620.0 ns  Log    PASSED  in Testbench: SB1,               Received: 4C   Item Number: 428
%%        3620.0 ns  Log    PASSED  in Testbench: SB1,               Received: 53   Item Number: 429
%%        3620.0 ns  Log    PASSED  in Testbench: SB1,               Received: 37   Item Number: 430
%%        3620.0 ns  Log    PASSED  in Testbench: SB1,               Received: 92   Item Number: 431
%%        3620.0 ns  Log    PASSED  in Testbench: SB1,               Received: C9   Item Number: 432
%%        3620.0 ns  Log    PASSED  in Testbench: SB1,               Received: 04   Item Number: 433
%%        3620.0 ns  Log    PASSED  in Testbench: SB1,               Received: D9   Item Number: 434
%%        3620.0 ns  Log    PASSED  in Testbench: SB1,               Received: E4   Item Number: 435
%%        3620.0 ns  Log    PASSED  in Testbench: SB1,               Received: DF   Item Number: 436
%%        3620.0 ns  Log    PASSED  in Testbench: SB1,               Received: A4   Item Number: 437
%%        3620.0 ns  Log    PASSED  in Testbench: SB1,               Received: D7   Item Number: 438
%%        3620.0 ns  Log    PASSED  in Testbench: SB1,               Received: CE   Item Number: 439
%%        3620.0 ns  Log    PASSED  in Testbench: SB1,               Received: C7   Item Number: 440
%%        3620.0 ns  Log    PASSED  in Testbench: SB1,               Received: 87   Item Number: 441
%%        3620.0 ns  Log    PASSED  in Testbench: SB1,               Received: 0B   Item Number: 442
%%        3620.0 ns  Log    PASSED  in Testbench: SB1,               Received: 61   Item Number: 443
%%        3620.0 ns  Log    PASSED  in Testbench: SB1,               Received: 4C   Item Number: 444
%%        3620.0 ns  Log    PASSED  in Testbench: SB1,               Received: 11   Item Number: 445
%%        3620.0 ns  Log    PASSED  in Testbench: SB1,               Received: B3   Item Number: 446
%%        3620.0 ns  Log    PASSED  in Testbench: SB1,               Received: 08   Item Number: 447
%%        3620.0 ns  Log    PASSED  in Testbench: SB1,               Received: E4   Item Number: 448
%%        3620.0 ns  Log    PASSED  in Testbench: SB1,               Received: 37   Item Number: 449
%%        3620.0 ns  Log    PASSED  in Testbench: SB1,               Received: EF   Item Number: 450
%%        3620.0 ns  Log    PASSED  in Testbench: SB1,               Received: AC   Item Number: 451
%%        3620.0 ns  Log    PASSED  in Testbench: SB1,               Received: 06   Item Number: 452
%%        3620.0 ns  Log    PASSED  in Testbench: SB1,               Received: 39   Item Number: 453
%%        3620.0 ns  Log    PASSED  in Testbench: SB1,               Received: B7   Item Number: 454
%%        3620.0 ns  Log    PASSED  in Testbench: SB1,               Received: EC   Item Number: 455
%%        3620.0 ns  Log    PASSED  in Testbench: SB1,               Received: 3E   Item Number: 456
%%        3620.0 ns  Log    PASSED  in Testbench: SB1,               Received: 14   Item Number: 457
%%        3620.0 ns  Log    PASSED  in Testbench: SB1,               Received: 37   Item Number: 458
%%        3620.0 ns  Log    PASSED  in Testbench: SB1,               Received: 0B   Item Number: 459
%%        3620.0 ns  Log    PASSED  in Testbench: SB1,               Received: A5   Item Number: 460
%%        3620.0 ns  Log    PASSED  in Testbench: SB1,               Received: 63   Item Number: 461
%%        3620.0 ns  Log    PASSED  in Testbench: SB1,               Received: 2C   Item Number: 462
%%        3620.0 ns  Log    PASSED  in Testbench: SB1,               Received: B1   Item Number: 463
%%        3620.0 ns  Log    PASSED  in Testbench: SB1,               Received: E4   Item Number: 464
%%        3620.0 ns  Log    PASSED  in Testbench: SB1,               Received: 27   Item Number: 465
%%        3620.0 ns  Log    PASSED  in Testbench: SB1,               Received: 38   Item Number: 466
%%        3620.0 ns  Log    PASSED  in Testbench: SB1,               Received: D5   Item Number: 467
%%        3620.0 ns  Log    PASSED  in Testbench: SB1,               Received: 79   Item Number: 468
%%        3620.0 ns  Log    PASSED  in Testbench: SB1,               Received: F7   Item Number: 469
%%        3620.0 ns  Log    PASSED  in Testbench: SB1,               Received: 96   Item Number: 470
%%        3620.0 ns  Log    PASSED  in Testbench: SB1,               Received: 2C   Item Number: 471
%%        3620.0 ns  Log    PASSED  in Testbench: SB1,               Received: D0   Item Number: 472
%%        3620.0 ns  Log    PASSED  in Testbench: SB1,               Received: A2   Item Number: 473
%%        3620.0 ns  Log    PASSED  in Testbench: SB1,               Received: 5A   Item Number: 474
%%        3620.0 ns  Log    PASSED  in Testbench: SB1,               Received: F3   Item Number: 475
%%        3620.0 ns  Log    PASSED  in Testbench: SB1,               Received: 1E   Item Number: 476
%%        3620.0 ns  Log    PASSED  in Testbench: SB1,               Received: 72   Item Number: 477
%%        3620.0 ns  Log    PASSED  in Testbench: SB1,               Received: 87   Item Number: 478
%%        3620.0 ns  Log    PASSED  in Testbench: SB1,               Received: 32   Item Number: 479
%%        3620.0 ns  Log    PASSED  in Testbench: SB1,               Received: 1C   Item Number: 480
%%        3620.0 ns  Log    PASSED  in Testbench: SB1,               Received: 4B   Item Number: 481
%%        3620.0 ns  Log    PASSED  in Testbench: SB1,               Received: 10   Item Number: 482
%%        3620.0 ns  Log    PASSED  in Testbench: SB1,               Received: 33   Item Number: 483
%%        3620.0 ns  Log    PASSED  in Testbench: SB1,               Received: D0   Item Number: 484
%%        3620.0 ns  Log    PASSED  in Testbench: SB1,               Received: BB   Item Number: 485
%%        3620.0 ns  Log    PASSED  in Testbench: SB1,               Received: A6   Item Number: 486
%%        3620.0 ns  Log    PASSED  in Testbench: SB1,               Received: C2   Item Number: 487
%%        3620.0 ns  Log    PASSED  in Testbench: SB1,               Received: AC   Item Number: 488
%%        3620.0 ns  Log    PASSED  in Testbench: SB1,               Received: D7   Item Number: 489
%%        3620.0 ns  Log    PASSED  in Testbench: SB1,               Received: B4   Item Number: 490
%%        3620.0 ns  Log    PASSED  in Testbench: SB1,               Received: 68   Item Number: 491
%%        3620.0 ns  Log    PASSED  in Testbench: SB1,               Received: 86   Item Number: 492
%%        3620.0 ns  Log    PASSED  in Testbench: SB1,               Received: 84   Item Number: 493
%%        3620.0 ns  Log    PASSED  in Testbench: SB1,               Received: BB   Item Number: 494
%%        3620.0 ns  Log    PASSED  in Testbench: SB1,               Received: 5D   Item Number: 495
%%        3620.0 ns  Log    PASSED  in Testbench: SB1,               Received: 5E   Item Number: 496
%%        3620.0 ns  Log    PASSED  in Testbench: SB1,               Received: 5B   Item Number: 497
%%        3620.0 ns  Log    PASSED  in Testbench: SB1,               Received: D8   Item Number: 498
%%        3620.0 ns  Log    PASSED  in Testbench: SB1,               Received: 07   Item Number: 499
%%        3620.0 ns  Log    PASSED  in Testbench: SB1,               Received: 65   Item Number: 500
%%        3620.0 ns  Log    PASSED  in Testbench: SB1,               Received: EC   Item Number: 501
%%        3620.0 ns  Log    PASSED  in Testbench: SB1,               Received: A0   Item Number: 502
%%        3620.0 ns  Log    PASSED  in Testbench: SB1,               Received: 2D   Item Number: 503
%%        3620.0 ns  Log    PASSED  in Testbench: SB1,               Received: 16   Item Number: 504
%%        3620.0 ns  Log    PASSED  in Testbench: SB1,               Received: 49   Item Number: 505
%%        3620.0 ns  Log    PASSED  in Testbench: SB1,               Received: B4   Item Number: 506
%%        3620.0 ns  Log    PASSED  in Testbench: SB1,               Received: DB   Item Number: 507
%%        3620.0 ns  Log    PASSED  in Testbench: SB1,               Received: 1F   Item Number: 508
%%        3620.0 ns  Log    PASSED  in Testbench: SB1,               Received: 5B   Item Number: 509
%%        3620.0 ns  Log    PASSED  in Testbench: SB1,               Received: D2   Item Number: 510
%%        3620.0 ns  Log    PASSED  in Testbench: SB1,               Received: D5   Item Number: 511
%%        3620.0 ns  Log    PASSED  in Testbench: SB1,               Received: 09   Item Number: 512
%%        3620.0 ns  Log    PASSED  in Testbench: SB1,               Received: 3E   Item Number: 513
%%        3620.0 ns  Log    PASSED  in Testbench: SB1,               Received: 14   Item Number: 514
%%        3620.0 ns  Log    PASSED  in Testbench: SB1,               Received: BC   Item Number: 515
%%        3620.0 ns  Log    PASSED  in Testbench: SB1,               Received: D2   Item Number: 516
%%        3620.0 ns  Log    PASSED  in Testbench: SB1,               Received: 10   Item Number: 517
%%        3620.0 ns  Log    PASSED  in Testbench: SB1,               Received: A6   Item Number: 518
%%        3620.0 ns  Log    PASSED  in Testbench: SB1,               Received: 7B   Item Number: 519
%%        3620.0 ns  Log    PASSED  in Testbench: SB1,               Received: C2   Item Number: 520
%%        3620.0 ns  Log    PASSED  in Testbench: SB1,               Received: 4A   Item Number: 521
%%        3620.0 ns  Log    PASSED  in Testbench: SB1,               Received: 7E   Item Number: 522
%%        3620.0 ns  Log    PASSED  in Testbench: SB1,               Received: EC   Item Number: 523
%%        3620.0 ns  Log    PASSED  in Testbench: SB1,               Received: 38   Item Number: 524
%%        3620.0 ns  Log    PASSED  in Testbench: SB1,               Received: 72   Item Number: 525
%%        3620.0 ns  Log    PASSED  in Testbench: SB1,               Received: 3D   Item Number: 526
%%        3620.0 ns  Log    PASSED  in Testbench: SB1,               Received: CE   Item Number: 527
%%        3620.0 ns  Log    PASSED  in Testbench: SB1,               Received: 30   Item Number: 528
%%        3620.0 ns  Log    PASSED  in Testbench: SB1,               Received: 18   Item Number: 529
%%        3620.0 ns  Log    PASSED  in Testbench: SB1,               Received: 9D   Item Number: 530
%%        3620.0 ns  Log    PASSED  in Testbench: SB1,               Received: 5B   Item Number: 531
%%        3620.0 ns  Log    PASSED  in Testbench: SB1,               Received: 8D   Item Number: 532
%%        3620.0 ns  Log    PASSED  in Testbench: SB1,               Received: 6B   Item Number: 533
%%        3620.0 ns  Log    PASSED  in Testbench: SB1,               Received: 32   Item Number: 534
%%        3620.0 ns  Log    PASSED  in Testbench: SB1,               Received: AE   Item Number: 535
%%        3620.0 ns  Log    PASSED  in Testbench: SB1,               Received: 0D   Item Number: 536
%%        3620.0 ns  Log    PASSED  in Testbench: SB1,               Received: 5B   Item Number: 537
%%        3620.0 ns  Log    PASSED  in Testbench: SB1,               Received: 3D   Item Number: 538
%%        3620.0 ns  Log    PASSED  in Testbench: SB1,               Received: 6D   Item Number: 539
%%        3620.0 ns  Log    PASSED  in Testbench: SB1,               Received: 0F   Item Number: 540
%%        3620.0 ns  Log    PASSED  in Testbench: SB1,               Received: A5   Item Number: 541
%%        3620.0 ns  Log    PASSED  in Testbench: SB1,               Received: 3A   Item Number: 542
%%        3620.0 ns  Log    PASSED  in Testbench: SB1,               Received: FC   Item Number: 543
%%        3620.0 ns  Log    PASSED  in Testbench: SB1,               Received: B5   Item Number: 544
%%        3620.0 ns  Log    PASSED  in Testbench: SB1,               Received: E5   Item Number: 545
%%        3620.0 ns  Log    PASSED  in Testbench: SB1,               Received: FB   Item Number: 546
%%        3620.0 ns  Log    PASSED  in Testbench: SB1,               Received: 4A   Item Number: 547
%%        3620.0 ns  Log    PASSED  in Testbench: SB1,               Received: 67   Item Number: 548
%%        3620.0 ns  Log    PASSED  in Testbench: SB1,               Received: 3E   Item Number: 549
%%        3620.0 ns  Log    PASSED  in Testbench: SB1,               Received: A7   Item Number: 550
%%        3620.0 ns  Log    PASSED  in Testbench: SB1,               Received: 6F   Item Number: 551
%%        3620.0 ns  Log    PASSED  in Testbench: SB1,               Received: D9   Item Number: 552
%%        3620.0 ns  Log    PASSED  in Testbench: SB1,               Received: 24   Item Number: 553
%%        3620.0 ns  Log    PASSED  in Testbench: SB1,               Received: 72   Item Number: 554
%%        3620.0 ns  Log    PASSED  in Testbench: SB1,               Received: 67   Item Number: 555
%%        3620.0 ns  Log    PASSED  in Testbench: SB1,               Received: C5   Item Number: 556
%%        3620.0 ns  Log    PASSED  in Testbench: SB1,               Received: 00   Item Number: 557
%%        3620.0 ns  Log    PASSED  in Testbench: SB1,               Received: E5   Item Number: 558
%%        3620.0 ns  Log    PASSED  in Testbench: SB1,               Received: F7   Item Number: 559
%%        3620.0 ns  Log    PASSED  in Testbench: SB1,               Received: 17   Item Number: 560
%%        3620.0 ns  Log    PASSED  in Testbench: SB1,               Received: 03   Item Number: 561
%%        3620.0 ns  Log    PASSED  in Testbench: SB1,               Received: 04   Item Number: 562
%%        3620.0 ns  Log    PASSED  in Testbench: SB1,               Received: 33   Item Number: 563
%%        3620.0 ns  Log    PASSED  in Testbench: SB1,               Received: D6   Item Number: 564
%%        3620.0 ns  Log    PASSED  in Testbench: SB1,               Received: E9   Item Number: 565
%%        3620.0 ns  Log    PASSED  in Testbench: SB1,               Received: B8   Item Number: 566
%%        3620.0 ns  Log    PASSED  in Testbench: SB1,               Received: A6   Item Number: 567
%%        3620.0 ns  Log    PASSED  in Testbench: SB1,               Received: 77   Item Number: 568
%%        3620.0 ns  Log    PASSED  in Testbench: SB1,               Received: 88   Item Number: 569
%%        3620.0 ns  Log    PASSED  in Testbench: SB1,               Received: C0   Item Number: 570
%%        3620.0 ns  Log    PASSED  in Testbench: SB1,               Received: 2B   Item Number: 571
%%        3620.0 ns  Log    PASSED  in Testbench: SB1,               Received: 0F   Item Number: 572
%%        3620.0 ns  Log    PASSED  in Testbench: SB1,               Received: 3C   Item Number: 573
%%        3620.0 ns  Log    PASSED  in Testbench: SB1,               Received: EA   Item Number: 574
%%        3620.0 ns  Log    PASSED  in Testbench: SB1,               Received: 2C   Item Number: 575
%%        3620.0 ns  Log    PASSED  in Testbench: SB1,               Received: D7   Item Number: 576
%%        3620.0 ns  Log    PASSED  in Testbench: SB1,               Received: 42   Item Number: 577
%%        3620.0 ns  Log    PASSED  in Testbench: SB1,               Received: BB   Item Number: 578
%%        3620.0 ns  Log    PASSED  in Testbench: SB1,               Received: 74   Item Number: 579
%%        3620.0 ns  Log    PASSED  in Testbench: SB1,               Received: 81   Item Number: 580
%%        3620.0 ns  Log    PASSED  in Testbench: SB1,               Received: 78   Item Number: 581
%%        3620.0 ns  Log    PASSED  in Testbench: SB1,               Received: BD   Item Number: 582
%%        3620.0 ns  Log    PASSED  in Testbench: SB1,               Received: 21   Item Number: 583
%%        3620.0 ns  Log    PASSED  in Testbench: SB1,               Received: 5E   Item Number: 584
%%        3620.0 ns  Log    PASSED  in Testbench: SB1,               Received: B4   Item Number: 585
%%        3620.0 ns  Log    PASSED  in Testbench: SB1,               Received: 3B   Item Number: 586
%%        3620.0 ns  Log    PASSED  in Testbench: SB1,               Received: 22   Item Number: 587
%%        3620.0 ns  Log    PASSED  in Testbench: SB1,               Received: 5C   Item Number: 588
%%        3620.0 ns  Log    PASSED  in Testbench: SB1,               Received: F1   Item Number: 589
%%        3620.0 ns  Log    PASSED  in Testbench: SB1,               Received: 14   Item Number: 590
%%        3620.0 ns  Log    PASSED  in Testbench: SB1,               Received: B0   Item Number: 591
%%        3620.0 ns  Log    PASSED  in Testbench: SB1,               Received: 97   Item Number: 592
%%        3620.0 ns  Log    PASSED  in Testbench: SB1,               Received: B5   Item Number: 593
%%        3620.0 ns  Log    PASSED  in Testbench: SB1,               Received: 2A   Item Number: 594
%%        3620.0 ns  Log    PASSED  in Testbench: SB1,               Received: BB   Item Number: 595
%%        3620.0 ns  Log    PASSED  in Testbench: SB1,               Received: 54   Item Number: 596
%%        3620.0 ns  Log    PASSED  in Testbench: SB1,               Received: 5A   Item Number: 597
%%        3620.0 ns  Log    PASSED  in Testbench: SB1,               Received: 04   Item Number: 598
%%        3620.0 ns  Log    PASSED  in Testbench: SB1,               Received: CA   Item Number: 599
%%        3620.0 ns  Log    PASSED  in Testbench: SB1,               Received: B0   Item Number: 600
%%        3620.0 ns  Log    PASSED  in Testbench: SB1,               Received: 22   Item Number: 601
%%        3620.0 ns  Log    PASSED  in Testbench: SB1,               Received: 54   Item Number: 602
%%        3620.0 ns  Log    PASSED  in Testbench: SB1,               Received: 46   Item Number: 603
%%        3620.0 ns  Log    PASSED  in Testbench: SB1,               Received: CA   Item Number: 604
%%        3620.0 ns  Log    PASSED  in Testbench: SB1,               Received: B5   Item Number: 605
%%        3620.0 ns  Log    PASSED  in Testbench: SB1,               Received: C3   Item Number: 606
%%        3620.0 ns  Log    PASSED  in Testbench: SB1,               Received: 74   Item Number: 607
%%        3620.0 ns  Log    PASSED  in Testbench: SB1,               Received: 74   Item Number: 608
%%        3630.0 ns  Log    INFO    in transmitter_1,                Axi Stream Send.  TData: 220C36D9  TStrb: 1111  TKeep: 1111  TID: 04  TDest: 5  TUser: 6  TLast: 0  Operation# 154
%%        3640.0 ns  Log    INFO    in transmitter_1,                Axi Stream Send.  TData: E22F7F73  TStrb: 1111  TKeep: 1111  TID: 04  TDest: 5  TUser: 6  TLast: 0  Operation# 155
%%        3650.0 ns  Log    INFO    in transmitter_1,                Axi Stream Send.  TData: 7FA7025A  TStrb: 1111  TKeep: 1111  TID: 04  TDest: 5  TUser: 6  TLast: 0  Operation# 156
%%        3680.0 ns  Log    INFO    in transmitter_1,                Axi Stream Send.  TData: 464E3AFC  TStrb: 1111  TKeep: 1111  TID: 04  TDest: 5  TUser: 6  TLast: 0  Operation# 157
%%        3700.0 ns  Log    INFO    in transmitter_1,                Axi Stream Send.  TData: 29298D25  TStrb: 1111  TKeep: 1111  TID: 04  TDest: 5  TUser: 6  TLast: 0  Operation# 158
%%        3710.0 ns  Log    INFO    in transmitter_1,                Axi Stream Send.  TData: 3771912F  TStrb: 1111  TKeep: 1111  TID: 04  TDest: 5  TUser: 6  TLast: 0  Operation# 159
%%        3730.0 ns  Log    INFO    in transmitter_1,                Axi Stream Send.  TData: 49D449F6  TStrb: 1111  TKeep: 1111  TID: 04  TDest: 5  TUser: 6  TLast: 0  Operation# 160
%%        3800.0 ns  Log    INFO    in transmitter_1,                Axi Stream Send.  TData: A677B92E  TStrb: 1111  TKeep: 1111  TID: 04  TDest: 5  TUser: 6  TLast: 0  Operation# 161
%%        3820.0 ns  Log    INFO    in transmitter_1,                Axi Stream Send.  TData: 35AFE97F  TStrb: 1111  TKeep: 1111  TID: 04  TDest: 5  TUser: 6  TLast: 0  Operation# 162
%%        3830.0 ns  Log    INFO    in transmitter_1,                Axi Stream Send.  TData: FEA89A89  TStrb: 1111  TKeep: 1111  TID: 04  TDest: 5  TUser: 6  TLast: 0  Operation# 163
%%        3850.0 ns  Log    INFO    in transmitter_1,                Axi Stream Send.  TData: 93F63255  TStrb: 1111  TKeep: 1111  TID: 04  TDest: 5  TUser: 6  TLast: 0  Operation# 164
%%        3870.0 ns  Log    INFO    in transmitter_1,                Axi Stream Send.  TData: B5302696  TStrb: 1111  TKeep: 1111  TID: 04  TDest: 5  TUser: 6  TLast: 0  Operation# 165
%%        3880.0 ns  Log    INFO    in transmitter_1,                Axi Stream Send.  TData: D23BCCC7  TStrb: 1111  TKeep: 1111  TID: 04  TDest: 5  TUser: 6  TLast: 0  Operation# 166
%%        3910.0 ns  Log    INFO    in transmitter_1,                Axi Stream Send.  TData: DEDDCDFB  TStrb: 1111  TKeep: 1111  TID: 04  TDest: 5  TUser: 6  TLast: 0  Operation# 167
%%        3930.0 ns  Log    INFO    in transmitter_1,                Axi Stream Send.  TData: 19DF0BD1  TStrb: 1111  TKeep: 1111  TID: 04  TDest: 5  TUser: 6  TLast: 0  Operation# 168
%%        3940.0 ns  Log    INFO    in transmitter_1,                Axi Stream Send.  TData: 2C0EEBED  TStrb: 1111  TKeep: 1111  TID: 04  TDest: 5  TUser: 6  TLast: 0  Operation# 169
%%        4000.0 ns  Log    INFO    in transmitter_1,                Axi Stream Send.  TData: B55557D0  TStrb: 1111  TKeep: 1111  TID: 04  TDest: 5  TUser: 6  TLast: 0  Operation# 170
%%        4020.0 ns  Log    INFO    in transmitter_1,                Axi Stream Send.  TData: BB4A90D5  TStrb: 1111  TKeep: 1111  TID: 04  TDest: 5  TUser: 6  TLast: 0  Operation# 171
%%        4070.0 ns  Log    INFO    in transmitter_1,                Axi Stream Send.  TData: 9BA0C04F  TStrb: 1111  TKeep: 1111  TID: 04  TDest: 5  TUser: 6  TLast: 0  Operation# 172
%%        4080.0 ns  Log    INFO    in transmitter_1,                Axi Stream Send.  TData: CDFAFB9F  TStrb: 1111  TKeep: 1111  TID: 04  TDest: 5  TUser: 6  TLast: 0  Operation# 173
%%        4100.0 ns  Log    INFO    in transmitter_1,                Axi Stream Send.  TData: 9FD0A7BA  TStrb: 1111  TKeep: 1111  TID: 04  TDest: 5  TUser: 6  TLast: 0  Operation# 174
%%        4110.0 ns  Log    INFO    in transmitter_1,                Axi Stream Send.  TData: 1B5FD63E  TStrb: 1111  TKeep: 1111  TID: 04  TDest: 5  TUser: 6  TLast: 0  Operation# 175
%%        4130.0 ns  Log    INFO    in transmitter_1,                Axi Stream Send.  TData: 57F8905A  TStrb: 1111  TKeep: 1111  TID: 04  TDest: 5  TUser: 6  TLast: 0  Operation# 176
%%        4140.0 ns  Log    INFO    in transmitter_1,                Axi Stream Send.  TData: 5FC68B42  TStrb: 1111  TKeep: 1111  TID: 04  TDest: 5  TUser: 6  TLast: 0  Operation# 177
%%        4170.0 ns  Log    INFO    in transmitter_1,                Axi Stream Send.  TData: 80AA5044  TStrb: 1111  TKeep: 1111  TID: 04  TDest: 5  TUser: 6  TLast: 0  Operation# 178
%%        4210.0 ns  Log    INFO    in transmitter_1,                Axi Stream Send.  TData: 5B86D7EC  TStrb: 1111  TKeep: 1111  TID: 04  TDest: 5  TUser: 6  TLast: 0  Operation# 179
%%        4230.0 ns  Log    INFO    in transmitter_1,                Axi Stream Send.  TData: D5D5BA81  TStrb: 1111  TKeep: 1111  TID: 04  TDest: 5  TUser: 6  TLast: 0  Operation# 180
%%        4250.0 ns  Log    INFO    in transmitter_1,                Axi Stream Send.  TData: ADEACA1F  TStrb: 1111  TKeep: 1111  TID: 04  TDest: 5  TUser: 6  TLast: 0  Operation# 181
%%        4260.0 ns  Log    INFO    in transmitter_1,                Axi Stream Send.  TData: 7FE6D9C0  TStrb: 1111  TKeep: 1111  TID: 04  TDest: 5  TUser: 6  TLast: 0  Operation# 182
%%        4300.0 ns  Log    INFO    in transmitter_1,                Axi Stream Send.  TData: 156B619F  TStrb: 1111  TKeep: 1111  TID: 04  TDest: 5  TUser: 6  TLast: 0  Operation# 183
%%        4320.0 ns  Log    INFO    in transmitter_1,                Axi Stream Send.  TData: 66C68D63  TStrb: 1111  TKeep: 1111  TID: 04  TDest: 5  TUser: 6  TLast: 0  Operation# 184
