%%   110 ns    Log    PASSED    in Default,                      TRANSMIT_VALID_DELAY_CYCLES Received : 0
%%   110 ns    Log    ALWAYS    in Default,                      Valid Delay Cycles Default 0
%%   110 ns    Log    ALWAYS    in Default,                      Send 16 words with each byte incrementing
%%   110 ns    Log    INFO      in transmitter_1,                Axi Stream Send.  TData: 03020100  TStrb: 1111  TKeep: 1111  TID: 00  TDest: 0  TUser: 0  TLast: 0  Operation# 1
%%   120 ns    Log    PASSED    in receiver_1: Data Check,       Operation# 1  Received.  Data: 03020100  TID: 00  TDest: 0  TUser: 0  TLast: 0
%%   120 ns    Log    INFO      in transmitter_1,                Axi Stream Send.  TData: 07060504  TStrb: 1111  TKeep: 1111  TID: 00  TDest: 0  TUser: 0  TLast: 0  Operation# 2
%%   130 ns    Log    PASSED    in receiver_1: Data Check,       Operation# 2  Received.  Data: 07060504  TID: 00  TDest: 0  TUser: 0  TLast: 0
%%   130 ns    Log    INFO      in transmitter_1,                Axi Stream Send.  TData: 0B0A0908  TStrb: 1111  TKeep: 1111  TID: 00  TDest: 0  TUser: 0  TLast: 0  Operation# 3
%%   140 ns    Log    PASSED    in receiver_1: Data Check,       Operation# 3  Received.  Data: 0B0A0908  TID: 00  TDest: 0  TUser: 0  TLast: 0
%%   140 ns    Log    INFO      in transmitter_1,                Axi Stream Send.  TData: 0F0E0D0C  TStrb: 1111  TKeep: 1111  TID: 00  TDest: 0  TUser: 0  TLast: 0  Operation# 4
%%   150 ns    Log    PASSED    in receiver_1: Data Check,       Operation# 4  Received.  Data: 0F0E0D0C  TID: 00  TDest: 0  TUser: 0  TLast: 0
%%   150 ns    Log    INFO      in transmitter_1,                Axi Stream Send.  TData: 13121110  TStrb: 1111  TKeep: 1111  TID: 00  TDest: 0  TUser: 0  TLast: 0  Operation# 5
%%   160 ns    Log    PASSED    in receiver_1: Data Check,       Operation# 5  Received.  Data: 13121110  TID: 00  TDest: 0  TUser: 0  TLast: 0
%%   160 ns    Log    INFO      in transmitter_1,                Axi Stream Send.  TData: 17161514  TStrb: 1111  TKeep: 1111  TID: 00  TDest: 0  TUser: 0  TLast: 0  Operation# 6
%%   170 ns    Log    PASSED    in receiver_1: Data Check,       Operation# 6  Received.  Data: 17161514  TID: 00  TDest: 0  TUser: 0  TLast: 0
%%   170 ns    Log    INFO      in transmitter_1,                Axi Stream Send.  TData: 1B1A1918  TStrb: 1111  TKeep: 1111  TID: 00  TDest: 0  TUser: 0  TLast: 0  Operation# 7
%%   180 ns    Log    PASSED    in receiver_1: Data Check,       Operation# 7  Received.  Data: 1B1A1918  TID: 00  TDest: 0  TUser: 0  TLast: 0
%%   180 ns    Log    INFO      in transmitter_1,                Axi Stream Send.  TData: 1F1E1D1C  TStrb: 1111  TKeep: 1111  TID: 00  TDest: 0  TUser: 0  TLast: 0  Operation# 8
%%   190 ns    Log    PASSED    in receiver_1: Data Check,       Operation# 8  Received.  Data: 1F1E1D1C  TID: 00  TDest: 0  TUser: 0  TLast: 0
%%   190 ns    Log    INFO      in transmitter_1,                Axi Stream Send.  TData: 23222120  TStrb: 1111  TKeep: 1111  TID: 00  TDest: 0  TUser: 0  TLast: 0  Operation# 9
%%   200 ns    Log    PASSED    in receiver_1: Data Check,       Operation# 9  Received.  Data: 23222120  TID: 00  TDest: 0  TUser: 0  TLast: 0
%%   200 ns    Log    INFO      in transmitter_1,                Axi Stream Send.  TData: 27262524  TStrb: 1111  TKeep: 1111  TID: 00  TDest: 0  TUser: 0  TLast: 0  Operation# 10
%%   210 ns    Log    PASSED    in receiver_1: Data Check,       Operation# 10  Received.  Data: 27262524  TID: 00  TDest: 0  TUser: 0  TLast: 0
%%   210 ns    Log    INFO      in transmitter_1,                Axi Stream Send.  TData: 2B2A2928  TStrb: 1111  TKeep: 1111  TID: 00  TDest: 0  TUser: 0  TLast: 0  Operation# 11
%%   220 ns    Log    PASSED    in receiver_1: Data Check,       Operation# 11  Received.  Data: 2B2A2928  TID: 00  TDest: 0  TUser: 0  TLast: 0
%%   220 ns    Log    INFO      in transmitter_1,                Axi Stream Send.  TData: 2F2E2D2C  TStrb: 1111  TKeep: 1111  TID: 00  TDest: 0  TUser: 0  TLast: 0  Operation# 12
%%   230 ns    Log    PASSED    in receiver_1: Data Check,       Operation# 12  Received.  Data: 2F2E2D2C  TID: 00  TDest: 0  TUser: 0  TLast: 0
%%   230 ns    Log    INFO      in transmitter_1,                Axi Stream Send.  TData: 33323130  TStrb: 1111  TKeep: 1111  TID: 00  TDest: 0  TUser: 0  TLast: 0  Operation# 13
%%   240 ns    Log    PASSED    in receiver_1: Data Check,       Operation# 13  Received.  Data: 33323130  TID: 00  TDest: 0  TUser: 0  TLast: 0
%%   240 ns    Log    INFO      in transmitter_1,                Axi Stream Send.  TData: 37363534  TStrb: 1111  TKeep: 1111  TID: 00  TDest: 0  TUser: 0  TLast: 0  Operation# 14
%%   250 ns    Log    PASSED    in receiver_1: Data Check,       Operation# 14  Received.  Data: 37363534  TID: 00  TDest: 0  TUser: 0  TLast: 0
%%   250 ns    Log    INFO      in transmitter_1,                Axi Stream Send.  TData: 3B3A3938  TStrb: 1111  TKeep: 1111  TID: 00  TDest: 0  TUser: 0  TLast: 0  Operation# 15
%%   260 ns    Log    PASSED    in receiver_1: Data Check,       Operation# 15  Received.  Data: 3B3A3938  TID: 00  TDest: 0  TUser: 0  TLast: 0
%%   260 ns    Log    INFO      in transmitter_1,                Axi Stream Send.  TData: 3F3E3D3C  TStrb: 1111  TKeep: 1111  TID: 00  TDest: 0  TUser: 0  TLast: 0  Operation# 16
%%   270 ns    Log    PASSED    in receiver_1: Data Check,       Operation# 16  Received.  Data: 3F3E3D3C  TID: 00  TDest: 0  TUser: 0  TLast: 0
%%   270 ns    Log    ALWAYS    in Default,                      Valid Delay Cycles 2
%%   270 ns    Log    ALWAYS    in Default,                      Send 16 words with each byte incrementing
%%   290 ns    Log    INFO      in transmitter_1,                Axi Stream Send.  TData: 43424140  TStrb: 1111  TKeep: 1111  TID: 00  TDest: 0  TUser: 0  TLast: 0  Operation# 17
%%   300 ns    Log    PASSED    in receiver_1: Data Check,       Operation# 17  Received.  Data: 43424140  TID: 00  TDest: 0  TUser: 0  TLast: 0
%%   320 ns    Log    INFO      in transmitter_1,                Axi Stream Send.  TData: 47464544  TStrb: 1111  TKeep: 1111  TID: 00  TDest: 0  TUser: 0  TLast: 0  Operation# 18
%%   330 ns    Log    PASSED    in receiver_1: Data Check,       Operation# 18  Received.  Data: 47464544  TID: 00  TDest: 0  TUser: 0  TLast: 0
%%   350 ns    Log    INFO      in transmitter_1,                Axi Stream Send.  TData: 4B4A4948  TStrb: 1111  TKeep: 1111  TID: 00  TDest: 0  TUser: 0  TLast: 0  Operation# 19
%%   360 ns    Log    PASSED    in receiver_1: Data Check,       Operation# 19  Received.  Data: 4B4A4948  TID: 00  TDest: 0  TUser: 0  TLast: 0
%%   380 ns    Log    INFO      in transmitter_1,                Axi Stream Send.  TData: 4F4E4D4C  TStrb: 1111  TKeep: 1111  TID: 00  TDest: 0  TUser: 0  TLast: 0  Operation# 20
%%   390 ns    Log    PASSED    in receiver_1: Data Check,       Operation# 20  Received.  Data: 4F4E4D4C  TID: 00  TDest: 0  TUser: 0  TLast: 0
%%   410 ns    Log    INFO      in transmitter_1,                Axi Stream Send.  TData: 53525150  TStrb: 1111  TKeep: 1111  TID: 00  TDest: 0  TUser: 0  TLast: 0  Operation# 21
%%   420 ns    Log    PASSED    in receiver_1: Data Check,       Operation# 21  Received.  Data: 53525150  TID: 00  TDest: 0  TUser: 0  TLast: 0
%%   440 ns    Log    INFO      in transmitter_1,                Axi Stream Send.  TData: 57565554  TStrb: 1111  TKeep: 1111  TID: 00  TDest: 0  TUser: 0  TLast: 0  Operation# 22
%%   450 ns    Log    PASSED    in receiver_1: Data Check,       Operation# 22  Received.  Data: 57565554  TID: 00  TDest: 0  TUser: 0  TLast: 0
%%   470 ns    Log    INFO      in transmitter_1,                Axi Stream Send.  TData: 5B5A5958  TStrb: 1111  TKeep: 1111  TID: 00  TDest: 0  TUser: 0  TLast: 0  Operation# 23
%%   480 ns    Log    PASSED    in receiver_1: Data Check,       Operation# 23  Received.  Data: 5B5A5958  TID: 00  TDest: 0  TUser: 0  TLast: 0
%%   500 ns    Log    INFO      in transmitter_1,                Axi Stream Send.  TData: 5F5E5D5C  TStrb: 1111  TKeep: 1111  TID: 00  TDest: 0  TUser: 0  TLast: 0  Operation# 24
%%   510 ns    Log    PASSED    in receiver_1: Data Check,       Operation# 24  Received.  Data: 5F5E5D5C  TID: 00  TDest: 0  TUser: 0  TLast: 0
%%   530 ns    Log    INFO      in transmitter_1,                Axi Stream Send.  TData: 63626160  TStrb: 1111  TKeep: 1111  TID: 00  TDest: 0  TUser: 0  TLast: 0  Operation# 25
%%   540 ns    Log    PASSED    in receiver_1: Data Check,       Operation# 25  Received.  Data: 63626160  TID: 00  TDest: 0  TUser: 0  TLast: 0
%%   560 ns    Log    INFO      in transmitter_1,                Axi Stream Send.  TData: 67666564  TStrb: 1111  TKeep: 1111  TID: 00  TDest: 0  TUser: 0  TLast: 0  Operation# 26
%%   570 ns    Log    PASSED    in receiver_1: Data Check,       Operation# 26  Received.  Data: 67666564  TID: 00  TDest: 0  TUser: 0  TLast: 0
%%   590 ns    Log    INFO      in transmitter_1,                Axi Stream Send.  TData: 6B6A6968  TStrb: 1111  TKeep: 1111  TID: 00  TDest: 0  TUser: 0  TLast: 0  Operation# 27
%%   600 ns    Log    PASSED    in receiver_1: Data Check,       Operation# 27  Received.  Data: 6B6A6968  TID: 00  TDest: 0  TUser: 0  TLast: 0
%%   620 ns    Log    INFO      in transmitter_1,                Axi Stream Send.  TData: 6F6E6D6C  TStrb: 1111  TKeep: 1111  TID: 00  TDest: 0  TUser: 0  TLast: 0  Operation# 28
%%   630 ns    Log    PASSED    in receiver_1: Data Check,       Operation# 28  Received.  Data: 6F6E6D6C  TID: 00  TDest: 0  TUser: 0  TLast: 0
%%   650 ns    Log    INFO      in transmitter_1,                Axi Stream Send.  TData: 73727170  TStrb: 1111  TKeep: 1111  TID: 00  TDest: 0  TUser: 0  TLast: 0  Operation# 29
%%   660 ns    Log    PASSED    in receiver_1: Data Check,       Operation# 29  Received.  Data: 73727170  TID: 00  TDest: 0  TUser: 0  TLast: 0
%%   680 ns    Log    INFO      in transmitter_1,                Axi Stream Send.  TData: 77767574  TStrb: 1111  TKeep: 1111  TID: 00  TDest: 0  TUser: 0  TLast: 0  Operation# 30
%%   690 ns    Log    PASSED    in receiver_1: Data Check,       Operation# 30  Received.  Data: 77767574  TID: 00  TDest: 0  TUser: 0  TLast: 0
%%   710 ns    Log    INFO      in transmitter_1,                Axi Stream Send.  TData: 7B7A7978  TStrb: 1111  TKeep: 1111  TID: 00  TDest: 0  TUser: 0  TLast: 0  Operation# 31
%%   720 ns    Log    PASSED    in receiver_1: Data Check,       Operation# 31  Received.  Data: 7B7A7978  TID: 00  TDest: 0  TUser: 0  TLast: 0
%%   740 ns    Log    INFO      in transmitter_1,                Axi Stream Send.  TData: 7F7E7D7C  TStrb: 1111  TKeep: 1111  TID: 00  TDest: 0  TUser: 0  TLast: 0  Operation# 32
%%   750 ns    Log    PASSED    in receiver_1: Data Check,       Operation# 32  Received.  Data: 7F7E7D7C  TID: 00  TDest: 0  TUser: 0  TLast: 0
%%   750 ns    Log    ALWAYS    in Default,                      Valid Delay Cycles 4
%%   750 ns    Log    ALWAYS    in Default,                      Send 16 words with each byte incrementing
%%   790 ns    Log    INFO      in transmitter_1,                Axi Stream Send.  TData: 83828180  TStrb: 1111  TKeep: 1111  TID: 00  TDest: 0  TUser: 0  TLast: 0  Operation# 33
%%   800 ns    Log    PASSED    in receiver_1: Data Check,       Operation# 33  Received.  Data: 83828180  TID: 00  TDest: 0  TUser: 0  TLast: 0
%%   840 ns    Log    INFO      in transmitter_1,                Axi Stream Send.  TData: 87868584  TStrb: 1111  TKeep: 1111  TID: 00  TDest: 0  TUser: 0  TLast: 0  Operation# 34
%%   850 ns    Log    PASSED    in receiver_1: Data Check,       Operation# 34  Received.  Data: 87868584  TID: 00  TDest: 0  TUser: 0  TLast: 0
%%   890 ns    Log    INFO      in transmitter_1,                Axi Stream Send.  TData: 8B8A8988  TStrb: 1111  TKeep: 1111  TID: 00  TDest: 0  TUser: 0  TLast: 0  Operation# 35
%%   900 ns    Log    PASSED    in receiver_1: Data Check,       Operation# 35  Received.  Data: 8B8A8988  TID: 00  TDest: 0  TUser: 0  TLast: 0
%%   940 ns    Log    INFO      in transmitter_1,                Axi Stream Send.  TData: 8F8E8D8C  TStrb: 1111  TKeep: 1111  TID: 00  TDest: 0  TUser: 0  TLast: 0  Operation# 36
%%   950 ns    Log    PASSED    in receiver_1: Data Check,       Operation# 36  Received.  Data: 8F8E8D8C  TID: 00  TDest: 0  TUser: 0  TLast: 0
%%   990 ns    Log    INFO      in transmitter_1,                Axi Stream Send.  TData: 93929190  TStrb: 1111  TKeep: 1111  TID: 00  TDest: 0  TUser: 0  TLast: 0  Operation# 37
%%  1000 ns    Log    PASSED    in receiver_1: Data Check,       Operation# 37  Received.  Data: 93929190  TID: 00  TDest: 0  TUser: 0  TLast: 0
%%  1040 ns    Log    INFO      in transmitter_1,                Axi Stream Send.  TData: 97969594  TStrb: 1111  TKeep: 1111  TID: 00  TDest: 0  TUser: 0  TLast: 0  Operation# 38
%%  1050 ns    Log    PASSED    in receiver_1: Data Check,       Operation# 38  Received.  Data: 97969594  TID: 00  TDest: 0  TUser: 0  TLast: 0
%%  1090 ns    Log    INFO      in transmitter_1,                Axi Stream Send.  TData: 9B9A9998  TStrb: 1111  TKeep: 1111  TID: 00  TDest: 0  TUser: 0  TLast: 0  Operation# 39
%%  1100 ns    Log    PASSED    in receiver_1: Data Check,       Operation# 39  Received.  Data: 9B9A9998  TID: 00  TDest: 0  TUser: 0  TLast: 0
%%  1140 ns    Log    INFO      in transmitter_1,                Axi Stream Send.  TData: 9F9E9D9C  TStrb: 1111  TKeep: 1111  TID: 00  TDest: 0  TUser: 0  TLast: 0  Operation# 40
%%  1150 ns    Log    PASSED    in receiver_1: Data Check,       Operation# 40  Received.  Data: 9F9E9D9C  TID: 00  TDest: 0  TUser: 0  TLast: 0
%%  1190 ns    Log    INFO      in transmitter_1,                Axi Stream Send.  TData: A3A2A1A0  TStrb: 1111  TKeep: 1111  TID: 00  TDest: 0  TUser: 0  TLast: 0  Operation# 41
%%  1200 ns    Log    PASSED    in receiver_1: Data Check,       Operation# 41  Received.  Data: A3A2A1A0  TID: 00  TDest: 0  TUser: 0  TLast: 0
%%  1240 ns    Log    INFO      in transmitter_1,                Axi Stream Send.  TData: A7A6A5A4  TStrb: 1111  TKeep: 1111  TID: 00  TDest: 0  TUser: 0  TLast: 0  Operation# 42
%%  1250 ns    Log    PASSED    in receiver_1: Data Check,       Operation# 42  Received.  Data: A7A6A5A4  TID: 00  TDest: 0  TUser: 0  TLast: 0
%%  1290 ns    Log    INFO      in transmitter_1,                Axi Stream Send.  TData: ABAAA9A8  TStrb: 1111  TKeep: 1111  TID: 00  TDest: 0  TUser: 0  TLast: 0  Operation# 43
%%  1300 ns    Log    PASSED    in receiver_1: Data Check,       Operation# 43  Received.  Data: ABAAA9A8  TID: 00  TDest: 0  TUser: 0  TLast: 0
%%  1340 ns    Log    INFO      in transmitter_1,                Axi Stream Send.  TData: AFAEADAC  TStrb: 1111  TKeep: 1111  TID: 00  TDest: 0  TUser: 0  TLast: 0  Operation# 44
%%  1350 ns    Log    PASSED    in receiver_1: Data Check,       Operation# 44  Received.  Data: AFAEADAC  TID: 00  TDest: 0  TUser: 0  TLast: 0
%%  1390 ns    Log    INFO      in transmitter_1,                Axi Stream Send.  TData: B3B2B1B0  TStrb: 1111  TKeep: 1111  TID: 00  TDest: 0  TUser: 0  TLast: 0  Operation# 45
%%  1400 ns    Log    PASSED    in receiver_1: Data Check,       Operation# 45  Received.  Data: B3B2B1B0  TID: 00  TDest: 0  TUser: 0  TLast: 0
%%  1440 ns    Log    INFO      in transmitter_1,                Axi Stream Send.  TData: B7B6B5B4  TStrb: 1111  TKeep: 1111  TID: 00  TDest: 0  TUser: 0  TLast: 0  Operation# 46
%%  1450 ns    Log    PASSED    in receiver_1: Data Check,       Operation# 46  Received.  Data: B7B6B5B4  TID: 00  TDest: 0  TUser: 0  TLast: 0
%%  1490 ns    Log    INFO      in transmitter_1,                Axi Stream Send.  TData: BBBAB9B8  TStrb: 1111  TKeep: 1111  TID: 00  TDest: 0  TUser: 0  TLast: 0  Operation# 47
%%  1500 ns    Log    PASSED    in receiver_1: Data Check,       Operation# 47  Received.  Data: BBBAB9B8  TID: 00  TDest: 0  TUser: 0  TLast: 0
%%  1540 ns    Log    INFO      in transmitter_1,                Axi Stream Send.  TData: BFBEBDBC  TStrb: 1111  TKeep: 1111  TID: 00  TDest: 0  TUser: 0  TLast: 0  Operation# 48
%%  1550 ns    Log    PASSED    in receiver_1: Data Check,       Operation# 48  Received.  Data: BFBEBDBC  TID: 00  TDest: 0  TUser: 0  TLast: 0
%%  1550 ns    Log    ALWAYS    in Default,                      Valid Delay Cycles 0
%%  1550 ns    Log    ALWAYS    in Default,                      Send 16 words with each byte incrementing
%%  1550 ns    Log    INFO      in transmitter_1,                Axi Stream Send.  TData: C3C2C1C0  TStrb: 1111  TKeep: 1111  TID: 00  TDest: 0  TUser: 0  TLast: 0  Operation# 49
%%  1560 ns    Log    PASSED    in receiver_1: Data Check,       Operation# 49  Received.  Data: C3C2C1C0  TID: 00  TDest: 0  TUser: 0  TLast: 0
%%  1560 ns    Log    INFO      in transmitter_1,                Axi Stream Send.  TData: C7C6C5C4  TStrb: 1111  TKeep: 1111  TID: 00  TDest: 0  TUser: 0  TLast: 0  Operation# 50
%%  1570 ns    Log    PASSED    in receiver_1: Data Check,       Operation# 50  Received.  Data: C7C6C5C4  TID: 00  TDest: 0  TUser: 0  TLast: 0
%%  1570 ns    Log    INFO      in transmitter_1,                Axi Stream Send.  TData: CBCAC9C8  TStrb: 1111  TKeep: 1111  TID: 00  TDest: 0  TUser: 0  TLast: 0  Operation# 51
%%  1580 ns    Log    PASSED    in receiver_1: Data Check,       Operation# 51  Received.  Data: CBCAC9C8  TID: 00  TDest: 0  TUser: 0  TLast: 0
%%  1580 ns    Log    INFO      in transmitter_1,                Axi Stream Send.  TData: CFCECDCC  TStrb: 1111  TKeep: 1111  TID: 00  TDest: 0  TUser: 0  TLast: 0  Operation# 52
%%  1590 ns    Log    PASSED    in receiver_1: Data Check,       Operation# 52  Received.  Data: CFCECDCC  TID: 00  TDest: 0  TUser: 0  TLast: 0
%%  1590 ns    Log    INFO      in transmitter_1,                Axi Stream Send.  TData: D3D2D1D0  TStrb: 1111  TKeep: 1111  TID: 00  TDest: 0  TUser: 0  TLast: 0  Operation# 53
%%  1600 ns    Log    PASSED    in receiver_1: Data Check,       Operation# 53  Received.  Data: D3D2D1D0  TID: 00  TDest: 0  TUser: 0  TLast: 0
%%  1600 ns    Log    INFO      in transmitter_1,                Axi Stream Send.  TData: D7D6D5D4  TStrb: 1111  TKeep: 1111  TID: 00  TDest: 0  TUser: 0  TLast: 0  Operation# 54
%%  1610 ns    Log    PASSED    in receiver_1: Data Check,       Operation# 54  Received.  Data: D7D6D5D4  TID: 00  TDest: 0  TUser: 0  TLast: 0
%%  1610 ns    Log    INFO      in transmitter_1,                Axi Stream Send.  TData: DBDAD9D8  TStrb: 1111  TKeep: 1111  TID: 00  TDest: 0  TUser: 0  TLast: 0  Operation# 55
%%  1620 ns    Log    PASSED    in receiver_1: Data Check,       Operation# 55  Received.  Data: DBDAD9D8  TID: 00  TDest: 0  TUser: 0  TLast: 0
%%  1620 ns    Log    INFO      in transmitter_1,                Axi Stream Send.  TData: DFDEDDDC  TStrb: 1111  TKeep: 1111  TID: 00  TDest: 0  TUser: 0  TLast: 0  Operation# 56
%%  1630 ns    Log    PASSED    in receiver_1: Data Check,       Operation# 56  Received.  Data: DFDEDDDC  TID: 00  TDest: 0  TUser: 0  TLast: 0
%%  1630 ns    Log    INFO      in transmitter_1,                Axi Stream Send.  TData: E3E2E1E0  TStrb: 1111  TKeep: 1111  TID: 00  TDest: 0  TUser: 0  TLast: 0  Operation# 57
%%  1640 ns    Log    PASSED    in receiver_1: Data Check,       Operation# 57  Received.  Data: E3E2E1E0  TID: 00  TDest: 0  TUser: 0  TLast: 0
%%  1640 ns    Log    INFO      in transmitter_1,                Axi Stream Send.  TData: E7E6E5E4  TStrb: 1111  TKeep: 1111  TID: 00  TDest: 0  TUser: 0  TLast: 0  Operation# 58
%%  1650 ns    Log    PASSED    in receiver_1: Data Check,       Operation# 58  Received.  Data: E7E6E5E4  TID: 00  TDest: 0  TUser: 0  TLast: 0
%%  1650 ns    Log    INFO      in transmitter_1,                Axi Stream Send.  TData: EBEAE9E8  TStrb: 1111  TKeep: 1111  TID: 00  TDest: 0  TUser: 0  TLast: 0  Operation# 59
%%  1660 ns    Log    PASSED    in receiver_1: Data Check,       Operation# 59  Received.  Data: EBEAE9E8  TID: 00  TDest: 0  TUser: 0  TLast: 0
%%  1660 ns    Log    INFO      in transmitter_1,                Axi Stream Send.  TData: EFEEEDEC  TStrb: 1111  TKeep: 1111  TID: 00  TDest: 0  TUser: 0  TLast: 0  Operation# 60
%%  1670 ns    Log    PASSED    in receiver_1: Data Check,       Operation# 60  Received.  Data: EFEEEDEC  TID: 00  TDest: 0  TUser: 0  TLast: 0
%%  1670 ns    Log    INFO      in transmitter_1,                Axi Stream Send.  TData: F3F2F1F0  TStrb: 1111  TKeep: 1111  TID: 00  TDest: 0  TUser: 0  TLast: 0  Operation# 61
%%  1680 ns    Log    PASSED    in receiver_1: Data Check,       Operation# 61  Received.  Data: F3F2F1F0  TID: 00  TDest: 0  TUser: 0  TLast: 0
%%  1680 ns    Log    INFO      in transmitter_1,                Axi Stream Send.  TData: F7F6F5F4  TStrb: 1111  TKeep: 1111  TID: 00  TDest: 0  TUser: 0  TLast: 0  Operation# 62
%%  1690 ns    Log    PASSED    in receiver_1: Data Check,       Operation# 62  Received.  Data: F7F6F5F4  TID: 00  TDest: 0  TUser: 0  TLast: 0
%%  1690 ns    Log    INFO      in transmitter_1,                Axi Stream Send.  TData: FBFAF9F8  TStrb: 1111  TKeep: 1111  TID: 00  TDest: 0  TUser: 0  TLast: 0  Operation# 63
%%  1700 ns    Log    PASSED    in receiver_1: Data Check,       Operation# 63  Received.  Data: FBFAF9F8  TID: 00  TDest: 0  TUser: 0  TLast: 0
%%  1700 ns    Log    INFO      in transmitter_1,                Axi Stream Send.  TData: FFFEFDFC  TStrb: 1111  TKeep: 1111  TID: 00  TDest: 0  TUser: 0  TLast: 0  Operation# 64
%%  1710 ns    Log    PASSED    in receiver_1: Data Check,       Operation# 64  Received.  Data: FFFEFDFC  TID: 00  TDest: 0  TUser: 0  TLast: 0
