%%          30.0 ns    Log    ALWAYS    in Default,                      Send 256 words with each byte incrementing
%%         110.0 ns    Log    ALWAYS    in Default,                      Send 256 words with each byte incrementing
%%         110.0 ns    Log    INFO      in transmitter_1,                Axi Stream Send.  TData: 07060504  TStrb: 1111  TKeep: 1111  TID: 00  TDest: F  TUser: 0  TLast: 1  Operation# 1
%%         120.0 ns    Log    PASSED    in receiver_1: Data Check,       Operation# 1  Received.  Data: 07060504  TID: 00  TDest: F  TUser: 0  TLast: 1
%%         120.0 ns    Log    INFO      in transmitter_1,                Axi Stream Send.  TData: 0B0A0908  TStrb: 1111  TKeep: 1111  TID: 00  TDest: F  TUser: 0  TLast: 1  Operation# 2
%%         130.0 ns    Log    PASSED    in receiver_1: Data Check,       Operation# 2  Received.  Data: 0B0A0908  TID: 00  TDest: F  TUser: 0  TLast: 1
%%         130.0 ns    Log    INFO      in transmitter_1,                Axi Stream Send.  TData: 0F0E0D0C  TStrb: 1111  TKeep: 1111  TID: 00  TDest: F  TUser: 0  TLast: 1  Operation# 3
%%         140.0 ns    Log    PASSED    in receiver_1: Data Check,       Operation# 3  Received.  Data: 0F0E0D0C  TID: 00  TDest: F  TUser: 0  TLast: 1
%%         140.0 ns    Log    INFO      in transmitter_1,                Axi Stream Send.  TData: 13121110  TStrb: 1111  TKeep: 1111  TID: 00  TDest: F  TUser: 0  TLast: 1  Operation# 4
%%         150.0 ns    Log    PASSED    in receiver_1: Data Check,       Operation# 4  Received.  Data: 13121110  TID: 00  TDest: F  TUser: 0  TLast: 1
%%         150.0 ns    Log    INFO      in transmitter_1,                Axi Stream Send.  TData: 17161514  TStrb: 1111  TKeep: 1111  TID: 00  TDest: F  TUser: 0  TLast: 1  Operation# 5
%%         160.0 ns    Log    PASSED    in receiver_1: Data Check,       Operation# 5  Received.  Data: 17161514  TID: 00  TDest: F  TUser: 0  TLast: 1
%%         160.0 ns    Log    INFO      in transmitter_1,                Axi Stream Send.  TData: 1B1A1918  TStrb: 1111  TKeep: 1111  TID: 00  TDest: F  TUser: 0  TLast: 1  Operation# 6
%%         170.0 ns    Log    PASSED    in receiver_1: Data Check,       Operation# 6  Received.  Data: 1B1A1918  TID: 00  TDest: F  TUser: 0  TLast: 1
%%         170.0 ns    Log    INFO      in transmitter_1,                Axi Stream Send.  TData: 1F1E1D1C  TStrb: 1111  TKeep: 1111  TID: 00  TDest: F  TUser: 0  TLast: 1  Operation# 7
%%         180.0 ns    Log    PASSED    in receiver_1: Data Check,       Operation# 7  Received.  Data: 1F1E1D1C  TID: 00  TDest: F  TUser: 0  TLast: 1
%%         180.0 ns    Log    INFO      in transmitter_1,                Axi Stream Send.  TData: 23222120  TStrb: 1111  TKeep: 1111  TID: 00  TDest: F  TUser: 0  TLast: 1  Operation# 8
%%         190.0 ns    Log    PASSED    in receiver_1: Data Check,       Operation# 8  Received.  Data: 23222120  TID: 00  TDest: F  TUser: 0  TLast: 1
%%         190.0 ns    Log    INFO      in transmitter_1,                Axi Stream Send.  TData: 27262524  TStrb: 1111  TKeep: 1111  TID: 00  TDest: F  TUser: 0  TLast: 1  Operation# 9
%%         200.0 ns    Log    PASSED    in receiver_1: Data Check,       Operation# 9  Received.  Data: 27262524  TID: 00  TDest: F  TUser: 0  TLast: 1
%%         200.0 ns    Log    INFO      in transmitter_1,                Axi Stream Send.  TData: 2B2A2928  TStrb: 1111  TKeep: 1111  TID: 00  TDest: F  TUser: 0  TLast: 1  Operation# 10
%%         210.0 ns    Log    PASSED    in receiver_1: Data Check,       Operation# 10  Received.  Data: 2B2A2928  TID: 00  TDest: F  TUser: 0  TLast: 1
%%         210.0 ns    Log    INFO      in transmitter_1,                Axi Stream Send.  TData: 2F2E2D2C  TStrb: 1111  TKeep: 1111  TID: 00  TDest: F  TUser: 0  TLast: 1  Operation# 11
%%         220.0 ns    Log    PASSED    in receiver_1: Data Check,       Operation# 11  Received.  Data: 2F2E2D2C  TID: 00  TDest: F  TUser: 0  TLast: 1
%%         220.0 ns    Log    INFO      in transmitter_1,                Axi Stream Send.  TData: 33323130  TStrb: 1111  TKeep: 1111  TID: 00  TDest: F  TUser: 0  TLast: 1  Operation# 12
%%         230.0 ns    Log    PASSED    in receiver_1: Data Check,       Operation# 12  Received.  Data: 33323130  TID: 00  TDest: F  TUser: 0  TLast: 1
%%         230.0 ns    Log    INFO      in transmitter_1,                Axi Stream Send.  TData: 37363534  TStrb: 1111  TKeep: 1111  TID: 00  TDest: F  TUser: 0  TLast: 1  Operation# 13
%%         240.0 ns    Log    PASSED    in receiver_1: Data Check,       Operation# 13  Received.  Data: 37363534  TID: 00  TDest: F  TUser: 0  TLast: 1
%%         240.0 ns    Log    INFO      in transmitter_1,                Axi Stream Send.  TData: 3B3A3938  TStrb: 1111  TKeep: 1111  TID: 00  TDest: F  TUser: 0  TLast: 1  Operation# 14
%%         250.0 ns    Log    PASSED    in receiver_1: Data Check,       Operation# 14  Received.  Data: 3B3A3938  TID: 00  TDest: F  TUser: 0  TLast: 1
%%         250.0 ns    Log    INFO      in transmitter_1,                Axi Stream Send.  TData: 3F3E3D3C  TStrb: 1111  TKeep: 1111  TID: 00  TDest: F  TUser: 0  TLast: 1  Operation# 15
%%         260.0 ns    Log    PASSED    in receiver_1: Data Check,       Operation# 15  Received.  Data: 3F3E3D3C  TID: 00  TDest: F  TUser: 0  TLast: 1
%%         260.0 ns    Log    INFO      in transmitter_1,                Axi Stream Send.  TData: 43424140  TStrb: 1111  TKeep: 1111  TID: 00  TDest: F  TUser: 0  TLast: 1  Operation# 16
%%         270.0 ns    Log    PASSED    in receiver_1: Data Check,       Operation# 16  Received.  Data: 43424140  TID: 00  TDest: F  TUser: 0  TLast: 1
%%         270.0 ns    Log    INFO      in transmitter_1,                Axi Stream Send.  TData: 47464544  TStrb: 1111  TKeep: 1111  TID: 00  TDest: E  TUser: 1  TLast: 1  Operation# 17
%%         280.0 ns    Log    PASSED    in receiver_1: Data Check,       Operation# 17  Received.  Data: 47464544  TID: 00  TDest: E  TUser: 1  TLast: 1
%%         280.0 ns    Log    INFO      in transmitter_1,                Axi Stream Send.  TData: 4B4A4948  TStrb: 1111  TKeep: 1111  TID: 00  TDest: E  TUser: 1  TLast: 1  Operation# 18
%%         290.0 ns    Log    PASSED    in receiver_1: Data Check,       Operation# 18  Received.  Data: 4B4A4948  TID: 00  TDest: E  TUser: 1  TLast: 1
%%         290.0 ns    Log    INFO      in transmitter_1,                Axi Stream Send.  TData: 4F4E4D4C  TStrb: 1111  TKeep: 1111  TID: 00  TDest: E  TUser: 1  TLast: 1  Operation# 19
%%         300.0 ns    Log    PASSED    in receiver_1: Data Check,       Operation# 19  Received.  Data: 4F4E4D4C  TID: 00  TDest: E  TUser: 1  TLast: 1
%%         300.0 ns    Log    INFO      in transmitter_1,                Axi Stream Send.  TData: 53525150  TStrb: 1111  TKeep: 1111  TID: 00  TDest: E  TUser: 1  TLast: 1  Operation# 20
%%         310.0 ns    Log    PASSED    in receiver_1: Data Check,       Operation# 20  Received.  Data: 53525150  TID: 00  TDest: E  TUser: 1  TLast: 1
%%         310.0 ns    Log    INFO      in transmitter_1,                Axi Stream Send.  TData: 57565554  TStrb: 1111  TKeep: 1111  TID: 00  TDest: E  TUser: 1  TLast: 1  Operation# 21
%%         320.0 ns    Log    PASSED    in receiver_1: Data Check,       Operation# 21  Received.  Data: 57565554  TID: 00  TDest: E  TUser: 1  TLast: 1
%%         320.0 ns    Log    INFO      in transmitter_1,                Axi Stream Send.  TData: 5B5A5958  TStrb: 1111  TKeep: 1111  TID: 00  TDest: E  TUser: 1  TLast: 1  Operation# 22
%%         330.0 ns    Log    PASSED    in receiver_1: Data Check,       Operation# 22  Received.  Data: 5B5A5958  TID: 00  TDest: E  TUser: 1  TLast: 1
%%         330.0 ns    Log    INFO      in transmitter_1,                Axi Stream Send.  TData: 5F5E5D5C  TStrb: 1111  TKeep: 1111  TID: 00  TDest: E  TUser: 1  TLast: 1  Operation# 23
%%         340.0 ns    Log    PASSED    in receiver_1: Data Check,       Operation# 23  Received.  Data: 5F5E5D5C  TID: 00  TDest: E  TUser: 1  TLast: 1
%%         340.0 ns    Log    INFO      in transmitter_1,                Axi Stream Send.  TData: 63626160  TStrb: 1111  TKeep: 1111  TID: 00  TDest: E  TUser: 1  TLast: 1  Operation# 24
%%         350.0 ns    Log    PASSED    in receiver_1: Data Check,       Operation# 24  Received.  Data: 63626160  TID: 00  TDest: E  TUser: 1  TLast: 1
%%         350.0 ns    Log    INFO      in transmitter_1,                Axi Stream Send.  TData: 67666564  TStrb: 1111  TKeep: 1111  TID: 00  TDest: E  TUser: 1  TLast: 1  Operation# 25
%%         360.0 ns    Log    PASSED    in receiver_1: Data Check,       Operation# 25  Received.  Data: 67666564  TID: 00  TDest: E  TUser: 1  TLast: 1
%%         360.0 ns    Log    INFO      in transmitter_1,                Axi Stream Send.  TData: 6B6A6968  TStrb: 1111  TKeep: 1111  TID: 00  TDest: E  TUser: 1  TLast: 1  Operation# 26
%%         370.0 ns    Log    PASSED    in receiver_1: Data Check,       Operation# 26  Received.  Data: 6B6A6968  TID: 00  TDest: E  TUser: 1  TLast: 1
%%         370.0 ns    Log    INFO      in transmitter_1,                Axi Stream Send.  TData: 6F6E6D6C  TStrb: 1111  TKeep: 1111  TID: 00  TDest: E  TUser: 1  TLast: 1  Operation# 27
%%         380.0 ns    Log    PASSED    in receiver_1: Data Check,       Operation# 27  Received.  Data: 6F6E6D6C  TID: 00  TDest: E  TUser: 1  TLast: 1
%%         380.0 ns    Log    INFO      in transmitter_1,                Axi Stream Send.  TData: 73727170  TStrb: 1111  TKeep: 1111  TID: 00  TDest: E  TUser: 1  TLast: 1  Operation# 28
%%         390.0 ns    Log    PASSED    in receiver_1: Data Check,       Operation# 28  Received.  Data: 73727170  TID: 00  TDest: E  TUser: 1  TLast: 1
%%         390.0 ns    Log    INFO      in transmitter_1,                Axi Stream Send.  TData: 77767574  TStrb: 1111  TKeep: 1111  TID: 00  TDest: E  TUser: 1  TLast: 1  Operation# 29
%%         400.0 ns    Log    PASSED    in receiver_1: Data Check,       Operation# 29  Received.  Data: 77767574  TID: 00  TDest: E  TUser: 1  TLast: 1
%%         400.0 ns    Log    INFO      in transmitter_1,                Axi Stream Send.  TData: 7B7A7978  TStrb: 1111  TKeep: 1111  TID: 00  TDest: E  TUser: 1  TLast: 1  Operation# 30
%%         410.0 ns    Log    PASSED    in receiver_1: Data Check,       Operation# 30  Received.  Data: 7B7A7978  TID: 00  TDest: E  TUser: 1  TLast: 1
%%         410.0 ns    Log    INFO      in transmitter_1,                Axi Stream Send.  TData: 7F7E7D7C  TStrb: 1111  TKeep: 1111  TID: 00  TDest: E  TUser: 1  TLast: 1  Operation# 31
%%         420.0 ns    Log    PASSED    in receiver_1: Data Check,       Operation# 31  Received.  Data: 7F7E7D7C  TID: 00  TDest: E  TUser: 1  TLast: 1
%%         420.0 ns    Log    INFO      in transmitter_1,                Axi Stream Send.  TData: 83828180  TStrb: 1111  TKeep: 1111  TID: 00  TDest: E  TUser: 1  TLast: 1  Operation# 32
%%         430.0 ns    Log    PASSED    in receiver_1: Data Check,       Operation# 32  Received.  Data: 83828180  TID: 00  TDest: E  TUser: 1  TLast: 1
%%         430.0 ns    Log    INFO      in transmitter_1,                Axi Stream Send.  TData: 87868584  TStrb: 1111  TKeep: 1111  TID: 01  TDest: D  TUser: 2  TLast: 1  Operation# 33
%%         440.0 ns    Log    PASSED    in receiver_1: Data Check,       Operation# 33  Received.  Data: 87868584  TID: 01  TDest: D  TUser: 2  TLast: 1
%%         440.0 ns    Log    INFO      in transmitter_1,                Axi Stream Send.  TData: 8B8A8988  TStrb: 1111  TKeep: 1111  TID: 01  TDest: D  TUser: 2  TLast: 1  Operation# 34
%%         450.0 ns    Log    PASSED    in receiver_1: Data Check,       Operation# 34  Received.  Data: 8B8A8988  TID: 01  TDest: D  TUser: 2  TLast: 1
%%         450.0 ns    Log    INFO      in transmitter_1,                Axi Stream Send.  TData: 8F8E8D8C  TStrb: 1111  TKeep: 1111  TID: 01  TDest: D  TUser: 2  TLast: 1  Operation# 35
%%         460.0 ns    Log    PASSED    in receiver_1: Data Check,       Operation# 35  Received.  Data: 8F8E8D8C  TID: 01  TDest: D  TUser: 2  TLast: 1
%%         460.0 ns    Log    INFO      in transmitter_1,                Axi Stream Send.  TData: 93929190  TStrb: 1111  TKeep: 1111  TID: 01  TDest: D  TUser: 2  TLast: 1  Operation# 36
%%         470.0 ns    Log    PASSED    in receiver_1: Data Check,       Operation# 36  Received.  Data: 93929190  TID: 01  TDest: D  TUser: 2  TLast: 1
%%         470.0 ns    Log    INFO      in transmitter_1,                Axi Stream Send.  TData: 97969594  TStrb: 1111  TKeep: 1111  TID: 01  TDest: D  TUser: 2  TLast: 1  Operation# 37
%%         480.0 ns    Log    PASSED    in receiver_1: Data Check,       Operation# 37  Received.  Data: 97969594  TID: 01  TDest: D  TUser: 2  TLast: 1
%%         480.0 ns    Log    INFO      in transmitter_1,                Axi Stream Send.  TData: 9B9A9998  TStrb: 1111  TKeep: 1111  TID: 01  TDest: D  TUser: 2  TLast: 1  Operation# 38
%%         490.0 ns    Log    PASSED    in receiver_1: Data Check,       Operation# 38  Received.  Data: 9B9A9998  TID: 01  TDest: D  TUser: 2  TLast: 1
%%         490.0 ns    Log    INFO      in transmitter_1,                Axi Stream Send.  TData: 9F9E9D9C  TStrb: 1111  TKeep: 1111  TID: 01  TDest: D  TUser: 2  TLast: 1  Operation# 39
%%         500.0 ns    Log    PASSED    in receiver_1: Data Check,       Operation# 39  Received.  Data: 9F9E9D9C  TID: 01  TDest: D  TUser: 2  TLast: 1
%%         500.0 ns    Log    INFO      in transmitter_1,                Axi Stream Send.  TData: A3A2A1A0  TStrb: 1111  TKeep: 1111  TID: 01  TDest: D  TUser: 2  TLast: 1  Operation# 40
%%         510.0 ns    Log    PASSED    in receiver_1: Data Check,       Operation# 40  Received.  Data: A3A2A1A0  TID: 01  TDest: D  TUser: 2  TLast: 1
%%         510.0 ns    Log    INFO      in transmitter_1,                Axi Stream Send.  TData: A7A6A5A4  TStrb: 1111  TKeep: 1111  TID: 01  TDest: D  TUser: 2  TLast: 1  Operation# 41
%%         520.0 ns    Log    PASSED    in receiver_1: Data Check,       Operation# 41  Received.  Data: A7A6A5A4  TID: 01  TDest: D  TUser: 2  TLast: 1
%%         520.0 ns    Log    INFO      in transmitter_1,                Axi Stream Send.  TData: ABAAA9A8  TStrb: 1111  TKeep: 1111  TID: 01  TDest: D  TUser: 2  TLast: 1  Operation# 42
%%         530.0 ns    Log    PASSED    in receiver_1: Data Check,       Operation# 42  Received.  Data: ABAAA9A8  TID: 01  TDest: D  TUser: 2  TLast: 1
%%         530.0 ns    Log    INFO      in transmitter_1,                Axi Stream Send.  TData: AFAEADAC  TStrb: 1111  TKeep: 1111  TID: 01  TDest: D  TUser: 2  TLast: 1  Operation# 43
%%         540.0 ns    Log    PASSED    in receiver_1: Data Check,       Operation# 43  Received.  Data: AFAEADAC  TID: 01  TDest: D  TUser: 2  TLast: 1
%%         540.0 ns    Log    INFO      in transmitter_1,                Axi Stream Send.  TData: B3B2B1B0  TStrb: 1111  TKeep: 1111  TID: 01  TDest: D  TUser: 2  TLast: 1  Operation# 44
%%         550.0 ns    Log    PASSED    in receiver_1: Data Check,       Operation# 44  Received.  Data: B3B2B1B0  TID: 01  TDest: D  TUser: 2  TLast: 1
%%         550.0 ns    Log    INFO      in transmitter_1,                Axi Stream Send.  TData: B7B6B5B4  TStrb: 1111  TKeep: 1111  TID: 01  TDest: D  TUser: 2  TLast: 1  Operation# 45
%%         560.0 ns    Log    PASSED    in receiver_1: Data Check,       Operation# 45  Received.  Data: B7B6B5B4  TID: 01  TDest: D  TUser: 2  TLast: 1
%%         560.0 ns    Log    INFO      in transmitter_1,                Axi Stream Send.  TData: BBBAB9B8  TStrb: 1111  TKeep: 1111  TID: 01  TDest: D  TUser: 2  TLast: 1  Operation# 46
%%         570.0 ns    Log    PASSED    in receiver_1: Data Check,       Operation# 46  Received.  Data: BBBAB9B8  TID: 01  TDest: D  TUser: 2  TLast: 1
%%         570.0 ns    Log    INFO      in transmitter_1,                Axi Stream Send.  TData: BFBEBDBC  TStrb: 1111  TKeep: 1111  TID: 01  TDest: D  TUser: 2  TLast: 1  Operation# 47
%%         580.0 ns    Log    PASSED    in receiver_1: Data Check,       Operation# 47  Received.  Data: BFBEBDBC  TID: 01  TDest: D  TUser: 2  TLast: 1
%%         580.0 ns    Log    INFO      in transmitter_1,                Axi Stream Send.  TData: C3C2C1C0  TStrb: 1111  TKeep: 1111  TID: 01  TDest: D  TUser: 2  TLast: 1  Operation# 48
%%         590.0 ns    Log    PASSED    in receiver_1: Data Check,       Operation# 48  Received.  Data: C3C2C1C0  TID: 01  TDest: D  TUser: 2  TLast: 1
%%         590.0 ns    Log    INFO      in transmitter_1,                Axi Stream Send.  TData: C7C6C5C4  TStrb: 1111  TKeep: 1111  TID: 01  TDest: C  TUser: 3  TLast: 1  Operation# 49
%%         600.0 ns    Log    PASSED    in receiver_1: Data Check,       Operation# 49  Received.  Data: C7C6C5C4  TID: 01  TDest: C  TUser: 3  TLast: 1
%%         600.0 ns    Log    INFO      in transmitter_1,                Axi Stream Send.  TData: CBCAC9C8  TStrb: 1111  TKeep: 1111  TID: 01  TDest: C  TUser: 3  TLast: 1  Operation# 50
%%         610.0 ns    Log    PASSED    in receiver_1: Data Check,       Operation# 50  Received.  Data: CBCAC9C8  TID: 01  TDest: C  TUser: 3  TLast: 1
%%         610.0 ns    Log    INFO      in transmitter_1,                Axi Stream Send.  TData: CFCECDCC  TStrb: 1111  TKeep: 1111  TID: 01  TDest: C  TUser: 3  TLast: 1  Operation# 51
%%         620.0 ns    Log    PASSED    in receiver_1: Data Check,       Operation# 51  Received.  Data: CFCECDCC  TID: 01  TDest: C  TUser: 3  TLast: 1
%%         620.0 ns    Log    INFO      in transmitter_1,                Axi Stream Send.  TData: D3D2D1D0  TStrb: 1111  TKeep: 1111  TID: 01  TDest: C  TUser: 3  TLast: 1  Operation# 52
%%         630.0 ns    Log    PASSED    in receiver_1: Data Check,       Operation# 52  Received.  Data: D3D2D1D0  TID: 01  TDest: C  TUser: 3  TLast: 1
%%         630.0 ns    Log    INFO      in transmitter_1,                Axi Stream Send.  TData: D7D6D5D4  TStrb: 1111  TKeep: 1111  TID: 01  TDest: C  TUser: 3  TLast: 1  Operation# 53
%%         640.0 ns    Log    PASSED    in receiver_1: Data Check,       Operation# 53  Received.  Data: D7D6D5D4  TID: 01  TDest: C  TUser: 3  TLast: 1
%%         640.0 ns    Log    INFO      in transmitter_1,                Axi Stream Send.  TData: DBDAD9D8  TStrb: 1111  TKeep: 1111  TID: 01  TDest: C  TUser: 3  TLast: 1  Operation# 54
%%         650.0 ns    Log    PASSED    in receiver_1: Data Check,       Operation# 54  Received.  Data: DBDAD9D8  TID: 01  TDest: C  TUser: 3  TLast: 1
%%         650.0 ns    Log    INFO      in transmitter_1,                Axi Stream Send.  TData: DFDEDDDC  TStrb: 1111  TKeep: 1111  TID: 01  TDest: C  TUser: 3  TLast: 1  Operation# 55
%%         660.0 ns    Log    PASSED    in receiver_1: Data Check,       Operation# 55  Received.  Data: DFDEDDDC  TID: 01  TDest: C  TUser: 3  TLast: 1
%%         660.0 ns    Log    INFO      in transmitter_1,                Axi Stream Send.  TData: E3E2E1E0  TStrb: 1111  TKeep: 1111  TID: 01  TDest: C  TUser: 3  TLast: 1  Operation# 56
%%         670.0 ns    Log    PASSED    in receiver_1: Data Check,       Operation# 56  Received.  Data: E3E2E1E0  TID: 01  TDest: C  TUser: 3  TLast: 1
%%         670.0 ns    Log    INFO      in transmitter_1,                Axi Stream Send.  TData: E7E6E5E4  TStrb: 1111  TKeep: 1111  TID: 01  TDest: C  TUser: 3  TLast: 1  Operation# 57
%%         680.0 ns    Log    PASSED    in receiver_1: Data Check,       Operation# 57  Received.  Data: E7E6E5E4  TID: 01  TDest: C  TUser: 3  TLast: 1
%%         680.0 ns    Log    INFO      in transmitter_1,                Axi Stream Send.  TData: EBEAE9E8  TStrb: 1111  TKeep: 1111  TID: 01  TDest: C  TUser: 3  TLast: 1  Operation# 58
%%         690.0 ns    Log    PASSED    in receiver_1: Data Check,       Operation# 58  Received.  Data: EBEAE9E8  TID: 01  TDest: C  TUser: 3  TLast: 1
%%         690.0 ns    Log    INFO      in transmitter_1,                Axi Stream Send.  TData: EFEEEDEC  TStrb: 1111  TKeep: 1111  TID: 01  TDest: C  TUser: 3  TLast: 1  Operation# 59
%%         700.0 ns    Log    PASSED    in receiver_1: Data Check,       Operation# 59  Received.  Data: EFEEEDEC  TID: 01  TDest: C  TUser: 3  TLast: 1
%%         700.0 ns    Log    INFO      in transmitter_1,                Axi Stream Send.  TData: F3F2F1F0  TStrb: 1111  TKeep: 1111  TID: 01  TDest: C  TUser: 3  TLast: 1  Operation# 60
%%         710.0 ns    Log    PASSED    in receiver_1: Data Check,       Operation# 60  Received.  Data: F3F2F1F0  TID: 01  TDest: C  TUser: 3  TLast: 1
%%         710.0 ns    Log    INFO      in transmitter_1,                Axi Stream Send.  TData: F7F6F5F4  TStrb: 1111  TKeep: 1111  TID: 01  TDest: C  TUser: 3  TLast: 1  Operation# 61
%%         720.0 ns    Log    PASSED    in receiver_1: Data Check,       Operation# 61  Received.  Data: F7F6F5F4  TID: 01  TDest: C  TUser: 3  TLast: 1
%%         720.0 ns    Log    INFO      in transmitter_1,                Axi Stream Send.  TData: FBFAF9F8  TStrb: 1111  TKeep: 1111  TID: 01  TDest: C  TUser: 3  TLast: 1  Operation# 62
%%         730.0 ns    Log    PASSED    in receiver_1: Data Check,       Operation# 62  Received.  Data: FBFAF9F8  TID: 01  TDest: C  TUser: 3  TLast: 1
%%         730.0 ns    Log    INFO      in transmitter_1,                Axi Stream Send.  TData: FFFEFDFC  TStrb: 1111  TKeep: 1111  TID: 01  TDest: C  TUser: 3  TLast: 1  Operation# 63
%%         740.0 ns    Log    PASSED    in receiver_1: Data Check,       Operation# 63  Received.  Data: FFFEFDFC  TID: 01  TDest: C  TUser: 3  TLast: 1
%%         740.0 ns    Log    INFO      in transmitter_1,                Axi Stream Send.  TData: 03020100  TStrb: 1111  TKeep: 1111  TID: 01  TDest: C  TUser: 3  TLast: 1  Operation# 64
%%         750.0 ns    Log    PASSED    in receiver_1: Data Check,       Operation# 64  Received.  Data: 03020100  TID: 01  TDest: C  TUser: 3  TLast: 1
%%         750.0 ns    Log    INFO      in transmitter_1,                Axi Stream Send.  TData: 07060504  TStrb: 1111  TKeep: 1111  TID: 02  TDest: B  TUser: 4  TLast: 1  Operation# 65
%%         760.0 ns    Log    PASSED    in receiver_1: Data Check,       Operation# 65  Received.  Data: 07060504  TID: 02  TDest: B  TUser: 4  TLast: 1
%%         760.0 ns    Log    INFO      in transmitter_1,                Axi Stream Send.  TData: 0B0A0908  TStrb: 1111  TKeep: 1111  TID: 02  TDest: B  TUser: 4  TLast: 1  Operation# 66
%%         770.0 ns    Log    PASSED    in receiver_1: Data Check,       Operation# 66  Received.  Data: 0B0A0908  TID: 02  TDest: B  TUser: 4  TLast: 1
%%         770.0 ns    Log    INFO      in transmitter_1,                Axi Stream Send.  TData: 0F0E0D0C  TStrb: 1111  TKeep: 1111  TID: 02  TDest: B  TUser: 4  TLast: 1  Operation# 67
%%         780.0 ns    Log    PASSED    in receiver_1: Data Check,       Operation# 67  Received.  Data: 0F0E0D0C  TID: 02  TDest: B  TUser: 4  TLast: 1
%%         780.0 ns    Log    INFO      in transmitter_1,                Axi Stream Send.  TData: 13121110  TStrb: 1111  TKeep: 1111  TID: 02  TDest: B  TUser: 4  TLast: 1  Operation# 68
%%         790.0 ns    Log    PASSED    in receiver_1: Data Check,       Operation# 68  Received.  Data: 13121110  TID: 02  TDest: B  TUser: 4  TLast: 1
%%         790.0 ns    Log    INFO      in transmitter_1,                Axi Stream Send.  TData: 17161514  TStrb: 1111  TKeep: 1111  TID: 02  TDest: B  TUser: 4  TLast: 1  Operation# 69
%%         800.0 ns    Log    PASSED    in receiver_1: Data Check,       Operation# 69  Received.  Data: 17161514  TID: 02  TDest: B  TUser: 4  TLast: 1
%%         800.0 ns    Log    INFO      in transmitter_1,                Axi Stream Send.  TData: 1B1A1918  TStrb: 1111  TKeep: 1111  TID: 02  TDest: B  TUser: 4  TLast: 1  Operation# 70
%%         810.0 ns    Log    PASSED    in receiver_1: Data Check,       Operation# 70  Received.  Data: 1B1A1918  TID: 02  TDest: B  TUser: 4  TLast: 1
%%         810.0 ns    Log    INFO      in transmitter_1,                Axi Stream Send.  TData: 1F1E1D1C  TStrb: 1111  TKeep: 1111  TID: 02  TDest: B  TUser: 4  TLast: 1  Operation# 71
%%         820.0 ns    Log    PASSED    in receiver_1: Data Check,       Operation# 71  Received.  Data: 1F1E1D1C  TID: 02  TDest: B  TUser: 4  TLast: 1
%%         820.0 ns    Log    INFO      in transmitter_1,                Axi Stream Send.  TData: 23222120  TStrb: 1111  TKeep: 1111  TID: 02  TDest: B  TUser: 4  TLast: 1  Operation# 72
%%         830.0 ns    Log    PASSED    in receiver_1: Data Check,       Operation# 72  Received.  Data: 23222120  TID: 02  TDest: B  TUser: 4  TLast: 1
%%         830.0 ns    Log    INFO      in transmitter_1,                Axi Stream Send.  TData: 27262524  TStrb: 1111  TKeep: 1111  TID: 02  TDest: B  TUser: 4  TLast: 1  Operation# 73
%%         840.0 ns    Log    PASSED    in receiver_1: Data Check,       Operation# 73  Received.  Data: 27262524  TID: 02  TDest: B  TUser: 4  TLast: 1
%%         840.0 ns    Log    INFO      in transmitter_1,                Axi Stream Send.  TData: 2B2A2928  TStrb: 1111  TKeep: 1111  TID: 02  TDest: B  TUser: 4  TLast: 1  Operation# 74
%%         850.0 ns    Log    PASSED    in receiver_1: Data Check,       Operation# 74  Received.  Data: 2B2A2928  TID: 02  TDest: B  TUser: 4  TLast: 1
%%         850.0 ns    Log    INFO      in transmitter_1,                Axi Stream Send.  TData: 2F2E2D2C  TStrb: 1111  TKeep: 1111  TID: 02  TDest: B  TUser: 4  TLast: 1  Operation# 75
%%         860.0 ns    Log    PASSED    in receiver_1: Data Check,       Operation# 75  Received.  Data: 2F2E2D2C  TID: 02  TDest: B  TUser: 4  TLast: 1
%%         860.0 ns    Log    INFO      in transmitter_1,                Axi Stream Send.  TData: 33323130  TStrb: 1111  TKeep: 1111  TID: 02  TDest: B  TUser: 4  TLast: 1  Operation# 76
%%         870.0 ns    Log    PASSED    in receiver_1: Data Check,       Operation# 76  Received.  Data: 33323130  TID: 02  TDest: B  TUser: 4  TLast: 1
%%         870.0 ns    Log    INFO      in transmitter_1,                Axi Stream Send.  TData: 37363534  TStrb: 1111  TKeep: 1111  TID: 02  TDest: B  TUser: 4  TLast: 1  Operation# 77
%%         880.0 ns    Log    PASSED    in receiver_1: Data Check,       Operation# 77  Received.  Data: 37363534  TID: 02  TDest: B  TUser: 4  TLast: 1
%%         880.0 ns    Log    INFO      in transmitter_1,                Axi Stream Send.  TData: 3B3A3938  TStrb: 1111  TKeep: 1111  TID: 02  TDest: B  TUser: 4  TLast: 1  Operation# 78
%%         890.0 ns    Log    PASSED    in receiver_1: Data Check,       Operation# 78  Received.  Data: 3B3A3938  TID: 02  TDest: B  TUser: 4  TLast: 1
%%         890.0 ns    Log    INFO      in transmitter_1,                Axi Stream Send.  TData: 3F3E3D3C  TStrb: 1111  TKeep: 1111  TID: 02  TDest: B  TUser: 4  TLast: 1  Operation# 79
%%         900.0 ns    Log    PASSED    in receiver_1: Data Check,       Operation# 79  Received.  Data: 3F3E3D3C  TID: 02  TDest: B  TUser: 4  TLast: 1
%%         900.0 ns    Log    INFO      in transmitter_1,                Axi Stream Send.  TData: 43424140  TStrb: 1111  TKeep: 1111  TID: 02  TDest: B  TUser: 4  TLast: 1  Operation# 80
%%         910.0 ns    Log    PASSED    in receiver_1: Data Check,       Operation# 80  Received.  Data: 43424140  TID: 02  TDest: B  TUser: 4  TLast: 1
%%         910.0 ns    Log    INFO      in transmitter_1,                Axi Stream Send.  TData: 47464544  TStrb: 1111  TKeep: 1111  TID: 02  TDest: A  TUser: 5  TLast: 1  Operation# 81
%%         920.0 ns    Log    PASSED    in receiver_1: Data Check,       Operation# 81  Received.  Data: 47464544  TID: 02  TDest: A  TUser: 5  TLast: 1
%%         920.0 ns    Log    INFO      in transmitter_1,                Axi Stream Send.  TData: 4B4A4948  TStrb: 1111  TKeep: 1111  TID: 02  TDest: A  TUser: 5  TLast: 1  Operation# 82
%%         930.0 ns    Log    PASSED    in receiver_1: Data Check,       Operation# 82  Received.  Data: 4B4A4948  TID: 02  TDest: A  TUser: 5  TLast: 1
%%         930.0 ns    Log    INFO      in transmitter_1,                Axi Stream Send.  TData: 4F4E4D4C  TStrb: 1111  TKeep: 1111  TID: 02  TDest: A  TUser: 5  TLast: 1  Operation# 83
%%         940.0 ns    Log    PASSED    in receiver_1: Data Check,       Operation# 83  Received.  Data: 4F4E4D4C  TID: 02  TDest: A  TUser: 5  TLast: 1
%%         940.0 ns    Log    INFO      in transmitter_1,                Axi Stream Send.  TData: 53525150  TStrb: 1111  TKeep: 1111  TID: 02  TDest: A  TUser: 5  TLast: 1  Operation# 84
%%         950.0 ns    Log    PASSED    in receiver_1: Data Check,       Operation# 84  Received.  Data: 53525150  TID: 02  TDest: A  TUser: 5  TLast: 1
%%         950.0 ns    Log    INFO      in transmitter_1,                Axi Stream Send.  TData: 57565554  TStrb: 1111  TKeep: 1111  TID: 02  TDest: A  TUser: 5  TLast: 1  Operation# 85
%%         960.0 ns    Log    PASSED    in receiver_1: Data Check,       Operation# 85  Received.  Data: 57565554  TID: 02  TDest: A  TUser: 5  TLast: 1
%%         960.0 ns    Log    INFO      in transmitter_1,                Axi Stream Send.  TData: 5B5A5958  TStrb: 1111  TKeep: 1111  TID: 02  TDest: A  TUser: 5  TLast: 1  Operation# 86
%%         970.0 ns    Log    PASSED    in receiver_1: Data Check,       Operation# 86  Received.  Data: 5B5A5958  TID: 02  TDest: A  TUser: 5  TLast: 1
%%         970.0 ns    Log    INFO      in transmitter_1,                Axi Stream Send.  TData: 5F5E5D5C  TStrb: 1111  TKeep: 1111  TID: 02  TDest: A  TUser: 5  TLast: 1  Operation# 87
%%         980.0 ns    Log    PASSED    in receiver_1: Data Check,       Operation# 87  Received.  Data: 5F5E5D5C  TID: 02  TDest: A  TUser: 5  TLast: 1
%%         980.0 ns    Log    INFO      in transmitter_1,                Axi Stream Send.  TData: 63626160  TStrb: 1111  TKeep: 1111  TID: 02  TDest: A  TUser: 5  TLast: 1  Operation# 88
%%         990.0 ns    Log    PASSED    in receiver_1: Data Check,       Operation# 88  Received.  Data: 63626160  TID: 02  TDest: A  TUser: 5  TLast: 1
%%         990.0 ns    Log    INFO      in transmitter_1,                Axi Stream Send.  TData: 67666564  TStrb: 1111  TKeep: 1111  TID: 02  TDest: A  TUser: 5  TLast: 1  Operation# 89
%%        1000.0 ns    Log    PASSED    in receiver_1: Data Check,       Operation# 89  Received.  Data: 67666564  TID: 02  TDest: A  TUser: 5  TLast: 1
%%        1000.0 ns    Log    INFO      in transmitter_1,                Axi Stream Send.  TData: 6B6A6968  TStrb: 1111  TKeep: 1111  TID: 02  TDest: A  TUser: 5  TLast: 1  Operation# 90
%%        1010.0 ns    Log    PASSED    in receiver_1: Data Check,       Operation# 90  Received.  Data: 6B6A6968  TID: 02  TDest: A  TUser: 5  TLast: 1
%%        1010.0 ns    Log    INFO      in transmitter_1,                Axi Stream Send.  TData: 6F6E6D6C  TStrb: 1111  TKeep: 1111  TID: 02  TDest: A  TUser: 5  TLast: 1  Operation# 91
%%        1020.0 ns    Log    PASSED    in receiver_1: Data Check,       Operation# 91  Received.  Data: 6F6E6D6C  TID: 02  TDest: A  TUser: 5  TLast: 1
%%        1020.0 ns    Log    INFO      in transmitter_1,                Axi Stream Send.  TData: 73727170  TStrb: 1111  TKeep: 1111  TID: 02  TDest: A  TUser: 5  TLast: 1  Operation# 92
%%        1030.0 ns    Log    PASSED    in receiver_1: Data Check,       Operation# 92  Received.  Data: 73727170  TID: 02  TDest: A  TUser: 5  TLast: 1
%%        1030.0 ns    Log    INFO      in transmitter_1,                Axi Stream Send.  TData: 77767574  TStrb: 1111  TKeep: 1111  TID: 02  TDest: A  TUser: 5  TLast: 1  Operation# 93
%%        1040.0 ns    Log    PASSED    in receiver_1: Data Check,       Operation# 93  Received.  Data: 77767574  TID: 02  TDest: A  TUser: 5  TLast: 1
%%        1040.0 ns    Log    INFO      in transmitter_1,                Axi Stream Send.  TData: 7B7A7978  TStrb: 1111  TKeep: 1111  TID: 02  TDest: A  TUser: 5  TLast: 1  Operation# 94
%%        1050.0 ns    Log    PASSED    in receiver_1: Data Check,       Operation# 94  Received.  Data: 7B7A7978  TID: 02  TDest: A  TUser: 5  TLast: 1
%%        1050.0 ns    Log    INFO      in transmitter_1,                Axi Stream Send.  TData: 7F7E7D7C  TStrb: 1111  TKeep: 1111  TID: 02  TDest: A  TUser: 5  TLast: 1  Operation# 95
%%        1060.0 ns    Log    PASSED    in receiver_1: Data Check,       Operation# 95  Received.  Data: 7F7E7D7C  TID: 02  TDest: A  TUser: 5  TLast: 1
%%        1060.0 ns    Log    INFO      in transmitter_1,                Axi Stream Send.  TData: 83828180  TStrb: 1111  TKeep: 1111  TID: 02  TDest: A  TUser: 5  TLast: 1  Operation# 96
%%        1070.0 ns    Log    PASSED    in receiver_1: Data Check,       Operation# 96  Received.  Data: 83828180  TID: 02  TDest: A  TUser: 5  TLast: 1
%%        1070.0 ns    Log    INFO      in transmitter_1,                Axi Stream Send.  TData: 87868584  TStrb: 1111  TKeep: 1111  TID: 03  TDest: 9  TUser: 6  TLast: 1  Operation# 97
%%        1080.0 ns    Log    PASSED    in receiver_1: Data Check,       Operation# 97  Received.  Data: 87868584  TID: 03  TDest: 9  TUser: 6  TLast: 1
%%        1080.0 ns    Log    INFO      in transmitter_1,                Axi Stream Send.  TData: 8B8A8988  TStrb: 1111  TKeep: 1111  TID: 03  TDest: 9  TUser: 6  TLast: 1  Operation# 98
%%        1090.0 ns    Log    PASSED    in receiver_1: Data Check,       Operation# 98  Received.  Data: 8B8A8988  TID: 03  TDest: 9  TUser: 6  TLast: 1
%%        1090.0 ns    Log    INFO      in transmitter_1,                Axi Stream Send.  TData: 8F8E8D8C  TStrb: 1111  TKeep: 1111  TID: 03  TDest: 9  TUser: 6  TLast: 1  Operation# 99
%%        1100.0 ns    Log    PASSED    in receiver_1: Data Check,       Operation# 99  Received.  Data: 8F8E8D8C  TID: 03  TDest: 9  TUser: 6  TLast: 1
%%        1100.0 ns    Log    INFO      in transmitter_1,                Axi Stream Send.  TData: 93929190  TStrb: 1111  TKeep: 1111  TID: 03  TDest: 9  TUser: 6  TLast: 1  Operation# 100
%%        1110.0 ns    Log    PASSED    in receiver_1: Data Check,       Operation# 100  Received.  Data: 93929190  TID: 03  TDest: 9  TUser: 6  TLast: 1
%%        1110.0 ns    Log    INFO      in transmitter_1,                Axi Stream Send.  TData: 97969594  TStrb: 1111  TKeep: 1111  TID: 03  TDest: 9  TUser: 6  TLast: 1  Operation# 101
%%        1120.0 ns    Log    PASSED    in receiver_1: Data Check,       Operation# 101  Received.  Data: 97969594  TID: 03  TDest: 9  TUser: 6  TLast: 1
%%        1120.0 ns    Log    INFO      in transmitter_1,                Axi Stream Send.  TData: 9B9A9998  TStrb: 1111  TKeep: 1111  TID: 03  TDest: 9  TUser: 6  TLast: 1  Operation# 102
%%        1130.0 ns    Log    PASSED    in receiver_1: Data Check,       Operation# 102  Received.  Data: 9B9A9998  TID: 03  TDest: 9  TUser: 6  TLast: 1
%%        1130.0 ns    Log    INFO      in transmitter_1,                Axi Stream Send.  TData: 9F9E9D9C  TStrb: 1111  TKeep: 1111  TID: 03  TDest: 9  TUser: 6  TLast: 1  Operation# 103
%%        1140.0 ns    Log    PASSED    in receiver_1: Data Check,       Operation# 103  Received.  Data: 9F9E9D9C  TID: 03  TDest: 9  TUser: 6  TLast: 1
%%        1140.0 ns    Log    INFO      in transmitter_1,                Axi Stream Send.  TData: A3A2A1A0  TStrb: 1111  TKeep: 1111  TID: 03  TDest: 9  TUser: 6  TLast: 1  Operation# 104
%%        1150.0 ns    Log    PASSED    in receiver_1: Data Check,       Operation# 104  Received.  Data: A3A2A1A0  TID: 03  TDest: 9  TUser: 6  TLast: 1
%%        1150.0 ns    Log    INFO      in transmitter_1,                Axi Stream Send.  TData: A7A6A5A4  TStrb: 1111  TKeep: 1111  TID: 03  TDest: 9  TUser: 6  TLast: 1  Operation# 105
%%        1160.0 ns    Log    PASSED    in receiver_1: Data Check,       Operation# 105  Received.  Data: A7A6A5A4  TID: 03  TDest: 9  TUser: 6  TLast: 1
%%        1160.0 ns    Log    INFO      in transmitter_1,                Axi Stream Send.  TData: ABAAA9A8  TStrb: 1111  TKeep: 1111  TID: 03  TDest: 9  TUser: 6  TLast: 1  Operation# 106
%%        1170.0 ns    Log    PASSED    in receiver_1: Data Check,       Operation# 106  Received.  Data: ABAAA9A8  TID: 03  TDest: 9  TUser: 6  TLast: 1
%%        1170.0 ns    Log    INFO      in transmitter_1,                Axi Stream Send.  TData: AFAEADAC  TStrb: 1111  TKeep: 1111  TID: 03  TDest: 9  TUser: 6  TLast: 1  Operation# 107
%%        1180.0 ns    Log    PASSED    in receiver_1: Data Check,       Operation# 107  Received.  Data: AFAEADAC  TID: 03  TDest: 9  TUser: 6  TLast: 1
%%        1180.0 ns    Log    INFO      in transmitter_1,                Axi Stream Send.  TData: B3B2B1B0  TStrb: 1111  TKeep: 1111  TID: 03  TDest: 9  TUser: 6  TLast: 1  Operation# 108
%%        1190.0 ns    Log    PASSED    in receiver_1: Data Check,       Operation# 108  Received.  Data: B3B2B1B0  TID: 03  TDest: 9  TUser: 6  TLast: 1
%%        1190.0 ns    Log    INFO      in transmitter_1,                Axi Stream Send.  TData: B7B6B5B4  TStrb: 1111  TKeep: 1111  TID: 03  TDest: 9  TUser: 6  TLast: 1  Operation# 109
%%        1200.0 ns    Log    PASSED    in receiver_1: Data Check,       Operation# 109  Received.  Data: B7B6B5B4  TID: 03  TDest: 9  TUser: 6  TLast: 1
%%        1200.0 ns    Log    INFO      in transmitter_1,                Axi Stream Send.  TData: BBBAB9B8  TStrb: 1111  TKeep: 1111  TID: 03  TDest: 9  TUser: 6  TLast: 1  Operation# 110
%%        1210.0 ns    Log    PASSED    in receiver_1: Data Check,       Operation# 110  Received.  Data: BBBAB9B8  TID: 03  TDest: 9  TUser: 6  TLast: 1
%%        1210.0 ns    Log    INFO      in transmitter_1,                Axi Stream Send.  TData: BFBEBDBC  TStrb: 1111  TKeep: 1111  TID: 03  TDest: 9  TUser: 6  TLast: 1  Operation# 111
%%        1220.0 ns    Log    PASSED    in receiver_1: Data Check,       Operation# 111  Received.  Data: BFBEBDBC  TID: 03  TDest: 9  TUser: 6  TLast: 1
%%        1220.0 ns    Log    INFO      in transmitter_1,                Axi Stream Send.  TData: C3C2C1C0  TStrb: 1111  TKeep: 1111  TID: 03  TDest: 9  TUser: 6  TLast: 1  Operation# 112
%%        1230.0 ns    Log    PASSED    in receiver_1: Data Check,       Operation# 112  Received.  Data: C3C2C1C0  TID: 03  TDest: 9  TUser: 6  TLast: 1
%%        1230.0 ns    Log    INFO      in transmitter_1,                Axi Stream Send.  TData: C7C6C5C4  TStrb: 1111  TKeep: 1111  TID: 03  TDest: 8  TUser: 7  TLast: 1  Operation# 113
%%        1240.0 ns    Log    PASSED    in receiver_1: Data Check,       Operation# 113  Received.  Data: C7C6C5C4  TID: 03  TDest: 8  TUser: 7  TLast: 1
%%        1240.0 ns    Log    INFO      in transmitter_1,                Axi Stream Send.  TData: CBCAC9C8  TStrb: 1111  TKeep: 1111  TID: 03  TDest: 8  TUser: 7  TLast: 1  Operation# 114
%%        1250.0 ns    Log    PASSED    in receiver_1: Data Check,       Operation# 114  Received.  Data: CBCAC9C8  TID: 03  TDest: 8  TUser: 7  TLast: 1
%%        1250.0 ns    Log    INFO      in transmitter_1,                Axi Stream Send.  TData: CFCECDCC  TStrb: 1111  TKeep: 1111  TID: 03  TDest: 8  TUser: 7  TLast: 1  Operation# 115
%%        1260.0 ns    Log    PASSED    in receiver_1: Data Check,       Operation# 115  Received.  Data: CFCECDCC  TID: 03  TDest: 8  TUser: 7  TLast: 1
%%        1260.0 ns    Log    INFO      in transmitter_1,                Axi Stream Send.  TData: D3D2D1D0  TStrb: 1111  TKeep: 1111  TID: 03  TDest: 8  TUser: 7  TLast: 1  Operation# 116
%%        1270.0 ns    Log    PASSED    in receiver_1: Data Check,       Operation# 116  Received.  Data: D3D2D1D0  TID: 03  TDest: 8  TUser: 7  TLast: 1
%%        1270.0 ns    Log    INFO      in transmitter_1,                Axi Stream Send.  TData: D7D6D5D4  TStrb: 1111  TKeep: 1111  TID: 03  TDest: 8  TUser: 7  TLast: 1  Operation# 117
%%        1280.0 ns    Log    PASSED    in receiver_1: Data Check,       Operation# 117  Received.  Data: D7D6D5D4  TID: 03  TDest: 8  TUser: 7  TLast: 1
%%        1280.0 ns    Log    INFO      in transmitter_1,                Axi Stream Send.  TData: DBDAD9D8  TStrb: 1111  TKeep: 1111  TID: 03  TDest: 8  TUser: 7  TLast: 1  Operation# 118
%%        1290.0 ns    Log    PASSED    in receiver_1: Data Check,       Operation# 118  Received.  Data: DBDAD9D8  TID: 03  TDest: 8  TUser: 7  TLast: 1
%%        1290.0 ns    Log    INFO      in transmitter_1,                Axi Stream Send.  TData: DFDEDDDC  TStrb: 1111  TKeep: 1111  TID: 03  TDest: 8  TUser: 7  TLast: 1  Operation# 119
%%        1300.0 ns    Log    PASSED    in receiver_1: Data Check,       Operation# 119  Received.  Data: DFDEDDDC  TID: 03  TDest: 8  TUser: 7  TLast: 1
%%        1300.0 ns    Log    INFO      in transmitter_1,                Axi Stream Send.  TData: E3E2E1E0  TStrb: 1111  TKeep: 1111  TID: 03  TDest: 8  TUser: 7  TLast: 1  Operation# 120
%%        1310.0 ns    Log    PASSED    in receiver_1: Data Check,       Operation# 120  Received.  Data: E3E2E1E0  TID: 03  TDest: 8  TUser: 7  TLast: 1
%%        1310.0 ns    Log    INFO      in transmitter_1,                Axi Stream Send.  TData: E7E6E5E4  TStrb: 1111  TKeep: 1111  TID: 03  TDest: 8  TUser: 7  TLast: 1  Operation# 121
%%        1320.0 ns    Log    PASSED    in receiver_1: Data Check,       Operation# 121  Received.  Data: E7E6E5E4  TID: 03  TDest: 8  TUser: 7  TLast: 1
%%        1320.0 ns    Log    INFO      in transmitter_1,                Axi Stream Send.  TData: EBEAE9E8  TStrb: 1111  TKeep: 1111  TID: 03  TDest: 8  TUser: 7  TLast: 1  Operation# 122
%%        1330.0 ns    Log    PASSED    in receiver_1: Data Check,       Operation# 122  Received.  Data: EBEAE9E8  TID: 03  TDest: 8  TUser: 7  TLast: 1
%%        1330.0 ns    Log    INFO      in transmitter_1,                Axi Stream Send.  TData: EFEEEDEC  TStrb: 1111  TKeep: 1111  TID: 03  TDest: 8  TUser: 7  TLast: 1  Operation# 123
%%        1340.0 ns    Log    PASSED    in receiver_1: Data Check,       Operation# 123  Received.  Data: EFEEEDEC  TID: 03  TDest: 8  TUser: 7  TLast: 1
%%        1340.0 ns    Log    INFO      in transmitter_1,                Axi Stream Send.  TData: F3F2F1F0  TStrb: 1111  TKeep: 1111  TID: 03  TDest: 8  TUser: 7  TLast: 1  Operation# 124
%%        1350.0 ns    Log    PASSED    in receiver_1: Data Check,       Operation# 124  Received.  Data: F3F2F1F0  TID: 03  TDest: 8  TUser: 7  TLast: 1
%%        1350.0 ns    Log    INFO      in transmitter_1,                Axi Stream Send.  TData: F7F6F5F4  TStrb: 1111  TKeep: 1111  TID: 03  TDest: 8  TUser: 7  TLast: 1  Operation# 125
%%        1360.0 ns    Log    PASSED    in receiver_1: Data Check,       Operation# 125  Received.  Data: F7F6F5F4  TID: 03  TDest: 8  TUser: 7  TLast: 1
%%        1360.0 ns    Log    INFO      in transmitter_1,                Axi Stream Send.  TData: FBFAF9F8  TStrb: 1111  TKeep: 1111  TID: 03  TDest: 8  TUser: 7  TLast: 1  Operation# 126
%%        1370.0 ns    Log    PASSED    in receiver_1: Data Check,       Operation# 126  Received.  Data: FBFAF9F8  TID: 03  TDest: 8  TUser: 7  TLast: 1
%%        1370.0 ns    Log    INFO      in transmitter_1,                Axi Stream Send.  TData: FFFEFDFC  TStrb: 1111  TKeep: 1111  TID: 03  TDest: 8  TUser: 7  TLast: 1  Operation# 127
%%        1380.0 ns    Log    PASSED    in receiver_1: Data Check,       Operation# 127  Received.  Data: FFFEFDFC  TID: 03  TDest: 8  TUser: 7  TLast: 1
%%        1380.0 ns    Log    INFO      in transmitter_1,                Axi Stream Send.  TData: 03020100  TStrb: 1111  TKeep: 1111  TID: 03  TDest: 8  TUser: 7  TLast: 1  Operation# 128
%%        1390.0 ns    Log    PASSED    in receiver_1: Data Check,       Operation# 128  Received.  Data: 03020100  TID: 03  TDest: 8  TUser: 7  TLast: 1
%%        1390.0 ns    Log    INFO      in transmitter_1,                Axi Stream Send.  TData: 07060504  TStrb: 1111  TKeep: 1111  TID: 04  TDest: 7  TUser: 8  TLast: 1  Operation# 129
%%        1400.0 ns    Log    PASSED    in receiver_1: Data Check,       Operation# 129  Received.  Data: 07060504  TID: 04  TDest: 7  TUser: 8  TLast: 1
%%        1400.0 ns    Log    INFO      in transmitter_1,                Axi Stream Send.  TData: 0B0A0908  TStrb: 1111  TKeep: 1111  TID: 04  TDest: 7  TUser: 8  TLast: 1  Operation# 130
%%        1410.0 ns    Log    PASSED    in receiver_1: Data Check,       Operation# 130  Received.  Data: 0B0A0908  TID: 04  TDest: 7  TUser: 8  TLast: 1
%%        1410.0 ns    Log    INFO      in transmitter_1,                Axi Stream Send.  TData: 0F0E0D0C  TStrb: 1111  TKeep: 1111  TID: 04  TDest: 7  TUser: 8  TLast: 1  Operation# 131
%%        1420.0 ns    Log    PASSED    in receiver_1: Data Check,       Operation# 131  Received.  Data: 0F0E0D0C  TID: 04  TDest: 7  TUser: 8  TLast: 1
%%        1420.0 ns    Log    INFO      in transmitter_1,                Axi Stream Send.  TData: 13121110  TStrb: 1111  TKeep: 1111  TID: 04  TDest: 7  TUser: 8  TLast: 1  Operation# 132
%%        1430.0 ns    Log    PASSED    in receiver_1: Data Check,       Operation# 132  Received.  Data: 13121110  TID: 04  TDest: 7  TUser: 8  TLast: 1
%%        1430.0 ns    Log    INFO      in transmitter_1,                Axi Stream Send.  TData: 17161514  TStrb: 1111  TKeep: 1111  TID: 04  TDest: 7  TUser: 8  TLast: 1  Operation# 133
%%        1440.0 ns    Log    PASSED    in receiver_1: Data Check,       Operation# 133  Received.  Data: 17161514  TID: 04  TDest: 7  TUser: 8  TLast: 1
%%        1440.0 ns    Log    INFO      in transmitter_1,                Axi Stream Send.  TData: 1B1A1918  TStrb: 1111  TKeep: 1111  TID: 04  TDest: 7  TUser: 8  TLast: 1  Operation# 134
%%        1450.0 ns    Log    PASSED    in receiver_1: Data Check,       Operation# 134  Received.  Data: 1B1A1918  TID: 04  TDest: 7  TUser: 8  TLast: 1
%%        1450.0 ns    Log    INFO      in transmitter_1,                Axi Stream Send.  TData: 1F1E1D1C  TStrb: 1111  TKeep: 1111  TID: 04  TDest: 7  TUser: 8  TLast: 1  Operation# 135
%%        1460.0 ns    Log    PASSED    in receiver_1: Data Check,       Operation# 135  Received.  Data: 1F1E1D1C  TID: 04  TDest: 7  TUser: 8  TLast: 1
%%        1460.0 ns    Log    INFO      in transmitter_1,                Axi Stream Send.  TData: 23222120  TStrb: 1111  TKeep: 1111  TID: 04  TDest: 7  TUser: 8  TLast: 1  Operation# 136
%%        1470.0 ns    Log    PASSED    in receiver_1: Data Check,       Operation# 136  Received.  Data: 23222120  TID: 04  TDest: 7  TUser: 8  TLast: 1
%%        1470.0 ns    Log    INFO      in transmitter_1,                Axi Stream Send.  TData: 27262524  TStrb: 1111  TKeep: 1111  TID: 04  TDest: 7  TUser: 8  TLast: 1  Operation# 137
%%        1480.0 ns    Log    PASSED    in receiver_1: Data Check,       Operation# 137  Received.  Data: 27262524  TID: 04  TDest: 7  TUser: 8  TLast: 1
%%        1480.0 ns    Log    INFO      in transmitter_1,                Axi Stream Send.  TData: 2B2A2928  TStrb: 1111  TKeep: 1111  TID: 04  TDest: 7  TUser: 8  TLast: 1  Operation# 138
%%        1490.0 ns    Log    PASSED    in receiver_1: Data Check,       Operation# 138  Received.  Data: 2B2A2928  TID: 04  TDest: 7  TUser: 8  TLast: 1
%%        1490.0 ns    Log    INFO      in transmitter_1,                Axi Stream Send.  TData: 2F2E2D2C  TStrb: 1111  TKeep: 1111  TID: 04  TDest: 7  TUser: 8  TLast: 1  Operation# 139
%%        1500.0 ns    Log    PASSED    in receiver_1: Data Check,       Operation# 139  Received.  Data: 2F2E2D2C  TID: 04  TDest: 7  TUser: 8  TLast: 1
%%        1500.0 ns    Log    INFO      in transmitter_1,                Axi Stream Send.  TData: 33323130  TStrb: 1111  TKeep: 1111  TID: 04  TDest: 7  TUser: 8  TLast: 1  Operation# 140
%%        1510.0 ns    Log    PASSED    in receiver_1: Data Check,       Operation# 140  Received.  Data: 33323130  TID: 04  TDest: 7  TUser: 8  TLast: 1
%%        1510.0 ns    Log    INFO      in transmitter_1,                Axi Stream Send.  TData: 37363534  TStrb: 1111  TKeep: 1111  TID: 04  TDest: 7  TUser: 8  TLast: 1  Operation# 141
%%        1520.0 ns    Log    PASSED    in receiver_1: Data Check,       Operation# 141  Received.  Data: 37363534  TID: 04  TDest: 7  TUser: 8  TLast: 1
%%        1520.0 ns    Log    INFO      in transmitter_1,                Axi Stream Send.  TData: 3B3A3938  TStrb: 1111  TKeep: 1111  TID: 04  TDest: 7  TUser: 8  TLast: 1  Operation# 142
%%        1530.0 ns    Log    PASSED    in receiver_1: Data Check,       Operation# 142  Received.  Data: 3B3A3938  TID: 04  TDest: 7  TUser: 8  TLast: 1
%%        1530.0 ns    Log    INFO      in transmitter_1,                Axi Stream Send.  TData: 3F3E3D3C  TStrb: 1111  TKeep: 1111  TID: 04  TDest: 7  TUser: 8  TLast: 1  Operation# 143
%%        1540.0 ns    Log    PASSED    in receiver_1: Data Check,       Operation# 143  Received.  Data: 3F3E3D3C  TID: 04  TDest: 7  TUser: 8  TLast: 1
%%        1540.0 ns    Log    INFO      in transmitter_1,                Axi Stream Send.  TData: 43424140  TStrb: 1111  TKeep: 1111  TID: 04  TDest: 7  TUser: 8  TLast: 1  Operation# 144
%%        1550.0 ns    Log    PASSED    in receiver_1: Data Check,       Operation# 144  Received.  Data: 43424140  TID: 04  TDest: 7  TUser: 8  TLast: 1
%%        1550.0 ns    Log    INFO      in transmitter_1,                Axi Stream Send.  TData: 47464544  TStrb: 1111  TKeep: 1111  TID: 04  TDest: 6  TUser: 9  TLast: 1  Operation# 145
%%        1560.0 ns    Log    PASSED    in receiver_1: Data Check,       Operation# 145  Received.  Data: 47464544  TID: 04  TDest: 6  TUser: 9  TLast: 1
%%        1560.0 ns    Log    INFO      in transmitter_1,                Axi Stream Send.  TData: 4B4A4948  TStrb: 1111  TKeep: 1111  TID: 04  TDest: 6  TUser: 9  TLast: 1  Operation# 146
%%        1570.0 ns    Log    PASSED    in receiver_1: Data Check,       Operation# 146  Received.  Data: 4B4A4948  TID: 04  TDest: 6  TUser: 9  TLast: 1
%%        1570.0 ns    Log    INFO      in transmitter_1,                Axi Stream Send.  TData: 4F4E4D4C  TStrb: 1111  TKeep: 1111  TID: 04  TDest: 6  TUser: 9  TLast: 1  Operation# 147
%%        1580.0 ns    Log    PASSED    in receiver_1: Data Check,       Operation# 147  Received.  Data: 4F4E4D4C  TID: 04  TDest: 6  TUser: 9  TLast: 1
%%        1580.0 ns    Log    INFO      in transmitter_1,                Axi Stream Send.  TData: 53525150  TStrb: 1111  TKeep: 1111  TID: 04  TDest: 6  TUser: 9  TLast: 1  Operation# 148
%%        1590.0 ns    Log    PASSED    in receiver_1: Data Check,       Operation# 148  Received.  Data: 53525150  TID: 04  TDest: 6  TUser: 9  TLast: 1
%%        1590.0 ns    Log    INFO      in transmitter_1,                Axi Stream Send.  TData: 57565554  TStrb: 1111  TKeep: 1111  TID: 04  TDest: 6  TUser: 9  TLast: 1  Operation# 149
%%        1600.0 ns    Log    PASSED    in receiver_1: Data Check,       Operation# 149  Received.  Data: 57565554  TID: 04  TDest: 6  TUser: 9  TLast: 1
%%        1600.0 ns    Log    INFO      in transmitter_1,                Axi Stream Send.  TData: 5B5A5958  TStrb: 1111  TKeep: 1111  TID: 04  TDest: 6  TUser: 9  TLast: 1  Operation# 150
%%        1610.0 ns    Log    PASSED    in receiver_1: Data Check,       Operation# 150  Received.  Data: 5B5A5958  TID: 04  TDest: 6  TUser: 9  TLast: 1
%%        1610.0 ns    Log    INFO      in transmitter_1,                Axi Stream Send.  TData: 5F5E5D5C  TStrb: 1111  TKeep: 1111  TID: 04  TDest: 6  TUser: 9  TLast: 1  Operation# 151
%%        1620.0 ns    Log    PASSED    in receiver_1: Data Check,       Operation# 151  Received.  Data: 5F5E5D5C  TID: 04  TDest: 6  TUser: 9  TLast: 1
%%        1620.0 ns    Log    INFO      in transmitter_1,                Axi Stream Send.  TData: 63626160  TStrb: 1111  TKeep: 1111  TID: 04  TDest: 6  TUser: 9  TLast: 1  Operation# 152
%%        1630.0 ns    Log    PASSED    in receiver_1: Data Check,       Operation# 152  Received.  Data: 63626160  TID: 04  TDest: 6  TUser: 9  TLast: 1
%%        1630.0 ns    Log    INFO      in transmitter_1,                Axi Stream Send.  TData: 67666564  TStrb: 1111  TKeep: 1111  TID: 04  TDest: 6  TUser: 9  TLast: 1  Operation# 153
%%        1640.0 ns    Log    PASSED    in receiver_1: Data Check,       Operation# 153  Received.  Data: 67666564  TID: 04  TDest: 6  TUser: 9  TLast: 1
%%        1640.0 ns    Log    INFO      in transmitter_1,                Axi Stream Send.  TData: 6B6A6968  TStrb: 1111  TKeep: 1111  TID: 04  TDest: 6  TUser: 9  TLast: 1  Operation# 154
%%        1650.0 ns    Log    PASSED    in receiver_1: Data Check,       Operation# 154  Received.  Data: 6B6A6968  TID: 04  TDest: 6  TUser: 9  TLast: 1
%%        1650.0 ns    Log    INFO      in transmitter_1,                Axi Stream Send.  TData: 6F6E6D6C  TStrb: 1111  TKeep: 1111  TID: 04  TDest: 6  TUser: 9  TLast: 1  Operation# 155
%%        1660.0 ns    Log    PASSED    in receiver_1: Data Check,       Operation# 155  Received.  Data: 6F6E6D6C  TID: 04  TDest: 6  TUser: 9  TLast: 1
%%        1660.0 ns    Log    INFO      in transmitter_1,                Axi Stream Send.  TData: 73727170  TStrb: 1111  TKeep: 1111  TID: 04  TDest: 6  TUser: 9  TLast: 1  Operation# 156
%%        1670.0 ns    Log    PASSED    in receiver_1: Data Check,       Operation# 156  Received.  Data: 73727170  TID: 04  TDest: 6  TUser: 9  TLast: 1
%%        1670.0 ns    Log    INFO      in transmitter_1,                Axi Stream Send.  TData: 77767574  TStrb: 1111  TKeep: 1111  TID: 04  TDest: 6  TUser: 9  TLast: 1  Operation# 157
%%        1680.0 ns    Log    PASSED    in receiver_1: Data Check,       Operation# 157  Received.  Data: 77767574  TID: 04  TDest: 6  TUser: 9  TLast: 1
%%        1680.0 ns    Log    INFO      in transmitter_1,                Axi Stream Send.  TData: 7B7A7978  TStrb: 1111  TKeep: 1111  TID: 04  TDest: 6  TUser: 9  TLast: 1  Operation# 158
%%        1690.0 ns    Log    PASSED    in receiver_1: Data Check,       Operation# 158  Received.  Data: 7B7A7978  TID: 04  TDest: 6  TUser: 9  TLast: 1
%%        1690.0 ns    Log    INFO      in transmitter_1,                Axi Stream Send.  TData: 7F7E7D7C  TStrb: 1111  TKeep: 1111  TID: 04  TDest: 6  TUser: 9  TLast: 1  Operation# 159
%%        1700.0 ns    Log    PASSED    in receiver_1: Data Check,       Operation# 159  Received.  Data: 7F7E7D7C  TID: 04  TDest: 6  TUser: 9  TLast: 1
%%        1700.0 ns    Log    INFO      in transmitter_1,                Axi Stream Send.  TData: 83828180  TStrb: 1111  TKeep: 1111  TID: 04  TDest: 6  TUser: 9  TLast: 1  Operation# 160
%%        1710.0 ns    Log    PASSED    in receiver_1: Data Check,       Operation# 160  Received.  Data: 83828180  TID: 04  TDest: 6  TUser: 9  TLast: 1
%%        1710.0 ns    Log    INFO      in transmitter_1,                Axi Stream Send.  TData: 87868584  TStrb: 1111  TKeep: 1111  TID: 05  TDest: 5  TUser: A  TLast: 1  Operation# 161
%%        1720.0 ns    Log    PASSED    in receiver_1: Data Check,       Operation# 161  Received.  Data: 87868584  TID: 05  TDest: 5  TUser: A  TLast: 1
%%        1720.0 ns    Log    INFO      in transmitter_1,                Axi Stream Send.  TData: 8B8A8988  TStrb: 1111  TKeep: 1111  TID: 05  TDest: 5  TUser: A  TLast: 1  Operation# 162
%%        1730.0 ns    Log    PASSED    in receiver_1: Data Check,       Operation# 162  Received.  Data: 8B8A8988  TID: 05  TDest: 5  TUser: A  TLast: 1
%%        1730.0 ns    Log    INFO      in transmitter_1,                Axi Stream Send.  TData: 8F8E8D8C  TStrb: 1111  TKeep: 1111  TID: 05  TDest: 5  TUser: A  TLast: 1  Operation# 163
%%        1740.0 ns    Log    PASSED    in receiver_1: Data Check,       Operation# 163  Received.  Data: 8F8E8D8C  TID: 05  TDest: 5  TUser: A  TLast: 1
%%        1740.0 ns    Log    INFO      in transmitter_1,                Axi Stream Send.  TData: 93929190  TStrb: 1111  TKeep: 1111  TID: 05  TDest: 5  TUser: A  TLast: 1  Operation# 164
%%        1750.0 ns    Log    PASSED    in receiver_1: Data Check,       Operation# 164  Received.  Data: 93929190  TID: 05  TDest: 5  TUser: A  TLast: 1
%%        1750.0 ns    Log    INFO      in transmitter_1,                Axi Stream Send.  TData: 97969594  TStrb: 1111  TKeep: 1111  TID: 05  TDest: 5  TUser: A  TLast: 1  Operation# 165
%%        1760.0 ns    Log    PASSED    in receiver_1: Data Check,       Operation# 165  Received.  Data: 97969594  TID: 05  TDest: 5  TUser: A  TLast: 1
%%        1760.0 ns    Log    INFO      in transmitter_1,                Axi Stream Send.  TData: 9B9A9998  TStrb: 1111  TKeep: 1111  TID: 05  TDest: 5  TUser: A  TLast: 1  Operation# 166
%%        1770.0 ns    Log    PASSED    in receiver_1: Data Check,       Operation# 166  Received.  Data: 9B9A9998  TID: 05  TDest: 5  TUser: A  TLast: 1
%%        1770.0 ns    Log    INFO      in transmitter_1,                Axi Stream Send.  TData: 9F9E9D9C  TStrb: 1111  TKeep: 1111  TID: 05  TDest: 5  TUser: A  TLast: 1  Operation# 167
%%        1780.0 ns    Log    PASSED    in receiver_1: Data Check,       Operation# 167  Received.  Data: 9F9E9D9C  TID: 05  TDest: 5  TUser: A  TLast: 1
%%        1780.0 ns    Log    INFO      in transmitter_1,                Axi Stream Send.  TData: A3A2A1A0  TStrb: 1111  TKeep: 1111  TID: 05  TDest: 5  TUser: A  TLast: 1  Operation# 168
%%        1790.0 ns    Log    PASSED    in receiver_1: Data Check,       Operation# 168  Received.  Data: A3A2A1A0  TID: 05  TDest: 5  TUser: A  TLast: 1
%%        1790.0 ns    Log    INFO      in transmitter_1,                Axi Stream Send.  TData: A7A6A5A4  TStrb: 1111  TKeep: 1111  TID: 05  TDest: 5  TUser: A  TLast: 1  Operation# 169
%%        1800.0 ns    Log    PASSED    in receiver_1: Data Check,       Operation# 169  Received.  Data: A7A6A5A4  TID: 05  TDest: 5  TUser: A  TLast: 1
%%        1800.0 ns    Log    INFO      in transmitter_1,                Axi Stream Send.  TData: ABAAA9A8  TStrb: 1111  TKeep: 1111  TID: 05  TDest: 5  TUser: A  TLast: 1  Operation# 170
%%        1810.0 ns    Log    PASSED    in receiver_1: Data Check,       Operation# 170  Received.  Data: ABAAA9A8  TID: 05  TDest: 5  TUser: A  TLast: 1
%%        1810.0 ns    Log    INFO      in transmitter_1,                Axi Stream Send.  TData: AFAEADAC  TStrb: 1111  TKeep: 1111  TID: 05  TDest: 5  TUser: A  TLast: 1  Operation# 171
%%        1820.0 ns    Log    PASSED    in receiver_1: Data Check,       Operation# 171  Received.  Data: AFAEADAC  TID: 05  TDest: 5  TUser: A  TLast: 1
%%        1820.0 ns    Log    INFO      in transmitter_1,                Axi Stream Send.  TData: B3B2B1B0  TStrb: 1111  TKeep: 1111  TID: 05  TDest: 5  TUser: A  TLast: 1  Operation# 172
%%        1830.0 ns    Log    PASSED    in receiver_1: Data Check,       Operation# 172  Received.  Data: B3B2B1B0  TID: 05  TDest: 5  TUser: A  TLast: 1
%%        1830.0 ns    Log    INFO      in transmitter_1,                Axi Stream Send.  TData: B7B6B5B4  TStrb: 1111  TKeep: 1111  TID: 05  TDest: 5  TUser: A  TLast: 1  Operation# 173
%%        1840.0 ns    Log    PASSED    in receiver_1: Data Check,       Operation# 173  Received.  Data: B7B6B5B4  TID: 05  TDest: 5  TUser: A  TLast: 1
%%        1840.0 ns    Log    INFO      in transmitter_1,                Axi Stream Send.  TData: BBBAB9B8  TStrb: 1111  TKeep: 1111  TID: 05  TDest: 5  TUser: A  TLast: 1  Operation# 174
%%        1850.0 ns    Log    PASSED    in receiver_1: Data Check,       Operation# 174  Received.  Data: BBBAB9B8  TID: 05  TDest: 5  TUser: A  TLast: 1
%%        1850.0 ns    Log    INFO      in transmitter_1,                Axi Stream Send.  TData: BFBEBDBC  TStrb: 1111  TKeep: 1111  TID: 05  TDest: 5  TUser: A  TLast: 1  Operation# 175
%%        1860.0 ns    Log    PASSED    in receiver_1: Data Check,       Operation# 175  Received.  Data: BFBEBDBC  TID: 05  TDest: 5  TUser: A  TLast: 1
%%        1860.0 ns    Log    INFO      in transmitter_1,                Axi Stream Send.  TData: C3C2C1C0  TStrb: 1111  TKeep: 1111  TID: 05  TDest: 5  TUser: A  TLast: 1  Operation# 176
%%        1870.0 ns    Log    PASSED    in receiver_1: Data Check,       Operation# 176  Received.  Data: C3C2C1C0  TID: 05  TDest: 5  TUser: A  TLast: 1
%%        1870.0 ns    Log    INFO      in transmitter_1,                Axi Stream Send.  TData: C7C6C5C4  TStrb: 1111  TKeep: 1111  TID: 05  TDest: 4  TUser: B  TLast: 1  Operation# 177
%%        1880.0 ns    Log    PASSED    in receiver_1: Data Check,       Operation# 177  Received.  Data: C7C6C5C4  TID: 05  TDest: 4  TUser: B  TLast: 1
%%        1880.0 ns    Log    INFO      in transmitter_1,                Axi Stream Send.  TData: CBCAC9C8  TStrb: 1111  TKeep: 1111  TID: 05  TDest: 4  TUser: B  TLast: 1  Operation# 178
%%        1890.0 ns    Log    PASSED    in receiver_1: Data Check,       Operation# 178  Received.  Data: CBCAC9C8  TID: 05  TDest: 4  TUser: B  TLast: 1
%%        1890.0 ns    Log    INFO      in transmitter_1,                Axi Stream Send.  TData: CFCECDCC  TStrb: 1111  TKeep: 1111  TID: 05  TDest: 4  TUser: B  TLast: 1  Operation# 179
%%        1900.0 ns    Log    PASSED    in receiver_1: Data Check,       Operation# 179  Received.  Data: CFCECDCC  TID: 05  TDest: 4  TUser: B  TLast: 1
%%        1900.0 ns    Log    INFO      in transmitter_1,                Axi Stream Send.  TData: D3D2D1D0  TStrb: 1111  TKeep: 1111  TID: 05  TDest: 4  TUser: B  TLast: 1  Operation# 180
%%        1910.0 ns    Log    PASSED    in receiver_1: Data Check,       Operation# 180  Received.  Data: D3D2D1D0  TID: 05  TDest: 4  TUser: B  TLast: 1
%%        1910.0 ns    Log    INFO      in transmitter_1,                Axi Stream Send.  TData: D7D6D5D4  TStrb: 1111  TKeep: 1111  TID: 05  TDest: 4  TUser: B  TLast: 1  Operation# 181
%%        1920.0 ns    Log    PASSED    in receiver_1: Data Check,       Operation# 181  Received.  Data: D7D6D5D4  TID: 05  TDest: 4  TUser: B  TLast: 1
%%        1920.0 ns    Log    INFO      in transmitter_1,                Axi Stream Send.  TData: DBDAD9D8  TStrb: 1111  TKeep: 1111  TID: 05  TDest: 4  TUser: B  TLast: 1  Operation# 182
%%        1930.0 ns    Log    PASSED    in receiver_1: Data Check,       Operation# 182  Received.  Data: DBDAD9D8  TID: 05  TDest: 4  TUser: B  TLast: 1
%%        1930.0 ns    Log    INFO      in transmitter_1,                Axi Stream Send.  TData: DFDEDDDC  TStrb: 1111  TKeep: 1111  TID: 05  TDest: 4  TUser: B  TLast: 1  Operation# 183
%%        1940.0 ns    Log    PASSED    in receiver_1: Data Check,       Operation# 183  Received.  Data: DFDEDDDC  TID: 05  TDest: 4  TUser: B  TLast: 1
%%        1940.0 ns    Log    INFO      in transmitter_1,                Axi Stream Send.  TData: E3E2E1E0  TStrb: 1111  TKeep: 1111  TID: 05  TDest: 4  TUser: B  TLast: 1  Operation# 184
%%        1950.0 ns    Log    PASSED    in receiver_1: Data Check,       Operation# 184  Received.  Data: E3E2E1E0  TID: 05  TDest: 4  TUser: B  TLast: 1
%%        1950.0 ns    Log    INFO      in transmitter_1,                Axi Stream Send.  TData: E7E6E5E4  TStrb: 1111  TKeep: 1111  TID: 05  TDest: 4  TUser: B  TLast: 1  Operation# 185
%%        1960.0 ns    Log    PASSED    in receiver_1: Data Check,       Operation# 185  Received.  Data: E7E6E5E4  TID: 05  TDest: 4  TUser: B  TLast: 1
%%        1960.0 ns    Log    INFO      in transmitter_1,                Axi Stream Send.  TData: EBEAE9E8  TStrb: 1111  TKeep: 1111  TID: 05  TDest: 4  TUser: B  TLast: 1  Operation# 186
%%        1970.0 ns    Log    PASSED    in receiver_1: Data Check,       Operation# 186  Received.  Data: EBEAE9E8  TID: 05  TDest: 4  TUser: B  TLast: 1
%%        1970.0 ns    Log    INFO      in transmitter_1,                Axi Stream Send.  TData: EFEEEDEC  TStrb: 1111  TKeep: 1111  TID: 05  TDest: 4  TUser: B  TLast: 1  Operation# 187
%%        1980.0 ns    Log    PASSED    in receiver_1: Data Check,       Operation# 187  Received.  Data: EFEEEDEC  TID: 05  TDest: 4  TUser: B  TLast: 1
%%        1980.0 ns    Log    INFO      in transmitter_1,                Axi Stream Send.  TData: F3F2F1F0  TStrb: 1111  TKeep: 1111  TID: 05  TDest: 4  TUser: B  TLast: 1  Operation# 188
%%        1990.0 ns    Log    PASSED    in receiver_1: Data Check,       Operation# 188  Received.  Data: F3F2F1F0  TID: 05  TDest: 4  TUser: B  TLast: 1
%%        1990.0 ns    Log    INFO      in transmitter_1,                Axi Stream Send.  TData: F7F6F5F4  TStrb: 1111  TKeep: 1111  TID: 05  TDest: 4  TUser: B  TLast: 1  Operation# 189
%%        2000.0 ns    Log    PASSED    in receiver_1: Data Check,       Operation# 189  Received.  Data: F7F6F5F4  TID: 05  TDest: 4  TUser: B  TLast: 1
%%        2000.0 ns    Log    INFO      in transmitter_1,                Axi Stream Send.  TData: FBFAF9F8  TStrb: 1111  TKeep: 1111  TID: 05  TDest: 4  TUser: B  TLast: 1  Operation# 190
%%        2010.0 ns    Log    PASSED    in receiver_1: Data Check,       Operation# 190  Received.  Data: FBFAF9F8  TID: 05  TDest: 4  TUser: B  TLast: 1
%%        2010.0 ns    Log    INFO      in transmitter_1,                Axi Stream Send.  TData: FFFEFDFC  TStrb: 1111  TKeep: 1111  TID: 05  TDest: 4  TUser: B  TLast: 1  Operation# 191
%%        2020.0 ns    Log    PASSED    in receiver_1: Data Check,       Operation# 191  Received.  Data: FFFEFDFC  TID: 05  TDest: 4  TUser: B  TLast: 1
%%        2020.0 ns    Log    INFO      in transmitter_1,                Axi Stream Send.  TData: 03020100  TStrb: 1111  TKeep: 1111  TID: 05  TDest: 4  TUser: B  TLast: 1  Operation# 192
%%        2030.0 ns    Log    PASSED    in receiver_1: Data Check,       Operation# 192  Received.  Data: 03020100  TID: 05  TDest: 4  TUser: B  TLast: 1
%%        2030.0 ns    Log    INFO      in transmitter_1,                Axi Stream Send.  TData: 07060504  TStrb: 1111  TKeep: 1111  TID: 06  TDest: 3  TUser: C  TLast: 1  Operation# 193
%%        2040.0 ns    Log    PASSED    in receiver_1: Data Check,       Operation# 193  Received.  Data: 07060504  TID: 06  TDest: 3  TUser: C  TLast: 1
%%        2040.0 ns    Log    INFO      in transmitter_1,                Axi Stream Send.  TData: 0B0A0908  TStrb: 1111  TKeep: 1111  TID: 06  TDest: 3  TUser: C  TLast: 1  Operation# 194
%%        2050.0 ns    Log    PASSED    in receiver_1: Data Check,       Operation# 194  Received.  Data: 0B0A0908  TID: 06  TDest: 3  TUser: C  TLast: 1
%%        2050.0 ns    Log    INFO      in transmitter_1,                Axi Stream Send.  TData: 0F0E0D0C  TStrb: 1111  TKeep: 1111  TID: 06  TDest: 3  TUser: C  TLast: 1  Operation# 195
%%        2060.0 ns    Log    PASSED    in receiver_1: Data Check,       Operation# 195  Received.  Data: 0F0E0D0C  TID: 06  TDest: 3  TUser: C  TLast: 1
%%        2060.0 ns    Log    INFO      in transmitter_1,                Axi Stream Send.  TData: 13121110  TStrb: 1111  TKeep: 1111  TID: 06  TDest: 3  TUser: C  TLast: 1  Operation# 196
%%        2070.0 ns    Log    PASSED    in receiver_1: Data Check,       Operation# 196  Received.  Data: 13121110  TID: 06  TDest: 3  TUser: C  TLast: 1
%%        2070.0 ns    Log    INFO      in transmitter_1,                Axi Stream Send.  TData: 17161514  TStrb: 1111  TKeep: 1111  TID: 06  TDest: 3  TUser: C  TLast: 1  Operation# 197
%%        2080.0 ns    Log    PASSED    in receiver_1: Data Check,       Operation# 197  Received.  Data: 17161514  TID: 06  TDest: 3  TUser: C  TLast: 1
%%        2080.0 ns    Log    INFO      in transmitter_1,                Axi Stream Send.  TData: 1B1A1918  TStrb: 1111  TKeep: 1111  TID: 06  TDest: 3  TUser: C  TLast: 1  Operation# 198
%%        2090.0 ns    Log    PASSED    in receiver_1: Data Check,       Operation# 198  Received.  Data: 1B1A1918  TID: 06  TDest: 3  TUser: C  TLast: 1
%%        2090.0 ns    Log    INFO      in transmitter_1,                Axi Stream Send.  TData: 1F1E1D1C  TStrb: 1111  TKeep: 1111  TID: 06  TDest: 3  TUser: C  TLast: 1  Operation# 199
%%        2100.0 ns    Log    PASSED    in receiver_1: Data Check,       Operation# 199  Received.  Data: 1F1E1D1C  TID: 06  TDest: 3  TUser: C  TLast: 1
%%        2100.0 ns    Log    INFO      in transmitter_1,                Axi Stream Send.  TData: 23222120  TStrb: 1111  TKeep: 1111  TID: 06  TDest: 3  TUser: C  TLast: 1  Operation# 200
%%        2110.0 ns    Log    PASSED    in receiver_1: Data Check,       Operation# 200  Received.  Data: 23222120  TID: 06  TDest: 3  TUser: C  TLast: 1
%%        2110.0 ns    Log    INFO      in transmitter_1,                Axi Stream Send.  TData: 27262524  TStrb: 1111  TKeep: 1111  TID: 06  TDest: 3  TUser: C  TLast: 1  Operation# 201
%%        2120.0 ns    Log    PASSED    in receiver_1: Data Check,       Operation# 201  Received.  Data: 27262524  TID: 06  TDest: 3  TUser: C  TLast: 1
%%        2120.0 ns    Log    INFO      in transmitter_1,                Axi Stream Send.  TData: 2B2A2928  TStrb: 1111  TKeep: 1111  TID: 06  TDest: 3  TUser: C  TLast: 1  Operation# 202
%%        2130.0 ns    Log    PASSED    in receiver_1: Data Check,       Operation# 202  Received.  Data: 2B2A2928  TID: 06  TDest: 3  TUser: C  TLast: 1
%%        2130.0 ns    Log    INFO      in transmitter_1,                Axi Stream Send.  TData: 2F2E2D2C  TStrb: 1111  TKeep: 1111  TID: 06  TDest: 3  TUser: C  TLast: 1  Operation# 203
%%        2140.0 ns    Log    PASSED    in receiver_1: Data Check,       Operation# 203  Received.  Data: 2F2E2D2C  TID: 06  TDest: 3  TUser: C  TLast: 1
%%        2140.0 ns    Log    INFO      in transmitter_1,                Axi Stream Send.  TData: 33323130  TStrb: 1111  TKeep: 1111  TID: 06  TDest: 3  TUser: C  TLast: 1  Operation# 204
%%        2150.0 ns    Log    PASSED    in receiver_1: Data Check,       Operation# 204  Received.  Data: 33323130  TID: 06  TDest: 3  TUser: C  TLast: 1
%%        2150.0 ns    Log    INFO      in transmitter_1,                Axi Stream Send.  TData: 37363534  TStrb: 1111  TKeep: 1111  TID: 06  TDest: 3  TUser: C  TLast: 1  Operation# 205
%%        2160.0 ns    Log    PASSED    in receiver_1: Data Check,       Operation# 205  Received.  Data: 37363534  TID: 06  TDest: 3  TUser: C  TLast: 1
%%        2160.0 ns    Log    INFO      in transmitter_1,                Axi Stream Send.  TData: 3B3A3938  TStrb: 1111  TKeep: 1111  TID: 06  TDest: 3  TUser: C  TLast: 1  Operation# 206
%%        2170.0 ns    Log    PASSED    in receiver_1: Data Check,       Operation# 206  Received.  Data: 3B3A3938  TID: 06  TDest: 3  TUser: C  TLast: 1
%%        2170.0 ns    Log    INFO      in transmitter_1,                Axi Stream Send.  TData: 3F3E3D3C  TStrb: 1111  TKeep: 1111  TID: 06  TDest: 3  TUser: C  TLast: 1  Operation# 207
%%        2180.0 ns    Log    PASSED    in receiver_1: Data Check,       Operation# 207  Received.  Data: 3F3E3D3C  TID: 06  TDest: 3  TUser: C  TLast: 1
%%        2180.0 ns    Log    INFO      in transmitter_1,                Axi Stream Send.  TData: 43424140  TStrb: 1111  TKeep: 1111  TID: 06  TDest: 3  TUser: C  TLast: 1  Operation# 208
%%        2190.0 ns    Log    PASSED    in receiver_1: Data Check,       Operation# 208  Received.  Data: 43424140  TID: 06  TDest: 3  TUser: C  TLast: 1
%%        2190.0 ns    Log    INFO      in transmitter_1,                Axi Stream Send.  TData: 47464544  TStrb: 1111  TKeep: 1111  TID: 06  TDest: 2  TUser: D  TLast: 1  Operation# 209
%%        2200.0 ns    Log    PASSED    in receiver_1: Data Check,       Operation# 209  Received.  Data: 47464544  TID: 06  TDest: 2  TUser: D  TLast: 1
%%        2200.0 ns    Log    INFO      in transmitter_1,                Axi Stream Send.  TData: 4B4A4948  TStrb: 1111  TKeep: 1111  TID: 06  TDest: 2  TUser: D  TLast: 1  Operation# 210
%%        2210.0 ns    Log    PASSED    in receiver_1: Data Check,       Operation# 210  Received.  Data: 4B4A4948  TID: 06  TDest: 2  TUser: D  TLast: 1
%%        2210.0 ns    Log    INFO      in transmitter_1,                Axi Stream Send.  TData: 4F4E4D4C  TStrb: 1111  TKeep: 1111  TID: 06  TDest: 2  TUser: D  TLast: 1  Operation# 211
%%        2220.0 ns    Log    PASSED    in receiver_1: Data Check,       Operation# 211  Received.  Data: 4F4E4D4C  TID: 06  TDest: 2  TUser: D  TLast: 1
%%        2220.0 ns    Log    INFO      in transmitter_1,                Axi Stream Send.  TData: 53525150  TStrb: 1111  TKeep: 1111  TID: 06  TDest: 2  TUser: D  TLast: 1  Operation# 212
%%        2230.0 ns    Log    PASSED    in receiver_1: Data Check,       Operation# 212  Received.  Data: 53525150  TID: 06  TDest: 2  TUser: D  TLast: 1
%%        2230.0 ns    Log    INFO      in transmitter_1,                Axi Stream Send.  TData: 57565554  TStrb: 1111  TKeep: 1111  TID: 06  TDest: 2  TUser: D  TLast: 1  Operation# 213
%%        2240.0 ns    Log    PASSED    in receiver_1: Data Check,       Operation# 213  Received.  Data: 57565554  TID: 06  TDest: 2  TUser: D  TLast: 1
%%        2240.0 ns    Log    INFO      in transmitter_1,                Axi Stream Send.  TData: 5B5A5958  TStrb: 1111  TKeep: 1111  TID: 06  TDest: 2  TUser: D  TLast: 1  Operation# 214
%%        2250.0 ns    Log    PASSED    in receiver_1: Data Check,       Operation# 214  Received.  Data: 5B5A5958  TID: 06  TDest: 2  TUser: D  TLast: 1
%%        2250.0 ns    Log    INFO      in transmitter_1,                Axi Stream Send.  TData: 5F5E5D5C  TStrb: 1111  TKeep: 1111  TID: 06  TDest: 2  TUser: D  TLast: 1  Operation# 215
%%        2260.0 ns    Log    PASSED    in receiver_1: Data Check,       Operation# 215  Received.  Data: 5F5E5D5C  TID: 06  TDest: 2  TUser: D  TLast: 1
%%        2260.0 ns    Log    INFO      in transmitter_1,                Axi Stream Send.  TData: 63626160  TStrb: 1111  TKeep: 1111  TID: 06  TDest: 2  TUser: D  TLast: 1  Operation# 216
%%        2270.0 ns    Log    PASSED    in receiver_1: Data Check,       Operation# 216  Received.  Data: 63626160  TID: 06  TDest: 2  TUser: D  TLast: 1
%%        2270.0 ns    Log    INFO      in transmitter_1,                Axi Stream Send.  TData: 67666564  TStrb: 1111  TKeep: 1111  TID: 06  TDest: 2  TUser: D  TLast: 1  Operation# 217
%%        2280.0 ns    Log    PASSED    in receiver_1: Data Check,       Operation# 217  Received.  Data: 67666564  TID: 06  TDest: 2  TUser: D  TLast: 1
%%        2280.0 ns    Log    INFO      in transmitter_1,                Axi Stream Send.  TData: 6B6A6968  TStrb: 1111  TKeep: 1111  TID: 06  TDest: 2  TUser: D  TLast: 1  Operation# 218
%%        2290.0 ns    Log    PASSED    in receiver_1: Data Check,       Operation# 218  Received.  Data: 6B6A6968  TID: 06  TDest: 2  TUser: D  TLast: 1
%%        2290.0 ns    Log    INFO      in transmitter_1,                Axi Stream Send.  TData: 6F6E6D6C  TStrb: 1111  TKeep: 1111  TID: 06  TDest: 2  TUser: D  TLast: 1  Operation# 219
%%        2300.0 ns    Log    PASSED    in receiver_1: Data Check,       Operation# 219  Received.  Data: 6F6E6D6C  TID: 06  TDest: 2  TUser: D  TLast: 1
%%        2300.0 ns    Log    INFO      in transmitter_1,                Axi Stream Send.  TData: 73727170  TStrb: 1111  TKeep: 1111  TID: 06  TDest: 2  TUser: D  TLast: 1  Operation# 220
%%        2310.0 ns    Log    PASSED    in receiver_1: Data Check,       Operation# 220  Received.  Data: 73727170  TID: 06  TDest: 2  TUser: D  TLast: 1
%%        2310.0 ns    Log    INFO      in transmitter_1,                Axi Stream Send.  TData: 77767574  TStrb: 1111  TKeep: 1111  TID: 06  TDest: 2  TUser: D  TLast: 1  Operation# 221
%%        2320.0 ns    Log    PASSED    in receiver_1: Data Check,       Operation# 221  Received.  Data: 77767574  TID: 06  TDest: 2  TUser: D  TLast: 1
%%        2320.0 ns    Log    INFO      in transmitter_1,                Axi Stream Send.  TData: 7B7A7978  TStrb: 1111  TKeep: 1111  TID: 06  TDest: 2  TUser: D  TLast: 1  Operation# 222
%%        2330.0 ns    Log    PASSED    in receiver_1: Data Check,       Operation# 222  Received.  Data: 7B7A7978  TID: 06  TDest: 2  TUser: D  TLast: 1
%%        2330.0 ns    Log    INFO      in transmitter_1,                Axi Stream Send.  TData: 7F7E7D7C  TStrb: 1111  TKeep: 1111  TID: 06  TDest: 2  TUser: D  TLast: 1  Operation# 223
%%        2340.0 ns    Log    PASSED    in receiver_1: Data Check,       Operation# 223  Received.  Data: 7F7E7D7C  TID: 06  TDest: 2  TUser: D  TLast: 1
%%        2340.0 ns    Log    INFO      in transmitter_1,                Axi Stream Send.  TData: 83828180  TStrb: 1111  TKeep: 1111  TID: 06  TDest: 2  TUser: D  TLast: 1  Operation# 224
%%        2350.0 ns    Log    PASSED    in receiver_1: Data Check,       Operation# 224  Received.  Data: 83828180  TID: 06  TDest: 2  TUser: D  TLast: 1
%%        2350.0 ns    Log    INFO      in transmitter_1,                Axi Stream Send.  TData: 87868584  TStrb: 1111  TKeep: 1111  TID: 07  TDest: 1  TUser: E  TLast: 1  Operation# 225
%%        2360.0 ns    Log    PASSED    in receiver_1: Data Check,       Operation# 225  Received.  Data: 87868584  TID: 07  TDest: 1  TUser: E  TLast: 1
%%        2360.0 ns    Log    INFO      in transmitter_1,                Axi Stream Send.  TData: 8B8A8988  TStrb: 1111  TKeep: 1111  TID: 07  TDest: 1  TUser: E  TLast: 1  Operation# 226
%%        2370.0 ns    Log    PASSED    in receiver_1: Data Check,       Operation# 226  Received.  Data: 8B8A8988  TID: 07  TDest: 1  TUser: E  TLast: 1
%%        2370.0 ns    Log    INFO      in transmitter_1,                Axi Stream Send.  TData: 8F8E8D8C  TStrb: 1111  TKeep: 1111  TID: 07  TDest: 1  TUser: E  TLast: 1  Operation# 227
%%        2380.0 ns    Log    PASSED    in receiver_1: Data Check,       Operation# 227  Received.  Data: 8F8E8D8C  TID: 07  TDest: 1  TUser: E  TLast: 1
%%        2380.0 ns    Log    INFO      in transmitter_1,                Axi Stream Send.  TData: 93929190  TStrb: 1111  TKeep: 1111  TID: 07  TDest: 1  TUser: E  TLast: 1  Operation# 228
%%        2390.0 ns    Log    PASSED    in receiver_1: Data Check,       Operation# 228  Received.  Data: 93929190  TID: 07  TDest: 1  TUser: E  TLast: 1
%%        2390.0 ns    Log    INFO      in transmitter_1,                Axi Stream Send.  TData: 97969594  TStrb: 1111  TKeep: 1111  TID: 07  TDest: 1  TUser: E  TLast: 1  Operation# 229
%%        2400.0 ns    Log    PASSED    in receiver_1: Data Check,       Operation# 229  Received.  Data: 97969594  TID: 07  TDest: 1  TUser: E  TLast: 1
%%        2400.0 ns    Log    INFO      in transmitter_1,                Axi Stream Send.  TData: 9B9A9998  TStrb: 1111  TKeep: 1111  TID: 07  TDest: 1  TUser: E  TLast: 1  Operation# 230
%%        2410.0 ns    Log    PASSED    in receiver_1: Data Check,       Operation# 230  Received.  Data: 9B9A9998  TID: 07  TDest: 1  TUser: E  TLast: 1
%%        2410.0 ns    Log    INFO      in transmitter_1,                Axi Stream Send.  TData: 9F9E9D9C  TStrb: 1111  TKeep: 1111  TID: 07  TDest: 1  TUser: E  TLast: 1  Operation# 231
%%        2420.0 ns    Log    PASSED    in receiver_1: Data Check,       Operation# 231  Received.  Data: 9F9E9D9C  TID: 07  TDest: 1  TUser: E  TLast: 1
%%        2420.0 ns    Log    INFO      in transmitter_1,                Axi Stream Send.  TData: A3A2A1A0  TStrb: 1111  TKeep: 1111  TID: 07  TDest: 1  TUser: E  TLast: 1  Operation# 232
%%        2430.0 ns    Log    PASSED    in receiver_1: Data Check,       Operation# 232  Received.  Data: A3A2A1A0  TID: 07  TDest: 1  TUser: E  TLast: 1
%%        2430.0 ns    Log    INFO      in transmitter_1,                Axi Stream Send.  TData: A7A6A5A4  TStrb: 1111  TKeep: 1111  TID: 07  TDest: 1  TUser: E  TLast: 1  Operation# 233
%%        2440.0 ns    Log    PASSED    in receiver_1: Data Check,       Operation# 233  Received.  Data: A7A6A5A4  TID: 07  TDest: 1  TUser: E  TLast: 1
%%        2440.0 ns    Log    INFO      in transmitter_1,                Axi Stream Send.  TData: ABAAA9A8  TStrb: 1111  TKeep: 1111  TID: 07  TDest: 1  TUser: E  TLast: 1  Operation# 234
%%        2450.0 ns    Log    PASSED    in receiver_1: Data Check,       Operation# 234  Received.  Data: ABAAA9A8  TID: 07  TDest: 1  TUser: E  TLast: 1
%%        2450.0 ns    Log    INFO      in transmitter_1,                Axi Stream Send.  TData: AFAEADAC  TStrb: 1111  TKeep: 1111  TID: 07  TDest: 1  TUser: E  TLast: 1  Operation# 235
%%        2460.0 ns    Log    PASSED    in receiver_1: Data Check,       Operation# 235  Received.  Data: AFAEADAC  TID: 07  TDest: 1  TUser: E  TLast: 1
%%        2460.0 ns    Log    INFO      in transmitter_1,                Axi Stream Send.  TData: B3B2B1B0  TStrb: 1111  TKeep: 1111  TID: 07  TDest: 1  TUser: E  TLast: 1  Operation# 236
%%        2470.0 ns    Log    PASSED    in receiver_1: Data Check,       Operation# 236  Received.  Data: B3B2B1B0  TID: 07  TDest: 1  TUser: E  TLast: 1
%%        2470.0 ns    Log    INFO      in transmitter_1,                Axi Stream Send.  TData: B7B6B5B4  TStrb: 1111  TKeep: 1111  TID: 07  TDest: 1  TUser: E  TLast: 1  Operation# 237
%%        2480.0 ns    Log    PASSED    in receiver_1: Data Check,       Operation# 237  Received.  Data: B7B6B5B4  TID: 07  TDest: 1  TUser: E  TLast: 1
%%        2480.0 ns    Log    INFO      in transmitter_1,                Axi Stream Send.  TData: BBBAB9B8  TStrb: 1111  TKeep: 1111  TID: 07  TDest: 1  TUser: E  TLast: 1  Operation# 238
%%        2490.0 ns    Log    PASSED    in receiver_1: Data Check,       Operation# 238  Received.  Data: BBBAB9B8  TID: 07  TDest: 1  TUser: E  TLast: 1
%%        2490.0 ns    Log    INFO      in transmitter_1,                Axi Stream Send.  TData: BFBEBDBC  TStrb: 1111  TKeep: 1111  TID: 07  TDest: 1  TUser: E  TLast: 1  Operation# 239
%%        2500.0 ns    Log    PASSED    in receiver_1: Data Check,       Operation# 239  Received.  Data: BFBEBDBC  TID: 07  TDest: 1  TUser: E  TLast: 1
%%        2500.0 ns    Log    INFO      in transmitter_1,                Axi Stream Send.  TData: C3C2C1C0  TStrb: 1111  TKeep: 1111  TID: 07  TDest: 1  TUser: E  TLast: 1  Operation# 240
%%        2510.0 ns    Log    PASSED    in receiver_1: Data Check,       Operation# 240  Received.  Data: C3C2C1C0  TID: 07  TDest: 1  TUser: E  TLast: 1
%%        2510.0 ns    Log    INFO      in transmitter_1,                Axi Stream Send.  TData: C7C6C5C4  TStrb: 1111  TKeep: 1111  TID: 07  TDest: 0  TUser: F  TLast: 1  Operation# 241
%%        2520.0 ns    Log    PASSED    in receiver_1: Data Check,       Operation# 241  Received.  Data: C7C6C5C4  TID: 07  TDest: 0  TUser: F  TLast: 1
%%        2520.0 ns    Log    INFO      in transmitter_1,                Axi Stream Send.  TData: CBCAC9C8  TStrb: 1111  TKeep: 1111  TID: 07  TDest: 0  TUser: F  TLast: 1  Operation# 242
%%        2530.0 ns    Log    PASSED    in receiver_1: Data Check,       Operation# 242  Received.  Data: CBCAC9C8  TID: 07  TDest: 0  TUser: F  TLast: 1
%%        2530.0 ns    Log    INFO      in transmitter_1,                Axi Stream Send.  TData: CFCECDCC  TStrb: 1111  TKeep: 1111  TID: 07  TDest: 0  TUser: F  TLast: 1  Operation# 243
%%        2540.0 ns    Log    PASSED    in receiver_1: Data Check,       Operation# 243  Received.  Data: CFCECDCC  TID: 07  TDest: 0  TUser: F  TLast: 1
%%        2540.0 ns    Log    INFO      in transmitter_1,                Axi Stream Send.  TData: D3D2D1D0  TStrb: 1111  TKeep: 1111  TID: 07  TDest: 0  TUser: F  TLast: 1  Operation# 244
%%        2550.0 ns    Log    PASSED    in receiver_1: Data Check,       Operation# 244  Received.  Data: D3D2D1D0  TID: 07  TDest: 0  TUser: F  TLast: 1
%%        2550.0 ns    Log    INFO      in transmitter_1,                Axi Stream Send.  TData: D7D6D5D4  TStrb: 1111  TKeep: 1111  TID: 07  TDest: 0  TUser: F  TLast: 1  Operation# 245
%%        2560.0 ns    Log    PASSED    in receiver_1: Data Check,       Operation# 245  Received.  Data: D7D6D5D4  TID: 07  TDest: 0  TUser: F  TLast: 1
%%        2560.0 ns    Log    INFO      in transmitter_1,                Axi Stream Send.  TData: DBDAD9D8  TStrb: 1111  TKeep: 1111  TID: 07  TDest: 0  TUser: F  TLast: 1  Operation# 246
%%        2570.0 ns    Log    PASSED    in receiver_1: Data Check,       Operation# 246  Received.  Data: DBDAD9D8  TID: 07  TDest: 0  TUser: F  TLast: 1
%%        2570.0 ns    Log    INFO      in transmitter_1,                Axi Stream Send.  TData: DFDEDDDC  TStrb: 1111  TKeep: 1111  TID: 07  TDest: 0  TUser: F  TLast: 1  Operation# 247
%%        2580.0 ns    Log    PASSED    in receiver_1: Data Check,       Operation# 247  Received.  Data: DFDEDDDC  TID: 07  TDest: 0  TUser: F  TLast: 1
%%        2580.0 ns    Log    INFO      in transmitter_1,                Axi Stream Send.  TData: E3E2E1E0  TStrb: 1111  TKeep: 1111  TID: 07  TDest: 0  TUser: F  TLast: 1  Operation# 248
%%        2590.0 ns    Log    PASSED    in receiver_1: Data Check,       Operation# 248  Received.  Data: E3E2E1E0  TID: 07  TDest: 0  TUser: F  TLast: 1
%%        2590.0 ns    Log    INFO      in transmitter_1,                Axi Stream Send.  TData: E7E6E5E4  TStrb: 1111  TKeep: 1111  TID: 07  TDest: 0  TUser: F  TLast: 1  Operation# 249
%%        2600.0 ns    Log    PASSED    in receiver_1: Data Check,       Operation# 249  Received.  Data: E7E6E5E4  TID: 07  TDest: 0  TUser: F  TLast: 1
%%        2600.0 ns    Log    INFO      in transmitter_1,                Axi Stream Send.  TData: EBEAE9E8  TStrb: 1111  TKeep: 1111  TID: 07  TDest: 0  TUser: F  TLast: 1  Operation# 250
%%        2610.0 ns    Log    PASSED    in receiver_1: Data Check,       Operation# 250  Received.  Data: EBEAE9E8  TID: 07  TDest: 0  TUser: F  TLast: 1
%%        2610.0 ns    Log    INFO      in transmitter_1,                Axi Stream Send.  TData: EFEEEDEC  TStrb: 1111  TKeep: 1111  TID: 07  TDest: 0  TUser: F  TLast: 1  Operation# 251
%%        2620.0 ns    Log    PASSED    in receiver_1: Data Check,       Operation# 251  Received.  Data: EFEEEDEC  TID: 07  TDest: 0  TUser: F  TLast: 1
%%        2620.0 ns    Log    INFO      in transmitter_1,                Axi Stream Send.  TData: F3F2F1F0  TStrb: 1111  TKeep: 1111  TID: 07  TDest: 0  TUser: F  TLast: 1  Operation# 252
%%        2630.0 ns    Alert  ERROR     in receiver_1: Data Check,       Operation# 252  Received.  Data: F3F2F1F0  TID: 07  TDest: 0  TUser: F  TLast: 1  Expected.  Data: F3F2F1F1  TID: 07  TDest: 0  TUser: F  TLast: 1
%%        2630.0 ns    Log    INFO      in transmitter_1,                Axi Stream Send.  TData: F7F6F5F4  TStrb: 1111  TKeep: 1111  TID: 07  TDest: 0  TUser: F  TLast: 1  Operation# 253
%%        2640.0 ns    Alert  ERROR     in receiver_1: Data Check,       Operation# 253  Received.  Data: F7F6F5F4  TID: 07  TDest: 0  TUser: F  TLast: 1  Expected.  Data: F7F6F5F4  TID: 07  TDest: 0  TUser: F  TLast: 0
%%        2640.0 ns    Log    INFO      in transmitter_1,                Axi Stream Send.  TData: FBFAF9F8  TStrb: 1111  TKeep: 1111  TID: 07  TDest: 0  TUser: F  TLast: 1  Operation# 254
%%        2650.0 ns    Alert  ERROR     in receiver_1: Data Check,       Operation# 254  Received.  Data: FBFAF9F8  TID: 07  TDest: 0  TUser: F  TLast: 1  Expected.  Data: FBFAF9F8  TID: 07  TDest: 0  TUser: 0  TLast: 1
%%        2650.0 ns    Log    INFO      in transmitter_1,                Axi Stream Send.  TData: FFFEFDFC  TStrb: 1111  TKeep: 1111  TID: 07  TDest: 0  TUser: F  TLast: 1  Operation# 255
%%        2660.0 ns    Alert  ERROR     in receiver_1: Data Check,       Operation# 255  Received.  Data: FFFEFDFC  TID: 07  TDest: 0  TUser: F  TLast: 1  Expected.  Data: FFFEFDFC  TID: 07  TDest: 1  TUser: F  TLast: 1
%%        2660.0 ns    Log    INFO      in transmitter_1,                Axi Stream Send.  TData: 03020100  TStrb: 1111  TKeep: 1111  TID: 07  TDest: 0  TUser: F  TLast: 1  Operation# 256
%%        2670.0 ns    Alert  ERROR     in receiver_1: Data Check,       Operation# 256  Received.  Data: 03020100  TID: 07  TDest: 0  TUser: F  TLast: 1  Expected.  Data: 03020100  TID: 08  TDest: 0  TUser: F  TLast: 1
