%%         110.0 ns  Log    ALWAYS  in Default,                      Sending Packet 1 of length 130
%%         130.0 ns  Log    INFO    in transmitter_1,                Axi Stream Send.  TData: 337E1A0B  TStrb: 1111  TKeep: 1111  TID: 00  TDest: 0  TUser: 0  TLast: 0  Operation# 1
%%         160.0 ns  Log    INFO    in transmitter_1,                Axi Stream Send.  TData: 824BD7EE  TStrb: 1111  TKeep: 1111  TID: 00  TDest: 0  TUser: 0  TLast: 0  Operation# 2
%%         210.0 ns  Log    INFO    in transmitter_1,                Axi Stream Send.  TData: 3D743709  TStrb: 1111  TKeep: 1111  TID: 00  TDest: 0  TUser: 0  TLast: 0  Operation# 3
%%         220.0 ns  Log    INFO    in transmitter_1,                Axi Stream Send.  TData: DA8C642B  TStrb: 1111  TKeep: 1111  TID: 00  TDest: 0  TUser: 0  TLast: 0  Operation# 4
%%         230.0 ns  Log    INFO    in transmitter_1,                Axi Stream Send.  TData: 95D43DD6  TStrb: 1111  TKeep: 1111  TID: 00  TDest: 0  TUser: 0  TLast: 0  Operation# 5
%%         240.0 ns  Log    INFO    in transmitter_1,                Axi Stream Send.  TData: 683D22CE  TStrb: 1111  TKeep: 1111  TID: 00  TDest: 0  TUser: 0  TLast: 0  Operation# 6
%%         250.0 ns  Log    INFO    in transmitter_1,                Axi Stream Send.  TData: D261791E  TStrb: 1111  TKeep: 1111  TID: 00  TDest: 0  TUser: 0  TLast: 0  Operation# 7
%%         310.0 ns  Log    INFO    in transmitter_1,                Axi Stream Send.  TData: 58496FA9  TStrb: 1111  TKeep: 1111  TID: 00  TDest: 0  TUser: 0  TLast: 0  Operation# 8
%%         320.0 ns  Log    INFO    in transmitter_1,                Axi Stream Send.  TData: 5976EB0B  TStrb: 1111  TKeep: 1111  TID: 00  TDest: 0  TUser: 0  TLast: 0  Operation# 9
%%         330.0 ns  Log    INFO    in transmitter_1,                Axi Stream Send.  TData: 7C1E7959  TStrb: 1111  TKeep: 1111  TID: 00  TDest: 0  TUser: 0  TLast: 0  Operation# 10
%%        1550.0 ns  Log    INFO    in transmitter_1,                Axi Stream Send.  TData: 5BD9F0D5  TStrb: 1111  TKeep: 1111  TID: 00  TDest: 0  TUser: 0  TLast: 0  Operation# 11
%%        1560.0 ns  Log    INFO    in transmitter_1,                Axi Stream Send.  TData: C1A76DE6  TStrb: 1111  TKeep: 1111  TID: 00  TDest: 0  TUser: 0  TLast: 0  Operation# 12
%%        1570.0 ns  Log    INFO    in transmitter_1,                Axi Stream Send.  TData: 1BA60436  TStrb: 1111  TKeep: 1111  TID: 00  TDest: 0  TUser: 0  TLast: 0  Operation# 13
%%        1590.0 ns  Log    INFO    in transmitter_1,                Axi Stream Send.  TData: 212765A4  TStrb: 1111  TKeep: 1111  TID: 00  TDest: 0  TUser: 0  TLast: 0  Operation# 14
%%        1600.0 ns  Log    INFO    in transmitter_1,                Axi Stream Send.  TData: AA8A8626  TStrb: 1111  TKeep: 1111  TID: 00  TDest: 0  TUser: 0  TLast: 0  Operation# 15
%%        1690.0 ns  Log    INFO    in transmitter_1,                Axi Stream Send.  TData: AF57DBD8  TStrb: 1111  TKeep: 1111  TID: 00  TDest: 0  TUser: 0  TLast: 0  Operation# 16
%%        1730.0 ns  Log    INFO    in transmitter_1,                Axi Stream Send.  TData: 16DF42A7  TStrb: 1111  TKeep: 1111  TID: 00  TDest: 0  TUser: 0  TLast: 0  Operation# 17
%%        1740.0 ns  Log    INFO    in transmitter_1,                Axi Stream Send.  TData: AD16D235  TStrb: 1111  TKeep: 1111  TID: 00  TDest: 0  TUser: 0  TLast: 0  Operation# 18
%%        1750.0 ns  Log    INFO    in transmitter_1,                Axi Stream Send.  TData: E1286FAD  TStrb: 1111  TKeep: 1111  TID: 00  TDest: 0  TUser: 0  TLast: 0  Operation# 19
%%        1780.0 ns  Log    INFO    in transmitter_1,                Axi Stream Send.  TData: 7D91DDBA  TStrb: 1111  TKeep: 1111  TID: 00  TDest: 0  TUser: 0  TLast: 0  Operation# 20
%%        1790.0 ns  Log    INFO    in transmitter_1,                Axi Stream Send.  TData: ED8E94CC  TStrb: 1111  TKeep: 1111  TID: 00  TDest: 0  TUser: 0  TLast: 0  Operation# 21
%%        1800.0 ns  Log    INFO    in transmitter_1,                Axi Stream Send.  TData: 8A975463  TStrb: 1111  TKeep: 1111  TID: 00  TDest: 0  TUser: 0  TLast: 0  Operation# 22
%%        3120.0 ns  Log    INFO    in transmitter_1,                Axi Stream Send.  TData: 54DDBF9C  TStrb: 1111  TKeep: 1111  TID: 00  TDest: 0  TUser: 0  TLast: 0  Operation# 23
%%        3140.0 ns  Log    INFO    in transmitter_1,                Axi Stream Send.  TData: 81099348  TStrb: 1111  TKeep: 1111  TID: 00  TDest: 0  TUser: 0  TLast: 0  Operation# 24
%%        3150.0 ns  Log    INFO    in transmitter_1,                Axi Stream Send.  TData: EC262F9B  TStrb: 1111  TKeep: 1111  TID: 00  TDest: 0  TUser: 0  TLast: 0  Operation# 25
%%        3180.0 ns  Log    INFO    in transmitter_1,                Axi Stream Send.  TData: F5C6358C  TStrb: 1111  TKeep: 1111  TID: 00  TDest: 0  TUser: 0  TLast: 0  Operation# 26
%%        3250.0 ns  Log    INFO    in transmitter_1,                Axi Stream Send.  TData: B576EF52  TStrb: 1111  TKeep: 1111  TID: 00  TDest: 0  TUser: 0  TLast: 0  Operation# 27
%%        3260.0 ns  Log    INFO    in transmitter_1,                Axi Stream Send.  TData: 33F81646  TStrb: 1111  TKeep: 1111  TID: 00  TDest: 0  TUser: 0  TLast: 0  Operation# 28
%%        3270.0 ns  Log    INFO    in transmitter_1,                Axi Stream Send.  TData: CF10EDB1  TStrb: 1111  TKeep: 1111  TID: 00  TDest: 0  TUser: 0  TLast: 0  Operation# 29
%%        3290.0 ns  Log    INFO    in transmitter_1,                Axi Stream Send.  TData: 847F2595  TStrb: 1111  TKeep: 1111  TID: 00  TDest: 0  TUser: 0  TLast: 0  Operation# 30
%%        3300.0 ns  Log    INFO    in transmitter_1,                Axi Stream Send.  TData: 463DC979  TStrb: 1111  TKeep: 1111  TID: 00  TDest: 0  TUser: 0  TLast: 0  Operation# 31
%%        3310.0 ns  Log    INFO    in transmitter_1,                Axi Stream Send.  TData: 64EABE7F  TStrb: 1111  TKeep: 1111  TID: 00  TDest: 0  TUser: 0  TLast: 0  Operation# 32
%%        3330.0 ns  Log    INFO    in transmitter_1,                Axi Stream Send.  TData: XXXXC678  TStrb: 0011  TKeep: 0011  TID: 00  TDest: 0  TUser: 0  TLast: 1  Operation# 33
%%        3340.0 ns  Log    INFO    in receiver_1,                   Burst Receive.  Operation# 1  Last Data: ----C678  TID: 00  TDest: 0  TUser: 0  TLast: 1
%%        3340.0 ns  Log    ALWAYS  in Default,                      Sending Packet 2 of length 244
%%        3340.0 ns  Log    ALWAYS  in Default,                      Received Packet A1 of length 130
%%        3340.0 ns  Log    PASSED  in Testbench: SB1,               Received: 0B   Item Number: 1
%%        3340.0 ns  Log    PASSED  in Testbench: SB1,               Received: 1A   Item Number: 2
%%        3340.0 ns  Log    PASSED  in Testbench: SB1,               Received: 7E   Item Number: 3
%%        3340.0 ns  Log    PASSED  in Testbench: SB1,               Received: 33   Item Number: 4
%%        3340.0 ns  Log    PASSED  in Testbench: SB1,               Received: EE   Item Number: 5
%%        3340.0 ns  Log    PASSED  in Testbench: SB1,               Received: D7   Item Number: 6
%%        3340.0 ns  Log    PASSED  in Testbench: SB1,               Received: 4B   Item Number: 7
%%        3340.0 ns  Log    PASSED  in Testbench: SB1,               Received: 82   Item Number: 8
%%        3340.0 ns  Log    PASSED  in Testbench: SB1,               Received: 09   Item Number: 9
%%        3340.0 ns  Log    PASSED  in Testbench: SB1,               Received: 37   Item Number: 10
%%        3340.0 ns  Log    PASSED  in Testbench: SB1,               Received: 74   Item Number: 11
%%        3340.0 ns  Log    PASSED  in Testbench: SB1,               Received: 3D   Item Number: 12
%%        3340.0 ns  Log    PASSED  in Testbench: SB1,               Received: 2B   Item Number: 13
%%        3340.0 ns  Log    PASSED  in Testbench: SB1,               Received: 64   Item Number: 14
%%        3340.0 ns  Log    PASSED  in Testbench: SB1,               Received: 8C   Item Number: 15
%%        3340.0 ns  Log    PASSED  in Testbench: SB1,               Received: DA   Item Number: 16
%%        3340.0 ns  Log    PASSED  in Testbench: SB1,               Received: D6   Item Number: 17
%%        3340.0 ns  Log    PASSED  in Testbench: SB1,               Received: 3D   Item Number: 18
%%        3340.0 ns  Log    PASSED  in Testbench: SB1,               Received: D4   Item Number: 19
%%        3340.0 ns  Log    PASSED  in Testbench: SB1,               Received: 95   Item Number: 20
%%        3340.0 ns  Log    PASSED  in Testbench: SB1,               Received: CE   Item Number: 21
%%        3340.0 ns  Log    PASSED  in Testbench: SB1,               Received: 22   Item Number: 22
%%        3340.0 ns  Log    PASSED  in Testbench: SB1,               Received: 3D   Item Number: 23
%%        3340.0 ns  Log    PASSED  in Testbench: SB1,               Received: 68   Item Number: 24
%%        3340.0 ns  Log    PASSED  in Testbench: SB1,               Received: 1E   Item Number: 25
%%        3340.0 ns  Log    PASSED  in Testbench: SB1,               Received: 79   Item Number: 26
%%        3340.0 ns  Log    PASSED  in Testbench: SB1,               Received: 61   Item Number: 27
%%        3340.0 ns  Log    PASSED  in Testbench: SB1,               Received: D2   Item Number: 28
%%        3340.0 ns  Log    PASSED  in Testbench: SB1,               Received: A9   Item Number: 29
%%        3340.0 ns  Log    PASSED  in Testbench: SB1,               Received: 6F   Item Number: 30
%%        3340.0 ns  Log    PASSED  in Testbench: SB1,               Received: 49   Item Number: 31
%%        3340.0 ns  Log    PASSED  in Testbench: SB1,               Received: 58   Item Number: 32
%%        3340.0 ns  Log    PASSED  in Testbench: SB1,               Received: 0B   Item Number: 33
%%        3340.0 ns  Log    PASSED  in Testbench: SB1,               Received: EB   Item Number: 34
%%        3340.0 ns  Log    PASSED  in Testbench: SB1,               Received: 76   Item Number: 35
%%        3340.0 ns  Log    PASSED  in Testbench: SB1,               Received: 59   Item Number: 36
%%        3340.0 ns  Log    PASSED  in Testbench: SB1,               Received: 59   Item Number: 37
%%        3340.0 ns  Log    PASSED  in Testbench: SB1,               Received: 79   Item Number: 38
%%        3340.0 ns  Log    PASSED  in Testbench: SB1,               Received: 1E   Item Number: 39
%%        3340.0 ns  Log    PASSED  in Testbench: SB1,               Received: 7C   Item Number: 40
%%        3340.0 ns  Log    PASSED  in Testbench: SB1,               Received: D5   Item Number: 41
%%        3340.0 ns  Log    PASSED  in Testbench: SB1,               Received: F0   Item Number: 42
%%        3340.0 ns  Log    PASSED  in Testbench: SB1,               Received: D9   Item Number: 43
%%        3340.0 ns  Log    PASSED  in Testbench: SB1,               Received: 5B   Item Number: 44
%%        3340.0 ns  Log    PASSED  in Testbench: SB1,               Received: E6   Item Number: 45
%%        3340.0 ns  Log    PASSED  in Testbench: SB1,               Received: 6D   Item Number: 46
%%        3340.0 ns  Log    PASSED  in Testbench: SB1,               Received: A7   Item Number: 47
%%        3340.0 ns  Log    PASSED  in Testbench: SB1,               Received: C1   Item Number: 48
%%        3340.0 ns  Log    PASSED  in Testbench: SB1,               Received: 36   Item Number: 49
%%        3340.0 ns  Log    PASSED  in Testbench: SB1,               Received: 04   Item Number: 50
%%        3340.0 ns  Log    PASSED  in Testbench: SB1,               Received: A6   Item Number: 51
%%        3340.0 ns  Log    PASSED  in Testbench: SB1,               Received: 1B   Item Number: 52
%%        3340.0 ns  Log    PASSED  in Testbench: SB1,               Received: A4   Item Number: 53
%%        3340.0 ns  Log    PASSED  in Testbench: SB1,               Received: 65   Item Number: 54
%%        3340.0 ns  Log    PASSED  in Testbench: SB1,               Received: 27   Item Number: 55
%%        3340.0 ns  Log    PASSED  in Testbench: SB1,               Received: 21   Item Number: 56
%%        3340.0 ns  Log    PASSED  in Testbench: SB1,               Received: 26   Item Number: 57
%%        3340.0 ns  Log    PASSED  in Testbench: SB1,               Received: 86   Item Number: 58
%%        3340.0 ns  Log    PASSED  in Testbench: SB1,               Received: 8A   Item Number: 59
%%        3340.0 ns  Log    PASSED  in Testbench: SB1,               Received: AA   Item Number: 60
%%        3340.0 ns  Log    PASSED  in Testbench: SB1,               Received: D8   Item Number: 61
%%        3340.0 ns  Log    PASSED  in Testbench: SB1,               Received: DB   Item Number: 62
%%        3340.0 ns  Log    PASSED  in Testbench: SB1,               Received: 57   Item Number: 63
%%        3340.0 ns  Log    PASSED  in Testbench: SB1,               Received: AF   Item Number: 64
%%        3340.0 ns  Log    PASSED  in Testbench: SB1,               Received: A7   Item Number: 65
%%        3340.0 ns  Log    PASSED  in Testbench: SB1,               Received: 42   Item Number: 66
%%        3340.0 ns  Log    PASSED  in Testbench: SB1,               Received: DF   Item Number: 67
%%        3340.0 ns  Log    PASSED  in Testbench: SB1,               Received: 16   Item Number: 68
%%        3340.0 ns  Log    PASSED  in Testbench: SB1,               Received: 35   Item Number: 69
%%        3340.0 ns  Log    PASSED  in Testbench: SB1,               Received: D2   Item Number: 70
%%        3340.0 ns  Log    PASSED  in Testbench: SB1,               Received: 16   Item Number: 71
%%        3340.0 ns  Log    PASSED  in Testbench: SB1,               Received: AD   Item Number: 72
%%        3340.0 ns  Log    PASSED  in Testbench: SB1,               Received: AD   Item Number: 73
%%        3340.0 ns  Log    PASSED  in Testbench: SB1,               Received: 6F   Item Number: 74
%%        3340.0 ns  Log    PASSED  in Testbench: SB1,               Received: 28   Item Number: 75
%%        3340.0 ns  Log    PASSED  in Testbench: SB1,               Received: E1   Item Number: 76
%%        3340.0 ns  Log    PASSED  in Testbench: SB1,               Received: BA   Item Number: 77
%%        3340.0 ns  Log    PASSED  in Testbench: SB1,               Received: DD   Item Number: 78
%%        3340.0 ns  Log    PASSED  in Testbench: SB1,               Received: 91   Item Number: 79
%%        3340.0 ns  Log    PASSED  in Testbench: SB1,               Received: 7D   Item Number: 80
%%        3340.0 ns  Log    PASSED  in Testbench: SB1,               Received: CC   Item Number: 81
%%        3340.0 ns  Log    PASSED  in Testbench: SB1,               Received: 94   Item Number: 82
%%        3340.0 ns  Log    PASSED  in Testbench: SB1,               Received: 8E   Item Number: 83
%%        3340.0 ns  Log    PASSED  in Testbench: SB1,               Received: ED   Item Number: 84
%%        3340.0 ns  Log    PASSED  in Testbench: SB1,               Received: 63   Item Number: 85
%%        3340.0 ns  Log    PASSED  in Testbench: SB1,               Received: 54   Item Number: 86
%%        3340.0 ns  Log    PASSED  in Testbench: SB1,               Received: 97   Item Number: 87
%%        3340.0 ns  Log    PASSED  in Testbench: SB1,               Received: 8A   Item Number: 88
%%        3340.0 ns  Log    PASSED  in Testbench: SB1,               Received: 9C   Item Number: 89
%%        3340.0 ns  Log    PASSED  in Testbench: SB1,               Received: BF   Item Number: 90
%%        3340.0 ns  Log    PASSED  in Testbench: SB1,               Received: DD   Item Number: 91
%%        3340.0 ns  Log    PASSED  in Testbench: SB1,               Received: 54   Item Number: 92
%%        3340.0 ns  Log    PASSED  in Testbench: SB1,               Received: 48   Item Number: 93
%%        3340.0 ns  Log    PASSED  in Testbench: SB1,               Received: 93   Item Number: 94
%%        3340.0 ns  Log    PASSED  in Testbench: SB1,               Received: 09   Item Number: 95
%%        3340.0 ns  Log    PASSED  in Testbench: SB1,               Received: 81   Item Number: 96
%%        3340.0 ns  Log    PASSED  in Testbench: SB1,               Received: 9B   Item Number: 97
%%        3340.0 ns  Log    PASSED  in Testbench: SB1,               Received: 2F   Item Number: 98
%%        3340.0 ns  Log    PASSED  in Testbench: SB1,               Received: 26   Item Number: 99
%%        3340.0 ns  Log    PASSED  in Testbench: SB1,               Received: EC   Item Number: 100
%%        3340.0 ns  Log    PASSED  in Testbench: SB1,               Received: 8C   Item Number: 101
%%        3340.0 ns  Log    PASSED  in Testbench: SB1,               Received: 35   Item Number: 102
%%        3340.0 ns  Log    PASSED  in Testbench: SB1,               Received: C6   Item Number: 103
%%        3340.0 ns  Log    PASSED  in Testbench: SB1,               Received: F5   Item Number: 104
%%        3340.0 ns  Log    PASSED  in Testbench: SB1,               Received: 52   Item Number: 105
%%        3340.0 ns  Log    PASSED  in Testbench: SB1,               Received: EF   Item Number: 106
%%        3340.0 ns  Log    PASSED  in Testbench: SB1,               Received: 76   Item Number: 107
%%        3340.0 ns  Log    PASSED  in Testbench: SB1,               Received: B5   Item Number: 108
%%        3340.0 ns  Log    PASSED  in Testbench: SB1,               Received: 46   Item Number: 109
%%        3340.0 ns  Log    PASSED  in Testbench: SB1,               Received: 16   Item Number: 110
%%        3340.0 ns  Log    PASSED  in Testbench: SB1,               Received: F8   Item Number: 111
%%        3340.0 ns  Log    PASSED  in Testbench: SB1,               Received: 33   Item Number: 112
%%        3340.0 ns  Log    PASSED  in Testbench: SB1,               Received: B1   Item Number: 113
%%        3340.0 ns  Log    PASSED  in Testbench: SB1,               Received: ED   Item Number: 114
%%        3340.0 ns  Log    PASSED  in Testbench: SB1,               Received: 10   Item Number: 115
%%        3340.0 ns  Log    PASSED  in Testbench: SB1,               Received: CF   Item Number: 116
%%        3340.0 ns  Log    PASSED  in Testbench: SB1,               Received: 95   Item Number: 117
%%        3340.0 ns  Log    PASSED  in Testbench: SB1,               Received: 25   Item Number: 118
%%        3340.0 ns  Log    PASSED  in Testbench: SB1,               Received: 7F   Item Number: 119
%%        3340.0 ns  Log    PASSED  in Testbench: SB1,               Received: 84   Item Number: 120
%%        3340.0 ns  Log    PASSED  in Testbench: SB1,               Received: 79   Item Number: 121
%%        3340.0 ns  Log    PASSED  in Testbench: SB1,               Received: C9   Item Number: 122
%%        3340.0 ns  Log    PASSED  in Testbench: SB1,               Received: 3D   Item Number: 123
%%        3340.0 ns  Log    PASSED  in Testbench: SB1,               Received: 46   Item Number: 124
%%        3340.0 ns  Log    PASSED  in Testbench: SB1,               Received: 7F   Item Number: 125
%%        3340.0 ns  Log    PASSED  in Testbench: SB1,               Received: BE   Item Number: 126
%%        3340.0 ns  Log    PASSED  in Testbench: SB1,               Received: EA   Item Number: 127
%%        3340.0 ns  Log    PASSED  in Testbench: SB1,               Received: 64   Item Number: 128
%%        3340.0 ns  Log    PASSED  in Testbench: SB1,               Received: 78   Item Number: 129
%%        3340.0 ns  Log    PASSED  in Testbench: SB1,               Received: C6   Item Number: 130
%%        3340.0 ns  Log    INFO    in transmitter_1,                Axi Stream Send.  TData: 68A42528  TStrb: 1111  TKeep: 1111  TID: 00  TDest: 0  TUser: 0  TLast: 0  Operation# 34
%%        4810.0 ns  Log    INFO    in transmitter_1,                Axi Stream Send.  TData: F9C4313B  TStrb: 1111  TKeep: 1111  TID: 00  TDest: 0  TUser: 0  TLast: 0  Operation# 35
%%        4890.0 ns  Log    INFO    in transmitter_1,                Axi Stream Send.  TData: 70FB0297  TStrb: 1111  TKeep: 1111  TID: 00  TDest: 0  TUser: 0  TLast: 0  Operation# 36
%%        4930.0 ns  Log    INFO    in transmitter_1,                Axi Stream Send.  TData: 6B68D639  TStrb: 1111  TKeep: 1111  TID: 00  TDest: 0  TUser: 0  TLast: 0  Operation# 37
%%        4940.0 ns  Log    INFO    in transmitter_1,                Axi Stream Send.  TData: 396FC87B  TStrb: 1111  TKeep: 1111  TID: 00  TDest: 0  TUser: 0  TLast: 0  Operation# 38
%%        4950.0 ns  Log    INFO    in transmitter_1,                Axi Stream Send.  TData: 301B3FAE  TStrb: 1111  TKeep: 1111  TID: 00  TDest: 0  TUser: 0  TLast: 0  Operation# 39
%%        4960.0 ns  Log    INFO    in transmitter_1,                Axi Stream Send.  TData: 2F87EA42  TStrb: 1111  TKeep: 1111  TID: 00  TDest: 0  TUser: 0  TLast: 0  Operation# 40
%%        4970.0 ns  Log    INFO    in transmitter_1,                Axi Stream Send.  TData: FE7EA4DA  TStrb: 1111  TKeep: 1111  TID: 00  TDest: 0  TUser: 0  TLast: 0  Operation# 41
%%        4990.0 ns  Log    INFO    in transmitter_1,                Axi Stream Send.  TData: D169D0DD  TStrb: 1111  TKeep: 1111  TID: 00  TDest: 0  TUser: 0  TLast: 0  Operation# 42
%%        5000.0 ns  Log    INFO    in transmitter_1,                Axi Stream Send.  TData: D016FB75  TStrb: 1111  TKeep: 1111  TID: 00  TDest: 0  TUser: 0  TLast: 0  Operation# 43
%%        5010.0 ns  Log    INFO    in transmitter_1,                Axi Stream Send.  TData: B303153A  TStrb: 1111  TKeep: 1111  TID: 00  TDest: 0  TUser: 0  TLast: 0  Operation# 44
%%        5020.0 ns  Log    INFO    in transmitter_1,                Axi Stream Send.  TData: 5B73A949  TStrb: 1111  TKeep: 1111  TID: 00  TDest: 0  TUser: 0  TLast: 0  Operation# 45
%%        5030.0 ns  Log    INFO    in transmitter_1,                Axi Stream Send.  TData: FB7BFD44  TStrb: 1111  TKeep: 1111  TID: 00  TDest: 0  TUser: 0  TLast: 0  Operation# 46
%%        5060.0 ns  Log    INFO    in transmitter_1,                Axi Stream Send.  TData: 1BA24AF6  TStrb: 1111  TKeep: 1111  TID: 00  TDest: 0  TUser: 0  TLast: 0  Operation# 47
%%        5070.0 ns  Log    INFO    in transmitter_1,                Axi Stream Send.  TData: 10E7F520  TStrb: 1111  TKeep: 1111  TID: 00  TDest: 0  TUser: 0  TLast: 0  Operation# 48
%%        5080.0 ns  Log    INFO    in transmitter_1,                Axi Stream Send.  TData: 678C8698  TStrb: 1111  TKeep: 1111  TID: 00  TDest: 0  TUser: 0  TLast: 0  Operation# 49
%%        5100.0 ns  Log    INFO    in transmitter_1,                Axi Stream Send.  TData: 406E00A6  TStrb: 1111  TKeep: 1111  TID: 00  TDest: 0  TUser: 0  TLast: 0  Operation# 50
%%        5110.0 ns  Log    INFO    in transmitter_1,                Axi Stream Send.  TData: BFC33336  TStrb: 1111  TKeep: 1111  TID: 00  TDest: 0  TUser: 0  TLast: 0  Operation# 51
%%        5140.0 ns  Log    INFO    in transmitter_1,                Axi Stream Send.  TData: FDCB290F  TStrb: 1111  TKeep: 1111  TID: 00  TDest: 0  TUser: 0  TLast: 0  Operation# 52
%%        5150.0 ns  Log    INFO    in transmitter_1,                Axi Stream Send.  TData: 5AEF324A  TStrb: 1111  TKeep: 1111  TID: 00  TDest: 0  TUser: 0  TLast: 0  Operation# 53
%%        5160.0 ns  Log    INFO    in transmitter_1,                Axi Stream Send.  TData: A6B5D107  TStrb: 1111  TKeep: 1111  TID: 00  TDest: 0  TUser: 0  TLast: 0  Operation# 54
%%        5170.0 ns  Log    INFO    in transmitter_1,                Axi Stream Send.  TData: 3C5A11A6  TStrb: 1111  TKeep: 1111  TID: 00  TDest: 0  TUser: 0  TLast: 0  Operation# 55
%%        5190.0 ns  Log    INFO    in transmitter_1,                Axi Stream Send.  TData: A2882CC2  TStrb: 1111  TKeep: 1111  TID: 00  TDest: 0  TUser: 0  TLast: 0  Operation# 56
%%        5200.0 ns  Log    INFO    in transmitter_1,                Axi Stream Send.  TData: D3BB2D07  TStrb: 1111  TKeep: 1111  TID: 00  TDest: 0  TUser: 0  TLast: 0  Operation# 57
%%        5220.0 ns  Log    INFO    in transmitter_1,                Axi Stream Send.  TData: 482BBD50  TStrb: 1111  TKeep: 1111  TID: 00  TDest: 0  TUser: 0  TLast: 0  Operation# 58
%%        5240.0 ns  Log    INFO    in transmitter_1,                Axi Stream Send.  TData: ACFF2F06  TStrb: 1111  TKeep: 1111  TID: 00  TDest: 0  TUser: 0  TLast: 0  Operation# 59
%%        5250.0 ns  Log    INFO    in transmitter_1,                Axi Stream Send.  TData: D2C66377  TStrb: 1111  TKeep: 1111  TID: 00  TDest: 0  TUser: 0  TLast: 0  Operation# 60
%%        5260.0 ns  Log    INFO    in transmitter_1,                Axi Stream Send.  TData: 50D83104  TStrb: 1111  TKeep: 1111  TID: 00  TDest: 0  TUser: 0  TLast: 0  Operation# 61
%%        5280.0 ns  Log    INFO    in transmitter_1,                Axi Stream Send.  TData: BE9666F9  TStrb: 1111  TKeep: 1111  TID: 00  TDest: 0  TUser: 0  TLast: 0  Operation# 62
%%        5290.0 ns  Log    INFO    in transmitter_1,                Axi Stream Send.  TData: D40BBA43  TStrb: 1111  TKeep: 1111  TID: 00  TDest: 0  TUser: 0  TLast: 0  Operation# 63
%%        5310.0 ns  Log    INFO    in transmitter_1,                Axi Stream Send.  TData: 32E2C867  TStrb: 1111  TKeep: 1111  TID: 00  TDest: 0  TUser: 0  TLast: 0  Operation# 64
%%        5330.0 ns  Log    INFO    in transmitter_1,                Axi Stream Send.  TData: 979FC997  TStrb: 1111  TKeep: 1111  TID: 00  TDest: 0  TUser: 0  TLast: 0  Operation# 65
%%        5340.0 ns  Log    INFO    in transmitter_1,                Axi Stream Send.  TData: 9F64A502  TStrb: 1111  TKeep: 1111  TID: 00  TDest: 0  TUser: 0  TLast: 0  Operation# 66
%%        5350.0 ns  Log    INFO    in transmitter_1,                Axi Stream Send.  TData: 8C5FC243  TStrb: 1111  TKeep: 1111  TID: 00  TDest: 0  TUser: 0  TLast: 0  Operation# 67
%%        5360.0 ns  Log    INFO    in transmitter_1,                Axi Stream Send.  TData: 3B5F9404  TStrb: 1111  TKeep: 1111  TID: 00  TDest: 0  TUser: 0  TLast: 0  Operation# 68
%%        5370.0 ns  Log    INFO    in transmitter_1,                Axi Stream Send.  TData: 6C9A9D9C  TStrb: 1111  TKeep: 1111  TID: 00  TDest: 0  TUser: 0  TLast: 0  Operation# 69
%%        5380.0 ns  Log    INFO    in transmitter_1,                Axi Stream Send.  TData: D4A73B1B  TStrb: 1111  TKeep: 1111  TID: 00  TDest: 0  TUser: 0  TLast: 0  Operation# 70
%%        5390.0 ns  Log    INFO    in transmitter_1,                Axi Stream Send.  TData: 5BFADF5F  TStrb: 1111  TKeep: 1111  TID: 00  TDest: 0  TUser: 0  TLast: 0  Operation# 71
%%        5400.0 ns  Log    INFO    in transmitter_1,                Axi Stream Send.  TData: 994222E8  TStrb: 1111  TKeep: 1111  TID: 00  TDest: 0  TUser: 0  TLast: 0  Operation# 72
%%        5430.0 ns  Log    INFO    in transmitter_1,                Axi Stream Send.  TData: C3ECCD32  TStrb: 1111  TKeep: 1111  TID: 00  TDest: 0  TUser: 0  TLast: 0  Operation# 73
%%        5440.0 ns  Log    INFO    in transmitter_1,                Axi Stream Send.  TData: 7759127E  TStrb: 1111  TKeep: 1111  TID: 00  TDest: 0  TUser: 0  TLast: 0  Operation# 74
%%        5450.0 ns  Log    INFO    in transmitter_1,                Axi Stream Send.  TData: B68F9440  TStrb: 1111  TKeep: 1111  TID: 00  TDest: 0  TUser: 0  TLast: 0  Operation# 75
%%        5460.0 ns  Log    INFO    in transmitter_1,                Axi Stream Send.  TData: CFF78923  TStrb: 1111  TKeep: 1111  TID: 00  TDest: 0  TUser: 0  TLast: 0  Operation# 76
%%        5470.0 ns  Log    INFO    in transmitter_1,                Axi Stream Send.  TData: 073943C8  TStrb: 1111  TKeep: 1111  TID: 00  TDest: 0  TUser: 0  TLast: 0  Operation# 77
%%        5490.0 ns  Log    INFO    in transmitter_1,                Axi Stream Send.  TData: 110282DC  TStrb: 1111  TKeep: 1111  TID: 00  TDest: 0  TUser: 0  TLast: 0  Operation# 78
%%        5500.0 ns  Log    INFO    in transmitter_1,                Axi Stream Send.  TData: FAB8E3CB  TStrb: 1111  TKeep: 1111  TID: 00  TDest: 0  TUser: 0  TLast: 0  Operation# 79
%%        5520.0 ns  Log    INFO    in transmitter_1,                Axi Stream Send.  TData: 63349A04  TStrb: 1111  TKeep: 1111  TID: 00  TDest: 0  TUser: 0  TLast: 0  Operation# 80
%%        5530.0 ns  Log    INFO    in transmitter_1,                Axi Stream Send.  TData: A865BB87  TStrb: 1111  TKeep: 1111  TID: 00  TDest: 0  TUser: 0  TLast: 0  Operation# 81
%%        5540.0 ns  Log    INFO    in transmitter_1,                Axi Stream Send.  TData: 99BB8B43  TStrb: 1111  TKeep: 1111  TID: 00  TDest: 0  TUser: 0  TLast: 0  Operation# 82
%%        5550.0 ns  Log    INFO    in transmitter_1,                Axi Stream Send.  TData: 8A2FE81E  TStrb: 1111  TKeep: 1111  TID: 00  TDest: 0  TUser: 0  TLast: 0  Operation# 83
%%        5560.0 ns  Log    INFO    in transmitter_1,                Axi Stream Send.  TData: B8392C88  TStrb: 1111  TKeep: 1111  TID: 00  TDest: 0  TUser: 0  TLast: 0  Operation# 84
%%        5570.0 ns  Log    INFO    in transmitter_1,                Axi Stream Send.  TData: 38BC3B08  TStrb: 1111  TKeep: 1111  TID: 00  TDest: 0  TUser: 0  TLast: 0  Operation# 85
%%        5580.0 ns  Log    INFO    in transmitter_1,                Axi Stream Send.  TData: 5F31CAA2  TStrb: 1111  TKeep: 1111  TID: 00  TDest: 0  TUser: 0  TLast: 0  Operation# 86
%%        5590.0 ns  Log    INFO    in transmitter_1,                Axi Stream Send.  TData: 9FE6BBF2  TStrb: 1111  TKeep: 1111  TID: 00  TDest: 0  TUser: 0  TLast: 0  Operation# 87
%%        5600.0 ns  Log    INFO    in transmitter_1,                Axi Stream Send.  TData: 8279E210  TStrb: 1111  TKeep: 1111  TID: 00  TDest: 0  TUser: 0  TLast: 0  Operation# 88
%%        5620.0 ns  Log    INFO    in transmitter_1,                Axi Stream Send.  TData: FAE3FDD3  TStrb: 1111  TKeep: 1111  TID: 00  TDest: 0  TUser: 0  TLast: 0  Operation# 89
%%        5630.0 ns  Log    INFO    in transmitter_1,                Axi Stream Send.  TData: 0DB69CDA  TStrb: 1111  TKeep: 1111  TID: 00  TDest: 0  TUser: 0  TLast: 0  Operation# 90
%%        5660.0 ns  Log    INFO    in transmitter_1,                Axi Stream Send.  TData: D0BCA845  TStrb: 1111  TKeep: 1111  TID: 00  TDest: 0  TUser: 0  TLast: 0  Operation# 91
%%        5680.0 ns  Log    INFO    in transmitter_1,                Axi Stream Send.  TData: 9760B4EA  TStrb: 1111  TKeep: 1111  TID: 00  TDest: 0  TUser: 0  TLast: 0  Operation# 92
%%        5710.0 ns  Log    INFO    in transmitter_1,                Axi Stream Send.  TData: 466F7FA6  TStrb: 1111  TKeep: 1111  TID: 00  TDest: 0  TUser: 0  TLast: 0  Operation# 93
%%        5730.0 ns  Log    INFO    in transmitter_1,                Axi Stream Send.  TData: F74C55CD  TStrb: 1111  TKeep: 1111  TID: 00  TDest: 0  TUser: 0  TLast: 1  Operation# 94
%%        5740.0 ns  Log    INFO    in receiver_1,                   Burst Receive.  Operation# 2  Last Data: F74C55CD  TID: 00  TDest: 0  TUser: 0  TLast: 1
%%        5740.0 ns  Log    ALWAYS  in Default,                      Sending Packet 3 of length 243
%%        5740.0 ns  Log    ALWAYS  in Default,                      Received Packet B2 of length 244
%%        5740.0 ns  Log    PASSED  in Testbench: SB1,               Received: 28   Item Number: 131
%%        5740.0 ns  Log    PASSED  in Testbench: SB1,               Received: 25   Item Number: 132
%%        5740.0 ns  Log    PASSED  in Testbench: SB1,               Received: A4   Item Number: 133
%%        5740.0 ns  Log    PASSED  in Testbench: SB1,               Received: 68   Item Number: 134
%%        5740.0 ns  Log    PASSED  in Testbench: SB1,               Received: 3B   Item Number: 135
%%        5740.0 ns  Log    PASSED  in Testbench: SB1,               Received: 31   Item Number: 136
%%        5740.0 ns  Log    PASSED  in Testbench: SB1,               Received: C4   Item Number: 137
%%        5740.0 ns  Log    PASSED  in Testbench: SB1,               Received: F9   Item Number: 138
%%        5740.0 ns  Log    PASSED  in Testbench: SB1,               Received: 97   Item Number: 139
%%        5740.0 ns  Log    PASSED  in Testbench: SB1,               Received: 02   Item Number: 140
%%        5740.0 ns  Log    PASSED  in Testbench: SB1,               Received: FB   Item Number: 141
%%        5740.0 ns  Log    PASSED  in Testbench: SB1,               Received: 70   Item Number: 142
%%        5740.0 ns  Log    PASSED  in Testbench: SB1,               Received: 39   Item Number: 143
%%        5740.0 ns  Log    PASSED  in Testbench: SB1,               Received: D6   Item Number: 144
%%        5740.0 ns  Log    PASSED  in Testbench: SB1,               Received: 68   Item Number: 145
%%        5740.0 ns  Log    PASSED  in Testbench: SB1,               Received: 6B   Item Number: 146
%%        5740.0 ns  Log    PASSED  in Testbench: SB1,               Received: 7B   Item Number: 147
%%        5740.0 ns  Log    PASSED  in Testbench: SB1,               Received: C8   Item Number: 148
%%        5740.0 ns  Log    PASSED  in Testbench: SB1,               Received: 6F   Item Number: 149
%%        5740.0 ns  Log    PASSED  in Testbench: SB1,               Received: 39   Item Number: 150
%%        5740.0 ns  Log    PASSED  in Testbench: SB1,               Received: AE   Item Number: 151
%%        5740.0 ns  Log    PASSED  in Testbench: SB1,               Received: 3F   Item Number: 152
%%        5740.0 ns  Log    PASSED  in Testbench: SB1,               Received: 1B   Item Number: 153
%%        5740.0 ns  Log    PASSED  in Testbench: SB1,               Received: 30   Item Number: 154
%%        5740.0 ns  Log    PASSED  in Testbench: SB1,               Received: 42   Item Number: 155
%%        5740.0 ns  Log    PASSED  in Testbench: SB1,               Received: EA   Item Number: 156
%%        5740.0 ns  Log    PASSED  in Testbench: SB1,               Received: 87   Item Number: 157
%%        5740.0 ns  Log    PASSED  in Testbench: SB1,               Received: 2F   Item Number: 158
%%        5740.0 ns  Log    PASSED  in Testbench: SB1,               Received: DA   Item Number: 159
%%        5740.0 ns  Log    PASSED  in Testbench: SB1,               Received: A4   Item Number: 160
%%        5740.0 ns  Log    PASSED  in Testbench: SB1,               Received: 7E   Item Number: 161
%%        5740.0 ns  Log    PASSED  in Testbench: SB1,               Received: FE   Item Number: 162
%%        5740.0 ns  Log    PASSED  in Testbench: SB1,               Received: DD   Item Number: 163
%%        5740.0 ns  Log    PASSED  in Testbench: SB1,               Received: D0   Item Number: 164
%%        5740.0 ns  Log    PASSED  in Testbench: SB1,               Received: 69   Item Number: 165
%%        5740.0 ns  Log    PASSED  in Testbench: SB1,               Received: D1   Item Number: 166
%%        5740.0 ns  Log    PASSED  in Testbench: SB1,               Received: 75   Item Number: 167
%%        5740.0 ns  Log    PASSED  in Testbench: SB1,               Received: FB   Item Number: 168
%%        5740.0 ns  Log    PASSED  in Testbench: SB1,               Received: 16   Item Number: 169
%%        5740.0 ns  Log    PASSED  in Testbench: SB1,               Received: D0   Item Number: 170
%%        5740.0 ns  Log    PASSED  in Testbench: SB1,               Received: 3A   Item Number: 171
%%        5740.0 ns  Log    PASSED  in Testbench: SB1,               Received: 15   Item Number: 172
%%        5740.0 ns  Log    PASSED  in Testbench: SB1,               Received: 03   Item Number: 173
%%        5740.0 ns  Log    PASSED  in Testbench: SB1,               Received: B3   Item Number: 174
%%        5740.0 ns  Log    PASSED  in Testbench: SB1,               Received: 49   Item Number: 175
%%        5740.0 ns  Log    PASSED  in Testbench: SB1,               Received: A9   Item Number: 176
%%        5740.0 ns  Log    PASSED  in Testbench: SB1,               Received: 73   Item Number: 177
%%        5740.0 ns  Log    PASSED  in Testbench: SB1,               Received: 5B   Item Number: 178
%%        5740.0 ns  Log    PASSED  in Testbench: SB1,               Received: 44   Item Number: 179
%%        5740.0 ns  Log    PASSED  in Testbench: SB1,               Received: FD   Item Number: 180
%%        5740.0 ns  Log    PASSED  in Testbench: SB1,               Received: 7B   Item Number: 181
%%        5740.0 ns  Log    PASSED  in Testbench: SB1,               Received: FB   Item Number: 182
%%        5740.0 ns  Log    PASSED  in Testbench: SB1,               Received: F6   Item Number: 183
%%        5740.0 ns  Log    PASSED  in Testbench: SB1,               Received: 4A   Item Number: 184
%%        5740.0 ns  Log    PASSED  in Testbench: SB1,               Received: A2   Item Number: 185
%%        5740.0 ns  Log    PASSED  in Testbench: SB1,               Received: 1B   Item Number: 186
%%        5740.0 ns  Log    PASSED  in Testbench: SB1,               Received: 20   Item Number: 187
%%        5740.0 ns  Log    PASSED  in Testbench: SB1,               Received: F5   Item Number: 188
%%        5740.0 ns  Log    PASSED  in Testbench: SB1,               Received: E7   Item Number: 189
%%        5740.0 ns  Log    PASSED  in Testbench: SB1,               Received: 10   Item Number: 190
%%        5740.0 ns  Log    PASSED  in Testbench: SB1,               Received: 98   Item Number: 191
%%        5740.0 ns  Log    PASSED  in Testbench: SB1,               Received: 86   Item Number: 192
%%        5740.0 ns  Log    PASSED  in Testbench: SB1,               Received: 8C   Item Number: 193
%%        5740.0 ns  Log    PASSED  in Testbench: SB1,               Received: 67   Item Number: 194
%%        5740.0 ns  Log    PASSED  in Testbench: SB1,               Received: A6   Item Number: 195
%%        5740.0 ns  Log    PASSED  in Testbench: SB1,               Received: 00   Item Number: 196
%%        5740.0 ns  Log    PASSED  in Testbench: SB1,               Received: 6E   Item Number: 197
%%        5740.0 ns  Log    PASSED  in Testbench: SB1,               Received: 40   Item Number: 198
%%        5740.0 ns  Log    PASSED  in Testbench: SB1,               Received: 36   Item Number: 199
%%        5740.0 ns  Log    PASSED  in Testbench: SB1,               Received: 33   Item Number: 200
%%        5740.0 ns  Log    PASSED  in Testbench: SB1,               Received: C3   Item Number: 201
%%        5740.0 ns  Log    PASSED  in Testbench: SB1,               Received: BF   Item Number: 202
%%        5740.0 ns  Log    PASSED  in Testbench: SB1,               Received: 0F   Item Number: 203
%%        5740.0 ns  Log    PASSED  in Testbench: SB1,               Received: 29   Item Number: 204
%%        5740.0 ns  Log    PASSED  in Testbench: SB1,               Received: CB   Item Number: 205
%%        5740.0 ns  Log    PASSED  in Testbench: SB1,               Received: FD   Item Number: 206
%%        5740.0 ns  Log    PASSED  in Testbench: SB1,               Received: 4A   Item Number: 207
%%        5740.0 ns  Log    PASSED  in Testbench: SB1,               Received: 32   Item Number: 208
%%        5740.0 ns  Log    PASSED  in Testbench: SB1,               Received: EF   Item Number: 209
%%        5740.0 ns  Log    PASSED  in Testbench: SB1,               Received: 5A   Item Number: 210
%%        5740.0 ns  Log    PASSED  in Testbench: SB1,               Received: 07   Item Number: 211
%%        5740.0 ns  Log    PASSED  in Testbench: SB1,               Received: D1   Item Number: 212
%%        5740.0 ns  Log    PASSED  in Testbench: SB1,               Received: B5   Item Number: 213
%%        5740.0 ns  Log    PASSED  in Testbench: SB1,               Received: A6   Item Number: 214
%%        5740.0 ns  Log    PASSED  in Testbench: SB1,               Received: A6   Item Number: 215
%%        5740.0 ns  Log    PASSED  in Testbench: SB1,               Received: 11   Item Number: 216
%%        5740.0 ns  Log    PASSED  in Testbench: SB1,               Received: 5A   Item Number: 217
%%        5740.0 ns  Log    PASSED  in Testbench: SB1,               Received: 3C   Item Number: 218
%%        5740.0 ns  Log    PASSED  in Testbench: SB1,               Received: C2   Item Number: 219
%%        5740.0 ns  Log    PASSED  in Testbench: SB1,               Received: 2C   Item Number: 220
%%        5740.0 ns  Log    PASSED  in Testbench: SB1,               Received: 88   Item Number: 221
%%        5740.0 ns  Log    PASSED  in Testbench: SB1,               Received: A2   Item Number: 222
%%        5740.0 ns  Log    PASSED  in Testbench: SB1,               Received: 07   Item Number: 223
%%        5740.0 ns  Log    PASSED  in Testbench: SB1,               Received: 2D   Item Number: 224
%%        5740.0 ns  Log    PASSED  in Testbench: SB1,               Received: BB   Item Number: 225
%%        5740.0 ns  Log    PASSED  in Testbench: SB1,               Received: D3   Item Number: 226
%%        5740.0 ns  Log    PASSED  in Testbench: SB1,               Received: 50   Item Number: 227
%%        5740.0 ns  Log    PASSED  in Testbench: SB1,               Received: BD   Item Number: 228
%%        5740.0 ns  Log    PASSED  in Testbench: SB1,               Received: 2B   Item Number: 229
%%        5740.0 ns  Log    PASSED  in Testbench: SB1,               Received: 48   Item Number: 230
%%        5740.0 ns  Log    PASSED  in Testbench: SB1,               Received: 06   Item Number: 231
%%        5740.0 ns  Log    PASSED  in Testbench: SB1,               Received: 2F   Item Number: 232
%%        5740.0 ns  Log    PASSED  in Testbench: SB1,               Received: FF   Item Number: 233
%%        5740.0 ns  Log    PASSED  in Testbench: SB1,               Received: AC   Item Number: 234
%%        5740.0 ns  Log    PASSED  in Testbench: SB1,               Received: 77   Item Number: 235
%%        5740.0 ns  Log    PASSED  in Testbench: SB1,               Received: 63   Item Number: 236
%%        5740.0 ns  Log    PASSED  in Testbench: SB1,               Received: C6   Item Number: 237
%%        5740.0 ns  Log    PASSED  in Testbench: SB1,               Received: D2   Item Number: 238
%%        5740.0 ns  Log    PASSED  in Testbench: SB1,               Received: 04   Item Number: 239
%%        5740.0 ns  Log    PASSED  in Testbench: SB1,               Received: 31   Item Number: 240
%%        5740.0 ns  Log    PASSED  in Testbench: SB1,               Received: D8   Item Number: 241
%%        5740.0 ns  Log    PASSED  in Testbench: SB1,               Received: 50   Item Number: 242
%%        5740.0 ns  Log    PASSED  in Testbench: SB1,               Received: F9   Item Number: 243
%%        5740.0 ns  Log    PASSED  in Testbench: SB1,               Received: 66   Item Number: 244
%%        5740.0 ns  Log    PASSED  in Testbench: SB1,               Received: 96   Item Number: 245
%%        5740.0 ns  Log    PASSED  in Testbench: SB1,               Received: BE   Item Number: 246
%%        5740.0 ns  Log    PASSED  in Testbench: SB1,               Received: 43   Item Number: 247
%%        5740.0 ns  Log    PASSED  in Testbench: SB1,               Received: BA   Item Number: 248
%%        5740.0 ns  Log    PASSED  in Testbench: SB1,               Received: 0B   Item Number: 249
%%        5740.0 ns  Log    PASSED  in Testbench: SB1,               Received: D4   Item Number: 250
%%        5740.0 ns  Log    PASSED  in Testbench: SB1,               Received: 67   Item Number: 251
%%        5740.0 ns  Log    PASSED  in Testbench: SB1,               Received: C8   Item Number: 252
%%        5740.0 ns  Log    PASSED  in Testbench: SB1,               Received: E2   Item Number: 253
%%        5740.0 ns  Log    PASSED  in Testbench: SB1,               Received: 32   Item Number: 254
%%        5740.0 ns  Log    PASSED  in Testbench: SB1,               Received: 97   Item Number: 255
%%        5740.0 ns  Log    PASSED  in Testbench: SB1,               Received: C9   Item Number: 256
%%        5740.0 ns  Log    PASSED  in Testbench: SB1,               Received: 9F   Item Number: 257
%%        5740.0 ns  Log    PASSED  in Testbench: SB1,               Received: 97   Item Number: 258
%%        5740.0 ns  Log    PASSED  in Testbench: SB1,               Received: 02   Item Number: 259
%%        5740.0 ns  Log    PASSED  in Testbench: SB1,               Received: A5   Item Number: 260
%%        5740.0 ns  Log    PASSED  in Testbench: SB1,               Received: 64   Item Number: 261
%%        5740.0 ns  Log    PASSED  in Testbench: SB1,               Received: 9F   Item Number: 262
%%        5740.0 ns  Log    PASSED  in Testbench: SB1,               Received: 43   Item Number: 263
%%        5740.0 ns  Log    PASSED  in Testbench: SB1,               Received: C2   Item Number: 264
%%        5740.0 ns  Log    PASSED  in Testbench: SB1,               Received: 5F   Item Number: 265
%%        5740.0 ns  Log    PASSED  in Testbench: SB1,               Received: 8C   Item Number: 266
%%        5740.0 ns  Log    PASSED  in Testbench: SB1,               Received: 04   Item Number: 267
%%        5740.0 ns  Log    PASSED  in Testbench: SB1,               Received: 94   Item Number: 268
%%        5740.0 ns  Log    PASSED  in Testbench: SB1,               Received: 5F   Item Number: 269
%%        5740.0 ns  Log    PASSED  in Testbench: SB1,               Received: 3B   Item Number: 270
%%        5740.0 ns  Log    PASSED  in Testbench: SB1,               Received: 9C   Item Number: 271
%%        5740.0 ns  Log    PASSED  in Testbench: SB1,               Received: 9D   Item Number: 272
%%        5740.0 ns  Log    PASSED  in Testbench: SB1,               Received: 9A   Item Number: 273
%%        5740.0 ns  Log    PASSED  in Testbench: SB1,               Received: 6C   Item Number: 274
%%        5740.0 ns  Log    PASSED  in Testbench: SB1,               Received: 1B   Item Number: 275
%%        5740.0 ns  Log    PASSED  in Testbench: SB1,               Received: 3B   Item Number: 276
%%        5740.0 ns  Log    PASSED  in Testbench: SB1,               Received: A7   Item Number: 277
%%        5740.0 ns  Log    PASSED  in Testbench: SB1,               Received: D4   Item Number: 278
%%        5740.0 ns  Log    PASSED  in Testbench: SB1,               Received: 5F   Item Number: 279
%%        5740.0 ns  Log    PASSED  in Testbench: SB1,               Received: DF   Item Number: 280
%%        5740.0 ns  Log    PASSED  in Testbench: SB1,               Received: FA   Item Number: 281
%%        5740.0 ns  Log    PASSED  in Testbench: SB1,               Received: 5B   Item Number: 282
%%        5740.0 ns  Log    PASSED  in Testbench: SB1,               Received: E8   Item Number: 283
%%        5740.0 ns  Log    PASSED  in Testbench: SB1,               Received: 22   Item Number: 284
%%        5740.0 ns  Log    PASSED  in Testbench: SB1,               Received: 42   Item Number: 285
%%        5740.0 ns  Log    PASSED  in Testbench: SB1,               Received: 99   Item Number: 286
%%        5740.0 ns  Log    PASSED  in Testbench: SB1,               Received: 32   Item Number: 287
%%        5740.0 ns  Log    PASSED  in Testbench: SB1,               Received: CD   Item Number: 288
%%        5740.0 ns  Log    PASSED  in Testbench: SB1,               Received: EC   Item Number: 289
%%        5740.0 ns  Log    PASSED  in Testbench: SB1,               Received: C3   Item Number: 290
%%        5740.0 ns  Log    PASSED  in Testbench: SB1,               Received: 7E   Item Number: 291
%%        5740.0 ns  Log    PASSED  in Testbench: SB1,               Received: 12   Item Number: 292
%%        5740.0 ns  Log    PASSED  in Testbench: SB1,               Received: 59   Item Number: 293
%%        5740.0 ns  Log    PASSED  in Testbench: SB1,               Received: 77   Item Number: 294
%%        5740.0 ns  Log    PASSED  in Testbench: SB1,               Received: 40   Item Number: 295
%%        5740.0 ns  Log    PASSED  in Testbench: SB1,               Received: 94   Item Number: 296
%%        5740.0 ns  Log    PASSED  in Testbench: SB1,               Received: 8F   Item Number: 297
%%        5740.0 ns  Log    PASSED  in Testbench: SB1,               Received: B6   Item Number: 298
%%        5740.0 ns  Log    PASSED  in Testbench: SB1,               Received: 23   Item Number: 299
%%        5740.0 ns  Log    PASSED  in Testbench: SB1,               Received: 89   Item Number: 300
%%        5740.0 ns  Log    PASSED  in Testbench: SB1,               Received: F7   Item Number: 301
%%        5740.0 ns  Log    PASSED  in Testbench: SB1,               Received: CF   Item Number: 302
%%        5740.0 ns  Log    PASSED  in Testbench: SB1,               Received: C8   Item Number: 303
%%        5740.0 ns  Log    PASSED  in Testbench: SB1,               Received: 43   Item Number: 304
%%        5740.0 ns  Log    PASSED  in Testbench: SB1,               Received: 39   Item Number: 305
%%        5740.0 ns  Log    PASSED  in Testbench: SB1,               Received: 07   Item Number: 306
%%        5740.0 ns  Log    PASSED  in Testbench: SB1,               Received: DC   Item Number: 307
%%        5740.0 ns  Log    PASSED  in Testbench: SB1,               Received: 82   Item Number: 308
%%        5740.0 ns  Log    PASSED  in Testbench: SB1,               Received: 02   Item Number: 309
%%        5740.0 ns  Log    PASSED  in Testbench: SB1,               Received: 11   Item Number: 310
%%        5740.0 ns  Log    PASSED  in Testbench: SB1,               Received: CB   Item Number: 311
%%        5740.0 ns  Log    PASSED  in Testbench: SB1,               Received: E3   Item Number: 312
%%        5740.0 ns  Log    PASSED  in Testbench: SB1,               Received: B8   Item Number: 313
%%        5740.0 ns  Log    PASSED  in Testbench: SB1,               Received: FA   Item Number: 314
%%        5740.0 ns  Log    PASSED  in Testbench: SB1,               Received: 04   Item Number: 315
%%        5740.0 ns  Log    PASSED  in Testbench: SB1,               Received: 9A   Item Number: 316
%%        5740.0 ns  Log    PASSED  in Testbench: SB1,               Received: 34   Item Number: 317
%%        5740.0 ns  Log    PASSED  in Testbench: SB1,               Received: 63   Item Number: 318
%%        5740.0 ns  Log    PASSED  in Testbench: SB1,               Received: 87   Item Number: 319
%%        5740.0 ns  Log    PASSED  in Testbench: SB1,               Received: BB   Item Number: 320
%%        5740.0 ns  Log    PASSED  in Testbench: SB1,               Received: 65   Item Number: 321
%%        5740.0 ns  Log    PASSED  in Testbench: SB1,               Received: A8   Item Number: 322
%%        5740.0 ns  Log    PASSED  in Testbench: SB1,               Received: 43   Item Number: 323
%%        5740.0 ns  Log    PASSED  in Testbench: SB1,               Received: 8B   Item Number: 324
%%        5740.0 ns  Log    PASSED  in Testbench: SB1,               Received: BB   Item Number: 325
%%        5740.0 ns  Log    PASSED  in Testbench: SB1,               Received: 99   Item Number: 326
%%        5740.0 ns  Log    PASSED  in Testbench: SB1,               Received: 1E   Item Number: 327
%%        5740.0 ns  Log    PASSED  in Testbench: SB1,               Received: E8   Item Number: 328
%%        5740.0 ns  Log    PASSED  in Testbench: SB1,               Received: 2F   Item Number: 329
%%        5740.0 ns  Log    PASSED  in Testbench: SB1,               Received: 8A   Item Number: 330
%%        5740.0 ns  Log    PASSED  in Testbench: SB1,               Received: 88   Item Number: 331
%%        5740.0 ns  Log    PASSED  in Testbench: SB1,               Received: 2C   Item Number: 332
%%        5740.0 ns  Log    PASSED  in Testbench: SB1,               Received: 39   Item Number: 333
%%        5740.0 ns  Log    PASSED  in Testbench: SB1,               Received: B8   Item Number: 334
%%        5740.0 ns  Log    PASSED  in Testbench: SB1,               Received: 08   Item Number: 335
%%        5740.0 ns  Log    PASSED  in Testbench: SB1,               Received: 3B   Item Number: 336
%%        5740.0 ns  Log    PASSED  in Testbench: SB1,               Received: BC   Item Number: 337
%%        5740.0 ns  Log    PASSED  in Testbench: SB1,               Received: 38   Item Number: 338
%%        5740.0 ns  Log    PASSED  in Testbench: SB1,               Received: A2   Item Number: 339
%%        5740.0 ns  Log    PASSED  in Testbench: SB1,               Received: CA   Item Number: 340
%%        5740.0 ns  Log    PASSED  in Testbench: SB1,               Received: 31   Item Number: 341
%%        5740.0 ns  Log    PASSED  in Testbench: SB1,               Received: 5F   Item Number: 342
%%        5740.0 ns  Log    PASSED  in Testbench: SB1,               Received: F2   Item Number: 343
%%        5740.0 ns  Log    PASSED  in Testbench: SB1,               Received: BB   Item Number: 344
%%        5740.0 ns  Log    PASSED  in Testbench: SB1,               Received: E6   Item Number: 345
%%        5740.0 ns  Log    PASSED  in Testbench: SB1,               Received: 9F   Item Number: 346
%%        5740.0 ns  Log    PASSED  in Testbench: SB1,               Received: 10   Item Number: 347
%%        5740.0 ns  Log    PASSED  in Testbench: SB1,               Received: E2   Item Number: 348
%%        5740.0 ns  Log    PASSED  in Testbench: SB1,               Received: 79   Item Number: 349
%%        5740.0 ns  Log    PASSED  in Testbench: SB1,               Received: 82   Item Number: 350
%%        5740.0 ns  Log    PASSED  in Testbench: SB1,               Received: D3   Item Number: 351
%%        5740.0 ns  Log    PASSED  in Testbench: SB1,               Received: FD   Item Number: 352
%%        5740.0 ns  Log    PASSED  in Testbench: SB1,               Received: E3   Item Number: 353
%%        5740.0 ns  Log    PASSED  in Testbench: SB1,               Received: FA   Item Number: 354
%%        5740.0 ns  Log    PASSED  in Testbench: SB1,               Received: DA   Item Number: 355
%%        5740.0 ns  Log    PASSED  in Testbench: SB1,               Received: 9C   Item Number: 356
%%        5740.0 ns  Log    PASSED  in Testbench: SB1,               Received: B6   Item Number: 357
%%        5740.0 ns  Log    PASSED  in Testbench: SB1,               Received: 0D   Item Number: 358
%%        5740.0 ns  Log    PASSED  in Testbench: SB1,               Received: 45   Item Number: 359
%%        5740.0 ns  Log    PASSED  in Testbench: SB1,               Received: A8   Item Number: 360
%%        5740.0 ns  Log    PASSED  in Testbench: SB1,               Received: BC   Item Number: 361
%%        5740.0 ns  Log    PASSED  in Testbench: SB1,               Received: D0   Item Number: 362
%%        5740.0 ns  Log    PASSED  in Testbench: SB1,               Received: EA   Item Number: 363
%%        5740.0 ns  Log    PASSED  in Testbench: SB1,               Received: B4   Item Number: 364
%%        5740.0 ns  Log    PASSED  in Testbench: SB1,               Received: 60   Item Number: 365
%%        5740.0 ns  Log    PASSED  in Testbench: SB1,               Received: 97   Item Number: 366
%%        5740.0 ns  Log    PASSED  in Testbench: SB1,               Received: A6   Item Number: 367
%%        5740.0 ns  Log    PASSED  in Testbench: SB1,               Received: 7F   Item Number: 368
%%        5740.0 ns  Log    PASSED  in Testbench: SB1,               Received: 6F   Item Number: 369
%%        5740.0 ns  Log    PASSED  in Testbench: SB1,               Received: 46   Item Number: 370
%%        5740.0 ns  Log    PASSED  in Testbench: SB1,               Received: CD   Item Number: 371
%%        5740.0 ns  Log    PASSED  in Testbench: SB1,               Received: 55   Item Number: 372
%%        5740.0 ns  Log    PASSED  in Testbench: SB1,               Received: 4C   Item Number: 373
%%        5740.0 ns  Log    PASSED  in Testbench: SB1,               Received: F7   Item Number: 374
%%        5740.0 ns  Log    INFO    in transmitter_1,                Axi Stream Send.  TData: 4BE4AF6F  TStrb: 1111  TKeep: 1111  TID: 00  TDest: 0  TUser: 0  TLast: 0  Operation# 95
%%        5750.0 ns  Log    INFO    in transmitter_1,                Axi Stream Send.  TData: E561440D  TStrb: 1111  TKeep: 1111  TID: 00  TDest: 0  TUser: 0  TLast: 0  Operation# 96
%%        5760.0 ns  Log    INFO    in transmitter_1,                Axi Stream Send.  TData: CAA598BF  TStrb: 1111  TKeep: 1111  TID: 00  TDest: 0  TUser: 0  TLast: 0  Operation# 97
%%        5770.0 ns  Log    INFO    in transmitter_1,                Axi Stream Send.  TData: 99C92550  TStrb: 1111  TKeep: 1111  TID: 00  TDest: 0  TUser: 0  TLast: 0  Operation# 98
%%        5780.0 ns  Log    INFO    in transmitter_1,                Axi Stream Send.  TData: 55A10ECD  TStrb: 1111  TKeep: 1111  TID: 00  TDest: 0  TUser: 0  TLast: 0  Operation# 99
%%        5790.0 ns  Log    INFO    in transmitter_1,                Axi Stream Send.  TData: 8C7320E8  TStrb: 1111  TKeep: 1111  TID: 00  TDest: 0  TUser: 0  TLast: 0  Operation# 100
%%        5820.0 ns  Log    INFO    in transmitter_1,                Axi Stream Send.  TData: A83F190D  TStrb: 1111  TKeep: 1111  TID: 00  TDest: 0  TUser: 0  TLast: 0  Operation# 101
%%        5830.0 ns  Log    INFO    in transmitter_1,                Axi Stream Send.  TData: 93FEC86D  TStrb: 1111  TKeep: 1111  TID: 00  TDest: 0  TUser: 0  TLast: 0  Operation# 102
%%        5840.0 ns  Log    INFO    in transmitter_1,                Axi Stream Send.  TData: F13D26A7  TStrb: 1111  TKeep: 1111  TID: 00  TDest: 0  TUser: 0  TLast: 0  Operation# 103
%%        5850.0 ns  Log    INFO    in transmitter_1,                Axi Stream Send.  TData: 8A9DC7E0  TStrb: 1111  TKeep: 1111  TID: 00  TDest: 0  TUser: 0  TLast: 0  Operation# 104
%%        5860.0 ns  Log    INFO    in transmitter_1,                Axi Stream Send.  TData: 003EFD86  TStrb: 1111  TKeep: 1111  TID: 00  TDest: 0  TUser: 0  TLast: 0  Operation# 105
%%        5870.0 ns  Log    INFO    in transmitter_1,                Axi Stream Send.  TData: EAB95718  TStrb: 1111  TKeep: 1111  TID: 00  TDest: 0  TUser: 0  TLast: 0  Operation# 106
%%        5890.0 ns  Log    INFO    in transmitter_1,                Axi Stream Send.  TData: 85291731  TStrb: 1111  TKeep: 1111  TID: 00  TDest: 0  TUser: 0  TLast: 0  Operation# 107
%%        5910.0 ns  Log    INFO    in transmitter_1,                Axi Stream Send.  TData: 31558372  TStrb: 1111  TKeep: 1111  TID: 00  TDest: 0  TUser: 0  TLast: 0  Operation# 108
%%        5920.0 ns  Log    INFO    in transmitter_1,                Axi Stream Send.  TData: A3BDF837  TStrb: 1111  TKeep: 1111  TID: 00  TDest: 0  TUser: 0  TLast: 0  Operation# 109
%%        5930.0 ns  Log    INFO    in transmitter_1,                Axi Stream Send.  TData: 13E8DF1C  TStrb: 1111  TKeep: 1111  TID: 00  TDest: 0  TUser: 0  TLast: 0  Operation# 110
%%        5940.0 ns  Log    INFO    in transmitter_1,                Axi Stream Send.  TData: 06364548  TStrb: 1111  TKeep: 1111  TID: 00  TDest: 0  TUser: 0  TLast: 0  Operation# 111
%%        5960.0 ns  Log    INFO    in transmitter_1,                Axi Stream Send.  TData: E408DCC0  TStrb: 1111  TKeep: 1111  TID: 00  TDest: 0  TUser: 0  TLast: 0  Operation# 112
%%        5970.0 ns  Log    INFO    in transmitter_1,                Axi Stream Send.  TData: B7F1A589  TStrb: 1111  TKeep: 1111  TID: 00  TDest: 0  TUser: 0  TLast: 0  Operation# 113
%%        5990.0 ns  Log    INFO    in transmitter_1,                Axi Stream Send.  TData: 1BA621BC  TStrb: 1111  TKeep: 1111  TID: 00  TDest: 0  TUser: 0  TLast: 0  Operation# 114
%%        6000.0 ns  Log    INFO    in transmitter_1,                Axi Stream Send.  TData: 10531608  TStrb: 1111  TKeep: 1111  TID: 00  TDest: 0  TUser: 0  TLast: 0  Operation# 115
%%        6030.0 ns  Log    INFO    in transmitter_1,                Axi Stream Send.  TData: E1A0631D  TStrb: 1111  TKeep: 1111  TID: 00  TDest: 0  TUser: 0  TLast: 0  Operation# 116
%%        6040.0 ns  Log    INFO    in transmitter_1,                Axi Stream Send.  TData: 0482D1C3  TStrb: 1111  TKeep: 1111  TID: 00  TDest: 0  TUser: 0  TLast: 0  Operation# 117
%%        6050.0 ns  Log    INFO    in transmitter_1,                Axi Stream Send.  TData: 7CCFF14D  TStrb: 1111  TKeep: 1111  TID: 00  TDest: 0  TUser: 0  TLast: 0  Operation# 118
%%        6100.0 ns  Log    INFO    in transmitter_1,                Axi Stream Send.  TData: 1B453E09  TStrb: 1111  TKeep: 1111  TID: 00  TDest: 0  TUser: 0  TLast: 0  Operation# 119
%%        6120.0 ns  Log    INFO    in transmitter_1,                Axi Stream Send.  TData: 32CA14D7  TStrb: 1111  TKeep: 1111  TID: 00  TDest: 0  TUser: 0  TLast: 0  Operation# 120
%%        6130.0 ns  Log    INFO    in transmitter_1,                Axi Stream Send.  TData: E1913E5D  TStrb: 1111  TKeep: 1111  TID: 00  TDest: 0  TUser: 0  TLast: 0  Operation# 121
%%        6140.0 ns  Log    INFO    in transmitter_1,                Axi Stream Send.  TData: 6398C00F  TStrb: 1111  TKeep: 1111  TID: 00  TDest: 0  TUser: 0  TLast: 0  Operation# 122
%%        6150.0 ns  Log    INFO    in transmitter_1,                Axi Stream Send.  TData: C29842DC  TStrb: 1111  TKeep: 1111  TID: 00  TDest: 0  TUser: 0  TLast: 0  Operation# 123
%%        6180.0 ns  Log    INFO    in transmitter_1,                Axi Stream Send.  TData: 0B0717CF  TStrb: 1111  TKeep: 1111  TID: 00  TDest: 0  TUser: 0  TLast: 0  Operation# 124
%%        6190.0 ns  Log    INFO    in transmitter_1,                Axi Stream Send.  TData: BA2C5205  TStrb: 1111  TKeep: 1111  TID: 00  TDest: 0  TUser: 0  TLast: 0  Operation# 125
%%        6200.0 ns  Log    INFO    in transmitter_1,                Axi Stream Send.  TData: 578611C8  TStrb: 1111  TKeep: 1111  TID: 00  TDest: 0  TUser: 0  TLast: 0  Operation# 126
%%        6230.0 ns  Log    INFO    in transmitter_1,                Axi Stream Send.  TData: 75BA9A39  TStrb: 1111  TKeep: 1111  TID: 00  TDest: 0  TUser: 0  TLast: 0  Operation# 127
%%        6240.0 ns  Log    INFO    in transmitter_1,                Axi Stream Send.  TData: D4CA9A3E  TStrb: 1111  TKeep: 1111  TID: 00  TDest: 0  TUser: 0  TLast: 0  Operation# 128
%%        6250.0 ns  Log    INFO    in transmitter_1,                Axi Stream Send.  TData: D5541377  TStrb: 1111  TKeep: 1111  TID: 00  TDest: 0  TUser: 0  TLast: 0  Operation# 129
%%        6260.0 ns  Log    INFO    in transmitter_1,                Axi Stream Send.  TData: 4D4552D6  TStrb: 1111  TKeep: 1111  TID: 00  TDest: 0  TUser: 0  TLast: 0  Operation# 130
%%        6270.0 ns  Log    INFO    in transmitter_1,                Axi Stream Send.  TData: 8423E588  TStrb: 1111  TKeep: 1111  TID: 00  TDest: 0  TUser: 0  TLast: 0  Operation# 131
%%        6280.0 ns  Log    INFO    in transmitter_1,                Axi Stream Send.  TData: 323C2860  TStrb: 1111  TKeep: 1111  TID: 00  TDest: 0  TUser: 0  TLast: 0  Operation# 132
%%        6290.0 ns  Log    INFO    in transmitter_1,                Axi Stream Send.  TData: A11536FF  TStrb: 1111  TKeep: 1111  TID: 00  TDest: 0  TUser: 0  TLast: 0  Operation# 133
%%        6310.0 ns  Log    INFO    in transmitter_1,                Axi Stream Send.  TData: 4056CB9E  TStrb: 1111  TKeep: 1111  TID: 00  TDest: 0  TUser: 0  TLast: 0  Operation# 134
%%        6320.0 ns  Log    INFO    in transmitter_1,                Axi Stream Send.  TData: A2F35A14  TStrb: 1111  TKeep: 1111  TID: 00  TDest: 0  TUser: 0  TLast: 0  Operation# 135
%%        6330.0 ns  Log    INFO    in transmitter_1,                Axi Stream Send.  TData: DA6612CE  TStrb: 1111  TKeep: 1111  TID: 00  TDest: 0  TUser: 0  TLast: 0  Operation# 136
%%        6340.0 ns  Log    INFO    in transmitter_1,                Axi Stream Send.  TData: BFC73FF3  TStrb: 1111  TKeep: 1111  TID: 00  TDest: 0  TUser: 0  TLast: 0  Operation# 137
%%        6370.0 ns  Log    INFO    in transmitter_1,                Axi Stream Send.  TData: 4433B9D2  TStrb: 1111  TKeep: 1111  TID: 00  TDest: 0  TUser: 0  TLast: 0  Operation# 138
%%        6380.0 ns  Log    INFO    in transmitter_1,                Axi Stream Send.  TData: AC40FCEF  TStrb: 1111  TKeep: 1111  TID: 00  TDest: 0  TUser: 0  TLast: 0  Operation# 139
%%        6390.0 ns  Log    INFO    in transmitter_1,                Axi Stream Send.  TData: A17B29B4  TStrb: 1111  TKeep: 1111  TID: 00  TDest: 0  TUser: 0  TLast: 0  Operation# 140
%%        6400.0 ns  Log    INFO    in transmitter_1,                Axi Stream Send.  TData: C84F2A7D  TStrb: 1111  TKeep: 1111  TID: 00  TDest: 0  TUser: 0  TLast: 0  Operation# 141
%%        6410.0 ns  Log    INFO    in transmitter_1,                Axi Stream Send.  TData: B2F1C2C6  TStrb: 1111  TKeep: 1111  TID: 00  TDest: 0  TUser: 0  TLast: 0  Operation# 142
%%        6420.0 ns  Log    INFO    in transmitter_1,                Axi Stream Send.  TData: C3F958AD  TStrb: 1111  TKeep: 1111  TID: 00  TDest: 0  TUser: 0  TLast: 0  Operation# 143
%%        6430.0 ns  Log    INFO    in transmitter_1,                Axi Stream Send.  TData: 174FE2B7  TStrb: 1111  TKeep: 1111  TID: 00  TDest: 0  TUser: 0  TLast: 0  Operation# 144
%%        6440.0 ns  Log    INFO    in transmitter_1,                Axi Stream Send.  TData: D59CB1E1  TStrb: 1111  TKeep: 1111  TID: 00  TDest: 0  TUser: 0  TLast: 0  Operation# 145
%%        6460.0 ns  Log    INFO    in transmitter_1,                Axi Stream Send.  TData: 300BD671  TStrb: 1111  TKeep: 1111  TID: 00  TDest: 0  TUser: 0  TLast: 0  Operation# 146
%%        6540.0 ns  Log    INFO    in transmitter_1,                Axi Stream Send.  TData: 91B5C979  TStrb: 1111  TKeep: 1111  TID: 00  TDest: 0  TUser: 0  TLast: 0  Operation# 147
%%        6570.0 ns  Log    INFO    in transmitter_1,                Axi Stream Send.  TData: 55F7178B  TStrb: 1111  TKeep: 1111  TID: 00  TDest: 0  TUser: 0  TLast: 0  Operation# 148
%%        6580.0 ns  Log    INFO    in transmitter_1,                Axi Stream Send.  TData: 28E04E61  TStrb: 1111  TKeep: 1111  TID: 00  TDest: 0  TUser: 0  TLast: 0  Operation# 149
%%        6610.0 ns  Log    INFO    in transmitter_1,                Axi Stream Send.  TData: 27CD2384  TStrb: 1111  TKeep: 1111  TID: 00  TDest: 0  TUser: 0  TLast: 0  Operation# 150
%%        6620.0 ns  Log    INFO    in transmitter_1,                Axi Stream Send.  TData: 8231B139  TStrb: 1111  TKeep: 1111  TID: 00  TDest: 0  TUser: 0  TLast: 0  Operation# 151
%%        6640.0 ns  Log    INFO    in transmitter_1,                Axi Stream Send.  TData: 14D11664  TStrb: 1111  TKeep: 1111  TID: 00  TDest: 0  TUser: 0  TLast: 0  Operation# 152
%%        6680.0 ns  Log    INFO    in transmitter_1,                Axi Stream Send.  TData: 1398226A  TStrb: 1111  TKeep: 1111  TID: 00  TDest: 0  TUser: 0  TLast: 0  Operation# 153
%%        6690.0 ns  Log    INFO    in transmitter_1,                Axi Stream Send.  TData: 3E744CB8  TStrb: 1111  TKeep: 1111  TID: 00  TDest: 0  TUser: 0  TLast: 0  Operation# 154
%%        6780.0 ns  Log    INFO    in transmitter_1,                Axi Stream Send.  TData: XX6AFF31  TStrb: 0111  TKeep: 0111  TID: 00  TDest: 0  TUser: 0  TLast: 1  Operation# 155
%%        6800.0 ns  Log    INFO    in receiver_1,                   Burst Receive.  Operation# 3  Last Data: --6AFF31  TID: 00  TDest: 0  TUser: 0  TLast: 1
%%        6800.0 ns  Log    ALWAYS  in Default,                      Sending Packet 4 of length 234
%%        6800.0 ns  Log    ALWAYS  in Default,                      Received Packet A3 of length 243
%%        6800.0 ns  Log    PASSED  in Testbench: SB1,               Received: 6F   Item Number: 375
%%        6800.0 ns  Log    PASSED  in Testbench: SB1,               Received: AF   Item Number: 376
%%        6800.0 ns  Log    PASSED  in Testbench: SB1,               Received: E4   Item Number: 377
%%        6800.0 ns  Log    PASSED  in Testbench: SB1,               Received: 4B   Item Number: 378
%%        6800.0 ns  Log    PASSED  in Testbench: SB1,               Received: 0D   Item Number: 379
%%        6800.0 ns  Log    PASSED  in Testbench: SB1,               Received: 44   Item Number: 380
%%        6800.0 ns  Log    PASSED  in Testbench: SB1,               Received: 61   Item Number: 381
%%        6800.0 ns  Log    PASSED  in Testbench: SB1,               Received: E5   Item Number: 382
%%        6800.0 ns  Log    PASSED  in Testbench: SB1,               Received: BF   Item Number: 383
%%        6800.0 ns  Log    PASSED  in Testbench: SB1,               Received: 98   Item Number: 384
%%        6800.0 ns  Log    PASSED  in Testbench: SB1,               Received: A5   Item Number: 385
%%        6800.0 ns  Log    PASSED  in Testbench: SB1,               Received: CA   Item Number: 386
%%        6800.0 ns  Log    PASSED  in Testbench: SB1,               Received: 50   Item Number: 387
%%        6800.0 ns  Log    PASSED  in Testbench: SB1,               Received: 25   Item Number: 388
%%        6800.0 ns  Log    PASSED  in Testbench: SB1,               Received: C9   Item Number: 389
%%        6800.0 ns  Log    PASSED  in Testbench: SB1,               Received: 99   Item Number: 390
%%        6800.0 ns  Log    PASSED  in Testbench: SB1,               Received: CD   Item Number: 391
%%        6800.0 ns  Log    PASSED  in Testbench: SB1,               Received: 0E   Item Number: 392
%%        6800.0 ns  Log    PASSED  in Testbench: SB1,               Received: A1   Item Number: 393
%%        6800.0 ns  Log    PASSED  in Testbench: SB1,               Received: 55   Item Number: 394
%%        6800.0 ns  Log    PASSED  in Testbench: SB1,               Received: E8   Item Number: 395
%%        6800.0 ns  Log    PASSED  in Testbench: SB1,               Received: 20   Item Number: 396
%%        6800.0 ns  Log    PASSED  in Testbench: SB1,               Received: 73   Item Number: 397
%%        6800.0 ns  Log    PASSED  in Testbench: SB1,               Received: 8C   Item Number: 398
%%        6800.0 ns  Log    PASSED  in Testbench: SB1,               Received: 0D   Item Number: 399
%%        6800.0 ns  Log    PASSED  in Testbench: SB1,               Received: 19   Item Number: 400
%%        6800.0 ns  Log    PASSED  in Testbench: SB1,               Received: 3F   Item Number: 401
%%        6800.0 ns  Log    PASSED  in Testbench: SB1,               Received: A8   Item Number: 402
%%        6800.0 ns  Log    PASSED  in Testbench: SB1,               Received: 6D   Item Number: 403
%%        6800.0 ns  Log    PASSED  in Testbench: SB1,               Received: C8   Item Number: 404
%%        6800.0 ns  Log    PASSED  in Testbench: SB1,               Received: FE   Item Number: 405
%%        6800.0 ns  Log    PASSED  in Testbench: SB1,               Received: 93   Item Number: 406
%%        6800.0 ns  Log    PASSED  in Testbench: SB1,               Received: A7   Item Number: 407
%%        6800.0 ns  Log    PASSED  in Testbench: SB1,               Received: 26   Item Number: 408
%%        6800.0 ns  Log    PASSED  in Testbench: SB1,               Received: 3D   Item Number: 409
%%        6800.0 ns  Log    PASSED  in Testbench: SB1,               Received: F1   Item Number: 410
%%        6800.0 ns  Log    PASSED  in Testbench: SB1,               Received: E0   Item Number: 411
%%        6800.0 ns  Log    PASSED  in Testbench: SB1,               Received: C7   Item Number: 412
%%        6800.0 ns  Log    PASSED  in Testbench: SB1,               Received: 9D   Item Number: 413
%%        6800.0 ns  Log    PASSED  in Testbench: SB1,               Received: 8A   Item Number: 414
%%        6800.0 ns  Log    PASSED  in Testbench: SB1,               Received: 86   Item Number: 415
%%        6800.0 ns  Log    PASSED  in Testbench: SB1,               Received: FD   Item Number: 416
%%        6800.0 ns  Log    PASSED  in Testbench: SB1,               Received: 3E   Item Number: 417
%%        6800.0 ns  Log    PASSED  in Testbench: SB1,               Received: 00   Item Number: 418
%%        6800.0 ns  Log    PASSED  in Testbench: SB1,               Received: 18   Item Number: 419
%%        6800.0 ns  Log    PASSED  in Testbench: SB1,               Received: 57   Item Number: 420
%%        6800.0 ns  Log    PASSED  in Testbench: SB1,               Received: B9   Item Number: 421
%%        6800.0 ns  Log    PASSED  in Testbench: SB1,               Received: EA   Item Number: 422
%%        6800.0 ns  Log    PASSED  in Testbench: SB1,               Received: 31   Item Number: 423
%%        6800.0 ns  Log    PASSED  in Testbench: SB1,               Received: 17   Item Number: 424
%%        6800.0 ns  Log    PASSED  in Testbench: SB1,               Received: 29   Item Number: 425
%%        6800.0 ns  Log    PASSED  in Testbench: SB1,               Received: 85   Item Number: 426
%%        6800.0 ns  Log    PASSED  in Testbench: SB1,               Received: 72   Item Number: 427
%%        6800.0 ns  Log    PASSED  in Testbench: SB1,               Received: 83   Item Number: 428
%%        6800.0 ns  Log    PASSED  in Testbench: SB1,               Received: 55   Item Number: 429
%%        6800.0 ns  Log    PASSED  in Testbench: SB1,               Received: 31   Item Number: 430
%%        6800.0 ns  Log    PASSED  in Testbench: SB1,               Received: 37   Item Number: 431
%%        6800.0 ns  Log    PASSED  in Testbench: SB1,               Received: F8   Item Number: 432
%%        6800.0 ns  Log    PASSED  in Testbench: SB1,               Received: BD   Item Number: 433
%%        6800.0 ns  Log    PASSED  in Testbench: SB1,               Received: A3   Item Number: 434
%%        6800.0 ns  Log    PASSED  in Testbench: SB1,               Received: 1C   Item Number: 435
%%        6800.0 ns  Log    PASSED  in Testbench: SB1,               Received: DF   Item Number: 436
%%        6800.0 ns  Log    PASSED  in Testbench: SB1,               Received: E8   Item Number: 437
%%        6800.0 ns  Log    PASSED  in Testbench: SB1,               Received: 13   Item Number: 438
%%        6800.0 ns  Log    PASSED  in Testbench: SB1,               Received: 48   Item Number: 439
%%        6800.0 ns  Log    PASSED  in Testbench: SB1,               Received: 45   Item Number: 440
%%        6800.0 ns  Log    PASSED  in Testbench: SB1,               Received: 36   Item Number: 441
%%        6800.0 ns  Log    PASSED  in Testbench: SB1,               Received: 06   Item Number: 442
%%        6800.0 ns  Log    PASSED  in Testbench: SB1,               Received: C0   Item Number: 443
%%        6800.0 ns  Log    PASSED  in Testbench: SB1,               Received: DC   Item Number: 444
%%        6800.0 ns  Log    PASSED  in Testbench: SB1,               Received: 08   Item Number: 445
%%        6800.0 ns  Log    PASSED  in Testbench: SB1,               Received: E4   Item Number: 446
%%        6800.0 ns  Log    PASSED  in Testbench: SB1,               Received: 89   Item Number: 447
%%        6800.0 ns  Log    PASSED  in Testbench: SB1,               Received: A5   Item Number: 448
%%        6800.0 ns  Log    PASSED  in Testbench: SB1,               Received: F1   Item Number: 449
%%        6800.0 ns  Log    PASSED  in Testbench: SB1,               Received: B7   Item Number: 450
%%        6800.0 ns  Log    PASSED  in Testbench: SB1,               Received: BC   Item Number: 451
%%        6800.0 ns  Log    PASSED  in Testbench: SB1,               Received: 21   Item Number: 452
%%        6800.0 ns  Log    PASSED  in Testbench: SB1,               Received: A6   Item Number: 453
%%        6800.0 ns  Log    PASSED  in Testbench: SB1,               Received: 1B   Item Number: 454
%%        6800.0 ns  Log    PASSED  in Testbench: SB1,               Received: 08   Item Number: 455
%%        6800.0 ns  Log    PASSED  in Testbench: SB1,               Received: 16   Item Number: 456
%%        6800.0 ns  Log    PASSED  in Testbench: SB1,               Received: 53   Item Number: 457
%%        6800.0 ns  Log    PASSED  in Testbench: SB1,               Received: 10   Item Number: 458
%%        6800.0 ns  Log    PASSED  in Testbench: SB1,               Received: 1D   Item Number: 459
%%        6800.0 ns  Log    PASSED  in Testbench: SB1,               Received: 63   Item Number: 460
%%        6800.0 ns  Log    PASSED  in Testbench: SB1,               Received: A0   Item Number: 461
%%        6800.0 ns  Log    PASSED  in Testbench: SB1,               Received: E1   Item Number: 462
%%        6800.0 ns  Log    PASSED  in Testbench: SB1,               Received: C3   Item Number: 463
%%        6800.0 ns  Log    PASSED  in Testbench: SB1,               Received: D1   Item Number: 464
%%        6800.0 ns  Log    PASSED  in Testbench: SB1,               Received: 82   Item Number: 465
%%        6800.0 ns  Log    PASSED  in Testbench: SB1,               Received: 04   Item Number: 466
%%        6800.0 ns  Log    PASSED  in Testbench: SB1,               Received: 4D   Item Number: 467
%%        6800.0 ns  Log    PASSED  in Testbench: SB1,               Received: F1   Item Number: 468
%%        6800.0 ns  Log    PASSED  in Testbench: SB1,               Received: CF   Item Number: 469
%%        6800.0 ns  Log    PASSED  in Testbench: SB1,               Received: 7C   Item Number: 470
%%        6800.0 ns  Log    PASSED  in Testbench: SB1,               Received: 09   Item Number: 471
%%        6800.0 ns  Log    PASSED  in Testbench: SB1,               Received: 3E   Item Number: 472
%%        6800.0 ns  Log    PASSED  in Testbench: SB1,               Received: 45   Item Number: 473
%%        6800.0 ns  Log    PASSED  in Testbench: SB1,               Received: 1B   Item Number: 474
%%        6800.0 ns  Log    PASSED  in Testbench: SB1,               Received: D7   Item Number: 475
%%        6800.0 ns  Log    PASSED  in Testbench: SB1,               Received: 14   Item Number: 476
%%        6800.0 ns  Log    PASSED  in Testbench: SB1,               Received: CA   Item Number: 477
%%        6800.0 ns  Log    PASSED  in Testbench: SB1,               Received: 32   Item Number: 478
%%        6800.0 ns  Log    PASSED  in Testbench: SB1,               Received: 5D   Item Number: 479
%%        6800.0 ns  Log    PASSED  in Testbench: SB1,               Received: 3E   Item Number: 480
%%        6800.0 ns  Log    PASSED  in Testbench: SB1,               Received: 91   Item Number: 481
%%        6800.0 ns  Log    PASSED  in Testbench: SB1,               Received: E1   Item Number: 482
%%        6800.0 ns  Log    PASSED  in Testbench: SB1,               Received: 0F   Item Number: 483
%%        6800.0 ns  Log    PASSED  in Testbench: SB1,               Received: C0   Item Number: 484
%%        6800.0 ns  Log    PASSED  in Testbench: SB1,               Received: 98   Item Number: 485
%%        6800.0 ns  Log    PASSED  in Testbench: SB1,               Received: 63   Item Number: 486
%%        6800.0 ns  Log    PASSED  in Testbench: SB1,               Received: DC   Item Number: 487
%%        6800.0 ns  Log    PASSED  in Testbench: SB1,               Received: 42   Item Number: 488
%%        6800.0 ns  Log    PASSED  in Testbench: SB1,               Received: 98   Item Number: 489
%%        6800.0 ns  Log    PASSED  in Testbench: SB1,               Received: C2   Item Number: 490
%%        6800.0 ns  Log    PASSED  in Testbench: SB1,               Received: CF   Item Number: 491
%%        6800.0 ns  Log    PASSED  in Testbench: SB1,               Received: 17   Item Number: 492
%%        6800.0 ns  Log    PASSED  in Testbench: SB1,               Received: 07   Item Number: 493
%%        6800.0 ns  Log    PASSED  in Testbench: SB1,               Received: 0B   Item Number: 494
%%        6800.0 ns  Log    PASSED  in Testbench: SB1,               Received: 05   Item Number: 495
%%        6800.0 ns  Log    PASSED  in Testbench: SB1,               Received: 52   Item Number: 496
%%        6800.0 ns  Log    PASSED  in Testbench: SB1,               Received: 2C   Item Number: 497
%%        6800.0 ns  Log    PASSED  in Testbench: SB1,               Received: BA   Item Number: 498
%%        6800.0 ns  Log    PASSED  in Testbench: SB1,               Received: C8   Item Number: 499
%%        6800.0 ns  Log    PASSED  in Testbench: SB1,               Received: 11   Item Number: 500
%%        6800.0 ns  Log    PASSED  in Testbench: SB1,               Received: 86   Item Number: 501
%%        6800.0 ns  Log    PASSED  in Testbench: SB1,               Received: 57   Item Number: 502
%%        6800.0 ns  Log    PASSED  in Testbench: SB1,               Received: 39   Item Number: 503
%%        6800.0 ns  Log    PASSED  in Testbench: SB1,               Received: 9A   Item Number: 504
%%        6800.0 ns  Log    PASSED  in Testbench: SB1,               Received: BA   Item Number: 505
%%        6800.0 ns  Log    PASSED  in Testbench: SB1,               Received: 75   Item Number: 506
%%        6800.0 ns  Log    PASSED  in Testbench: SB1,               Received: 3E   Item Number: 507
%%        6800.0 ns  Log    PASSED  in Testbench: SB1,               Received: 9A   Item Number: 508
%%        6800.0 ns  Log    PASSED  in Testbench: SB1,               Received: CA   Item Number: 509
%%        6800.0 ns  Log    PASSED  in Testbench: SB1,               Received: D4   Item Number: 510
%%        6800.0 ns  Log    PASSED  in Testbench: SB1,               Received: 77   Item Number: 511
%%        6800.0 ns  Log    PASSED  in Testbench: SB1,               Received: 13   Item Number: 512
%%        6800.0 ns  Log    PASSED  in Testbench: SB1,               Received: 54   Item Number: 513
%%        6800.0 ns  Log    PASSED  in Testbench: SB1,               Received: D5   Item Number: 514
%%        6800.0 ns  Log    PASSED  in Testbench: SB1,               Received: D6   Item Number: 515
%%        6800.0 ns  Log    PASSED  in Testbench: SB1,               Received: 52   Item Number: 516
%%        6800.0 ns  Log    PASSED  in Testbench: SB1,               Received: 45   Item Number: 517
%%        6800.0 ns  Log    PASSED  in Testbench: SB1,               Received: 4D   Item Number: 518
%%        6800.0 ns  Log    PASSED  in Testbench: SB1,               Received: 88   Item Number: 519
%%        6800.0 ns  Log    PASSED  in Testbench: SB1,               Received: E5   Item Number: 520
%%        6800.0 ns  Log    PASSED  in Testbench: SB1,               Received: 23   Item Number: 521
%%        6800.0 ns  Log    PASSED  in Testbench: SB1,               Received: 84   Item Number: 522
%%        6800.0 ns  Log    PASSED  in Testbench: SB1,               Received: 60   Item Number: 523
%%        6800.0 ns  Log    PASSED  in Testbench: SB1,               Received: 28   Item Number: 524
%%        6800.0 ns  Log    PASSED  in Testbench: SB1,               Received: 3C   Item Number: 525
%%        6800.0 ns  Log    PASSED  in Testbench: SB1,               Received: 32   Item Number: 526
%%        6800.0 ns  Log    PASSED  in Testbench: SB1,               Received: FF   Item Number: 527
%%        6800.0 ns  Log    PASSED  in Testbench: SB1,               Received: 36   Item Number: 528
%%        6800.0 ns  Log    PASSED  in Testbench: SB1,               Received: 15   Item Number: 529
%%        6800.0 ns  Log    PASSED  in Testbench: SB1,               Received: A1   Item Number: 530
%%        6800.0 ns  Log    PASSED  in Testbench: SB1,               Received: 9E   Item Number: 531
%%        6800.0 ns  Log    PASSED  in Testbench: SB1,               Received: CB   Item Number: 532
%%        6800.0 ns  Log    PASSED  in Testbench: SB1,               Received: 56   Item Number: 533
%%        6800.0 ns  Log    PASSED  in Testbench: SB1,               Received: 40   Item Number: 534
%%        6800.0 ns  Log    PASSED  in Testbench: SB1,               Received: 14   Item Number: 535
%%        6800.0 ns  Log    PASSED  in Testbench: SB1,               Received: 5A   Item Number: 536
%%        6800.0 ns  Log    PASSED  in Testbench: SB1,               Received: F3   Item Number: 537
%%        6800.0 ns  Log    PASSED  in Testbench: SB1,               Received: A2   Item Number: 538
%%        6800.0 ns  Log    PASSED  in Testbench: SB1,               Received: CE   Item Number: 539
%%        6800.0 ns  Log    PASSED  in Testbench: SB1,               Received: 12   Item Number: 540
%%        6800.0 ns  Log    PASSED  in Testbench: SB1,               Received: 66   Item Number: 541
%%        6800.0 ns  Log    PASSED  in Testbench: SB1,               Received: DA   Item Number: 542
%%        6800.0 ns  Log    PASSED  in Testbench: SB1,               Received: F3   Item Number: 543
%%        6800.0 ns  Log    PASSED  in Testbench: SB1,               Received: 3F   Item Number: 544
%%        6800.0 ns  Log    PASSED  in Testbench: SB1,               Received: C7   Item Number: 545
%%        6800.0 ns  Log    PASSED  in Testbench: SB1,               Received: BF   Item Number: 546
%%        6800.0 ns  Log    PASSED  in Testbench: SB1,               Received: D2   Item Number: 547
%%        6800.0 ns  Log    PASSED  in Testbench: SB1,               Received: B9   Item Number: 548
%%        6800.0 ns  Log    PASSED  in Testbench: SB1,               Received: 33   Item Number: 549
%%        6800.0 ns  Log    PASSED  in Testbench: SB1,               Received: 44   Item Number: 550
%%        6800.0 ns  Log    PASSED  in Testbench: SB1,               Received: EF   Item Number: 551
%%        6800.0 ns  Log    PASSED  in Testbench: SB1,               Received: FC   Item Number: 552
%%        6800.0 ns  Log    PASSED  in Testbench: SB1,               Received: 40   Item Number: 553
%%        6800.0 ns  Log    PASSED  in Testbench: SB1,               Received: AC   Item Number: 554
%%        6800.0 ns  Log    PASSED  in Testbench: SB1,               Received: B4   Item Number: 555
%%        6800.0 ns  Log    PASSED  in Testbench: SB1,               Received: 29   Item Number: 556
%%        6800.0 ns  Log    PASSED  in Testbench: SB1,               Received: 7B   Item Number: 557
%%        6800.0 ns  Log    PASSED  in Testbench: SB1,               Received: A1   Item Number: 558
%%        6800.0 ns  Log    PASSED  in Testbench: SB1,               Received: 7D   Item Number: 559
%%        6800.0 ns  Log    PASSED  in Testbench: SB1,               Received: 2A   Item Number: 560
%%        6800.0 ns  Log    PASSED  in Testbench: SB1,               Received: 4F   Item Number: 561
%%        6800.0 ns  Log    PASSED  in Testbench: SB1,               Received: C8   Item Number: 562
%%        6800.0 ns  Log    PASSED  in Testbench: SB1,               Received: C6   Item Number: 563
%%        6800.0 ns  Log    PASSED  in Testbench: SB1,               Received: C2   Item Number: 564
%%        6800.0 ns  Log    PASSED  in Testbench: SB1,               Received: F1   Item Number: 565
%%        6800.0 ns  Log    PASSED  in Testbench: SB1,               Received: B2   Item Number: 566
%%        6800.0 ns  Log    PASSED  in Testbench: SB1,               Received: AD   Item Number: 567
%%        6800.0 ns  Log    PASSED  in Testbench: SB1,               Received: 58   Item Number: 568
%%        6800.0 ns  Log    PASSED  in Testbench: SB1,               Received: F9   Item Number: 569
%%        6800.0 ns  Log    PASSED  in Testbench: SB1,               Received: C3   Item Number: 570
%%        6800.0 ns  Log    PASSED  in Testbench: SB1,               Received: B7   Item Number: 571
%%        6800.0 ns  Log    PASSED  in Testbench: SB1,               Received: E2   Item Number: 572
%%        6800.0 ns  Log    PASSED  in Testbench: SB1,               Received: 4F   Item Number: 573
%%        6800.0 ns  Log    PASSED  in Testbench: SB1,               Received: 17   Item Number: 574
%%        6800.0 ns  Log    PASSED  in Testbench: SB1,               Received: E1   Item Number: 575
%%        6800.0 ns  Log    PASSED  in Testbench: SB1,               Received: B1   Item Number: 576
%%        6800.0 ns  Log    PASSED  in Testbench: SB1,               Received: 9C   Item Number: 577
%%        6800.0 ns  Log    PASSED  in Testbench: SB1,               Received: D5   Item Number: 578
%%        6800.0 ns  Log    PASSED  in Testbench: SB1,               Received: 71   Item Number: 579
%%        6800.0 ns  Log    PASSED  in Testbench: SB1,               Received: D6   Item Number: 580
%%        6800.0 ns  Log    PASSED  in Testbench: SB1,               Received: 0B   Item Number: 581
%%        6800.0 ns  Log    PASSED  in Testbench: SB1,               Received: 30   Item Number: 582
%%        6800.0 ns  Log    PASSED  in Testbench: SB1,               Received: 79   Item Number: 583
%%        6800.0 ns  Log    PASSED  in Testbench: SB1,               Received: C9   Item Number: 584
%%        6800.0 ns  Log    PASSED  in Testbench: SB1,               Received: B5   Item Number: 585
%%        6800.0 ns  Log    PASSED  in Testbench: SB1,               Received: 91   Item Number: 586
%%        6800.0 ns  Log    PASSED  in Testbench: SB1,               Received: 8B   Item Number: 587
%%        6800.0 ns  Log    PASSED  in Testbench: SB1,               Received: 17   Item Number: 588
%%        6800.0 ns  Log    PASSED  in Testbench: SB1,               Received: F7   Item Number: 589
%%        6800.0 ns  Log    PASSED  in Testbench: SB1,               Received: 55   Item Number: 590
%%        6800.0 ns  Log    PASSED  in Testbench: SB1,               Received: 61   Item Number: 591
%%        6800.0 ns  Log    PASSED  in Testbench: SB1,               Received: 4E   Item Number: 592
%%        6800.0 ns  Log    PASSED  in Testbench: SB1,               Received: E0   Item Number: 593
%%        6800.0 ns  Log    PASSED  in Testbench: SB1,               Received: 28   Item Number: 594
%%        6800.0 ns  Log    PASSED  in Testbench: SB1,               Received: 84   Item Number: 595
%%        6800.0 ns  Log    PASSED  in Testbench: SB1,               Received: 23   Item Number: 596
%%        6800.0 ns  Log    PASSED  in Testbench: SB1,               Received: CD   Item Number: 597
%%        6800.0 ns  Log    PASSED  in Testbench: SB1,               Received: 27   Item Number: 598
%%        6800.0 ns  Log    PASSED  in Testbench: SB1,               Received: 39   Item Number: 599
%%        6800.0 ns  Log    PASSED  in Testbench: SB1,               Received: B1   Item Number: 600
%%        6800.0 ns  Log    PASSED  in Testbench: SB1,               Received: 31   Item Number: 601
%%        6800.0 ns  Log    PASSED  in Testbench: SB1,               Received: 82   Item Number: 602
%%        6800.0 ns  Log    PASSED  in Testbench: SB1,               Received: 64   Item Number: 603
%%        6800.0 ns  Log    PASSED  in Testbench: SB1,               Received: 16   Item Number: 604
%%        6800.0 ns  Log    PASSED  in Testbench: SB1,               Received: D1   Item Number: 605
%%        6800.0 ns  Log    PASSED  in Testbench: SB1,               Received: 14   Item Number: 606
%%        6800.0 ns  Log    PASSED  in Testbench: SB1,               Received: 6A   Item Number: 607
%%        6800.0 ns  Log    PASSED  in Testbench: SB1,               Received: 22   Item Number: 608
%%        6800.0 ns  Log    PASSED  in Testbench: SB1,               Received: 98   Item Number: 609
%%        6800.0 ns  Log    PASSED  in Testbench: SB1,               Received: 13   Item Number: 610
%%        6800.0 ns  Log    PASSED  in Testbench: SB1,               Received: B8   Item Number: 611
%%        6800.0 ns  Log    PASSED  in Testbench: SB1,               Received: 4C   Item Number: 612
%%        6800.0 ns  Log    PASSED  in Testbench: SB1,               Received: 74   Item Number: 613
%%        6800.0 ns  Log    PASSED  in Testbench: SB1,               Received: 3E   Item Number: 614
%%        6800.0 ns  Log    PASSED  in Testbench: SB1,               Received: 31   Item Number: 615
%%        6800.0 ns  Log    PASSED  in Testbench: SB1,               Received: FF   Item Number: 616
%%        6800.0 ns  Log    PASSED  in Testbench: SB1,               Received: 6A   Item Number: 617
%%        6800.0 ns  Log    INFO    in transmitter_1,                Axi Stream Send.  TData: B3892836  TStrb: 1111  TKeep: 1111  TID: 00  TDest: 0  TUser: 0  TLast: 0  Operation# 156
%%        6810.0 ns  Log    INFO    in transmitter_1,                Axi Stream Send.  TData: 883C8849  TStrb: 1111  TKeep: 1111  TID: 00  TDest: 0  TUser: 0  TLast: 0  Operation# 157
%%        6820.0 ns  Log    INFO    in transmitter_1,                Axi Stream Send.  TData: D6012C05  TStrb: 1111  TKeep: 1111  TID: 00  TDest: 0  TUser: 0  TLast: 0  Operation# 158
%%        6830.0 ns  Log    INFO    in transmitter_1,                Axi Stream Send.  TData: 05AB3701  TStrb: 1111  TKeep: 1111  TID: 00  TDest: 0  TUser: 0  TLast: 0  Operation# 159
%%        6850.0 ns  Log    INFO    in transmitter_1,                Axi Stream Send.  TData: C38340B6  TStrb: 1111  TKeep: 1111  TID: 00  TDest: 0  TUser: 0  TLast: 0  Operation# 160
%%        6860.0 ns  Log    INFO    in transmitter_1,                Axi Stream Send.  TData: 10740888  TStrb: 1111  TKeep: 1111  TID: 00  TDest: 0  TUser: 0  TLast: 0  Operation# 161
%%        6870.0 ns  Log    INFO    in transmitter_1,                Axi Stream Send.  TData: D2D43D21  TStrb: 1111  TKeep: 1111  TID: 00  TDest: 0  TUser: 0  TLast: 0  Operation# 162
%%        6880.0 ns  Log    INFO    in transmitter_1,                Axi Stream Send.  TData: 3DDEA398  TStrb: 1111  TKeep: 1111  TID: 00  TDest: 0  TUser: 0  TLast: 0  Operation# 163
%%        6890.0 ns  Log    INFO    in transmitter_1,                Axi Stream Send.  TData: 75CB90B6  TStrb: 1111  TKeep: 1111  TID: 00  TDest: 0  TUser: 0  TLast: 0  Operation# 164
%%        6960.0 ns  Log    INFO    in transmitter_1,                Axi Stream Send.  TData: A4EC4FF4  TStrb: 1111  TKeep: 1111  TID: 00  TDest: 0  TUser: 0  TLast: 0  Operation# 165
%%        7020.0 ns  Log    INFO    in transmitter_1,                Axi Stream Send.  TData: 101EF7E9  TStrb: 1111  TKeep: 1111  TID: 00  TDest: 0  TUser: 0  TLast: 0  Operation# 166
%%        7030.0 ns  Log    INFO    in transmitter_1,                Axi Stream Send.  TData: 58EA0D05  TStrb: 1111  TKeep: 1111  TID: 00  TDest: 0  TUser: 0  TLast: 0  Operation# 167
%%        7040.0 ns  Log    INFO    in transmitter_1,                Axi Stream Send.  TData: 9FACBB55  TStrb: 1111  TKeep: 1111  TID: 00  TDest: 0  TUser: 0  TLast: 0  Operation# 168
%%        8340.0 ns  Log    INFO    in transmitter_1,                Axi Stream Send.  TData: 4CA9E731  TStrb: 1111  TKeep: 1111  TID: 00  TDest: 0  TUser: 0  TLast: 0  Operation# 169
%%        8360.0 ns  Log    INFO    in transmitter_1,                Axi Stream Send.  TData: 1E4BA340  TStrb: 1111  TKeep: 1111  TID: 00  TDest: 0  TUser: 0  TLast: 0  Operation# 170
%%        8370.0 ns  Log    INFO    in transmitter_1,                Axi Stream Send.  TData: 02BED24C  TStrb: 1111  TKeep: 1111  TID: 00  TDest: 0  TUser: 0  TLast: 0  Operation# 171
%%        8380.0 ns  Log    INFO    in transmitter_1,                Axi Stream Send.  TData: C232DB0B  TStrb: 1111  TKeep: 1111  TID: 00  TDest: 0  TUser: 0  TLast: 0  Operation# 172
%%        8410.0 ns  Log    INFO    in transmitter_1,                Axi Stream Send.  TData: 5FF9E4E7  TStrb: 1111  TKeep: 1111  TID: 00  TDest: 0  TUser: 0  TLast: 0  Operation# 173
%%        8420.0 ns  Log    INFO    in transmitter_1,                Axi Stream Send.  TData: 63724B48  TStrb: 1111  TKeep: 1111  TID: 00  TDest: 0  TUser: 0  TLast: 0  Operation# 174
%%        8430.0 ns  Log    INFO    in transmitter_1,                Axi Stream Send.  TData: 28406E41  TStrb: 1111  TKeep: 1111  TID: 00  TDest: 0  TUser: 0  TLast: 0  Operation# 175
%%        8460.0 ns  Log    INFO    in transmitter_1,                Axi Stream Send.  TData: C23CB686  TStrb: 1111  TKeep: 1111  TID: 00  TDest: 0  TUser: 0  TLast: 0  Operation# 176
%%        8470.0 ns  Log    INFO    in transmitter_1,                Axi Stream Send.  TData: F097CAC3  TStrb: 1111  TKeep: 1111  TID: 00  TDest: 0  TUser: 0  TLast: 0  Operation# 177
%%        8510.0 ns  Log    INFO    in transmitter_1,                Axi Stream Send.  TData: 5F7F575F  TStrb: 1111  TKeep: 1111  TID: 00  TDest: 0  TUser: 0  TLast: 0  Operation# 178
%%        8520.0 ns  Log    INFO    in transmitter_1,                Axi Stream Send.  TData: F557DD1D  TStrb: 1111  TKeep: 1111  TID: 00  TDest: 0  TUser: 0  TLast: 0  Operation# 179
%%        8620.0 ns  Log    INFO    in transmitter_1,                Axi Stream Send.  TData: 86A697B8  TStrb: 1111  TKeep: 1111  TID: 00  TDest: 0  TUser: 0  TLast: 0  Operation# 180
%%        8630.0 ns  Log    INFO    in transmitter_1,                Axi Stream Send.  TData: 58F44501  TStrb: 1111  TKeep: 1111  TID: 00  TDest: 0  TUser: 0  TLast: 0  Operation# 181
%%        8640.0 ns  Log    INFO    in transmitter_1,                Axi Stream Send.  TData: EEAE461B  TStrb: 1111  TKeep: 1111  TID: 00  TDest: 0  TUser: 0  TLast: 0  Operation# 182
%%        8720.0 ns  Log    INFO    in transmitter_1,                Axi Stream Send.  TData: 9FFFB299  TStrb: 1111  TKeep: 1111  TID: 00  TDest: 0  TUser: 0  TLast: 0  Operation# 183
%%        8730.0 ns  Log    INFO    in transmitter_1,                Axi Stream Send.  TData: 2C8BC41E  TStrb: 1111  TKeep: 1111  TID: 00  TDest: 0  TUser: 0  TLast: 0  Operation# 184
%%        8740.0 ns  Log    INFO    in transmitter_1,                Axi Stream Send.  TData: 55157669  TStrb: 1111  TKeep: 1111  TID: 00  TDest: 0  TUser: 0  TLast: 0  Operation# 185
%%        8750.0 ns  Log    INFO    in transmitter_1,                Axi Stream Send.  TData: 757E0530  TStrb: 1111  TKeep: 1111  TID: 00  TDest: 0  TUser: 0  TLast: 0  Operation# 186
%%        8770.0 ns  Log    INFO    in transmitter_1,                Axi Stream Send.  TData: 80C374CA  TStrb: 1111  TKeep: 1111  TID: 00  TDest: 0  TUser: 0  TLast: 0  Operation# 187
%%        8780.0 ns  Log    INFO    in transmitter_1,                Axi Stream Send.  TData: 658C9F85  TStrb: 1111  TKeep: 1111  TID: 00  TDest: 0  TUser: 0  TLast: 0  Operation# 188
%%        8800.0 ns  Log    INFO    in transmitter_1,                Axi Stream Send.  TData: DA9DD1D3  TStrb: 1111  TKeep: 1111  TID: 00  TDest: 0  TUser: 0  TLast: 0  Operation# 189
%%        9930.0 ns  Log    INFO    in transmitter_1,                Axi Stream Send.  TData: 84CDB4C7  TStrb: 1111  TKeep: 1111  TID: 00  TDest: 0  TUser: 0  TLast: 0  Operation# 190
%%        9940.0 ns  Log    INFO    in transmitter_1,                Axi Stream Send.  TData: 5840ACF0  TStrb: 1111  TKeep: 1111  TID: 00  TDest: 0  TUser: 0  TLast: 0  Operation# 191
%%        9950.0 ns  Log    INFO    in transmitter_1,                Axi Stream Send.  TData: F4A3C235  TStrb: 1111  TKeep: 1111  TID: 00  TDest: 0  TUser: 0  TLast: 0  Operation# 192
%%        9960.0 ns  Log    INFO    in transmitter_1,                Axi Stream Send.  TData: A92CCB4C  TStrb: 1111  TKeep: 1111  TID: 00  TDest: 0  TUser: 0  TLast: 0  Operation# 193
%%        9970.0 ns  Log    INFO    in transmitter_1,                Axi Stream Send.  TData: F3164929  TStrb: 1111  TKeep: 1111  TID: 00  TDest: 0  TUser: 0  TLast: 0  Operation# 194
%%        9980.0 ns  Log    INFO    in transmitter_1,                Axi Stream Send.  TData: 037A3F5C  TStrb: 1111  TKeep: 1111  TID: 00  TDest: 0  TUser: 0  TLast: 0  Operation# 195
%%       10060.0 ns  Log    INFO    in transmitter_1,                Axi Stream Send.  TData: C097C848  TStrb: 1111  TKeep: 1111  TID: 00  TDest: 0  TUser: 0  TLast: 0  Operation# 196
%%       10070.0 ns  Log    INFO    in transmitter_1,                Axi Stream Send.  TData: ED3608CC  TStrb: 1111  TKeep: 1111  TID: 00  TDest: 0  TUser: 0  TLast: 0  Operation# 197
%%       10090.0 ns  Log    INFO    in transmitter_1,                Axi Stream Send.  TData: 300C1DEC  TStrb: 1111  TKeep: 1111  TID: 00  TDest: 0  TUser: 0  TLast: 0  Operation# 198
%%       10110.0 ns  Log    INFO    in transmitter_1,                Axi Stream Send.  TData: C8669B28  TStrb: 1111  TKeep: 1111  TID: 00  TDest: 0  TUser: 0  TLast: 0  Operation# 199
