%% Log    ALWAYS    in Default,   Transmit 16 words.  Cover Random at 110 ns
%% Log    INFO      in transmitter_1,   Axi Stream Send.  TData: 00000024  TStrb: 1111  TKeep: 1111  TID: 00  TDest: 0  TUser: 0  TLast: 0  Operation# 1 at 110 ns
%% Log    INFO      in transmitter_1,   Axi Stream Send.  TData: 00000001  TStrb: 1111  TKeep: 1111  TID: 00  TDest: 0  TUser: 0  TLast: 0  Operation# 2 at 120 ns
%% Log    INFO      in transmitter_1,   Axi Stream Send.  TData: 00000020  TStrb: 1111  TKeep: 1111  TID: 00  TDest: 0  TUser: 0  TLast: 0  Operation# 3 at 130 ns
%% Log    INFO      in transmitter_1,   Axi Stream Send.  TData: 00000063  TStrb: 1111  TKeep: 1111  TID: 00  TDest: 0  TUser: 0  TLast: 0  Operation# 4 at 140 ns
%% Log    INFO      in transmitter_1,   Axi Stream Send.  TData: 00000022  TStrb: 1111  TKeep: 1111  TID: 00  TDest: 0  TUser: 0  TLast: 0  Operation# 5 at 150 ns
%% Log    INFO      in transmitter_1,   Axi Stream Send.  TData: 00000021  TStrb: 1111  TKeep: 1111  TID: 00  TDest: 0  TUser: 0  TLast: 0  Operation# 6 at 160 ns
%% Log    INFO      in transmitter_1,   Axi Stream Send.  TData: 00000002  TStrb: 1111  TKeep: 1111  TID: 00  TDest: 0  TUser: 0  TLast: 0  Operation# 7 at 170 ns
%% Log    INFO      in transmitter_1,   Axi Stream Send.  TData: 00000005  TStrb: 1111  TKeep: 1111  TID: 00  TDest: 0  TUser: 0  TLast: 0  Operation# 8 at 180 ns
%% Log    INFO      in transmitter_1,   Axi Stream Send.  TData: 00000046  TStrb: 1111  TKeep: 1111  TID: 00  TDest: 0  TUser: 0  TLast: 0  Operation# 9 at 190 ns
%% Log    INFO      in transmitter_1,   Axi Stream Send.  TData: 00000026  TStrb: 1111  TKeep: 1111  TID: 00  TDest: 0  TUser: 0  TLast: 0  Operation# 10 at 200 ns
%% Log    INFO      in transmitter_1,   Axi Stream Send.  TData: 00000007  TStrb: 1111  TKeep: 1111  TID: 00  TDest: 0  TUser: 0  TLast: 0  Operation# 11 at 210 ns
%% Log    INFO      in transmitter_1,   Axi Stream Send.  TData: 00000041  TStrb: 1111  TKeep: 1111  TID: 00  TDest: 0  TUser: 0  TLast: 0  Operation# 12 at 220 ns
%% Log    INFO      in transmitter_1,   Axi Stream Send.  TData: 00000062  TStrb: 1111  TKeep: 1111  TID: 00  TDest: 0  TUser: 0  TLast: 0  Operation# 13 at 230 ns
%% Log    INFO      in transmitter_1,   Axi Stream Send.  TData: 00000061  TStrb: 1111  TKeep: 1111  TID: 00  TDest: 0  TUser: 0  TLast: 0  Operation# 14 at 240 ns
%% Log    INFO      in transmitter_1,   Axi Stream Send.  TData: 00000027  TStrb: 1111  TKeep: 1111  TID: 00  TDest: 0  TUser: 0  TLast: 0  Operation# 15 at 250 ns
%% Log    INFO      in transmitter_1,   Axi Stream Send.  TData: 00000000  TStrb: 1111  TKeep: 1111  TID: 00  TDest: 0  TUser: 0  TLast: 1  Operation# 16 at 260 ns
%% Log    PASSED    in receiver_1: RxBurstFifo,   Received: 00000024   Item Number: 1 at 270 ns
%% Log    PASSED    in receiver_1: RxBurstFifo,   Received: 00000001   Item Number: 2 at 270 ns
%% Log    PASSED    in receiver_1: RxBurstFifo,   Received: 00000020   Item Number: 3 at 270 ns
%% Log    PASSED    in receiver_1: RxBurstFifo,   Received: 00000063   Item Number: 4 at 270 ns
%% Log    PASSED    in receiver_1: RxBurstFifo,   Received: 00000022   Item Number: 5 at 270 ns
%% Log    PASSED    in receiver_1: RxBurstFifo,   Received: 00000021   Item Number: 6 at 270 ns
%% Log    PASSED    in receiver_1: RxBurstFifo,   Received: 00000002   Item Number: 7 at 270 ns
%% Log    PASSED    in receiver_1: RxBurstFifo,   Received: 00000005   Item Number: 8 at 270 ns
%% Log    PASSED    in receiver_1: RxBurstFifo,   Received: 00000046   Item Number: 9 at 270 ns
%% Log    PASSED    in receiver_1: RxBurstFifo,   Received: 00000026   Item Number: 10 at 270 ns
%% Log    PASSED    in receiver_1: RxBurstFifo,   Received: 00000007   Item Number: 11 at 270 ns
%% Log    PASSED    in receiver_1: RxBurstFifo,   Received: 00000041   Item Number: 12 at 270 ns
%% Log    PASSED    in receiver_1: RxBurstFifo,   Received: 00000062   Item Number: 13 at 270 ns
%% Log    PASSED    in receiver_1: RxBurstFifo,   Received: 00000061   Item Number: 14 at 270 ns
%% Log    PASSED    in receiver_1: RxBurstFifo,   Received: 00000027   Item Number: 15 at 270 ns
%% Log    PASSED    in receiver_1: RxBurstFifo,   Received: 00000000   Item Number: 16 at 270 ns
%% Log    INFO      in receiver_1,   Burst Check.  Operation# 1  Last Data: 00000000  TID: 00  TDest: 0  TUser: 0  TLast: 1 at 270 ns
%% Log    PASSED    in receiver_1,   Burst Check WordCount Received : 16 at 270 ns
%% Log    PASSED    in receiver_1,   ID Received : 00 at 270 ns
%% Log    PASSED    in receiver_1,   DEST Received : 0 at 270 ns
%% Log    PASSED    in receiver_1,   USER Received : 0 at 270 ns
%% Log    PASSED    in receiver_1,   Last Received : 1 at 270 ns
%% Log    ALWAYS    in Default,   Transmit 14 words. at 310 ns
%% Log    INFO      in transmitter_1,   Axi Stream Send.  TData: 00000064  TStrb: 1111  TKeep: 1111  TID: 00  TDest: 0  TUser: 0  TLast: 0  Operation# 17 at 310 ns
%% Log    INFO      in transmitter_1,   Axi Stream Send.  TData: 00000006  TStrb: 1111  TKeep: 1111  TID: 00  TDest: 0  TUser: 0  TLast: 0  Operation# 18 at 320 ns
%% Log    INFO      in transmitter_1,   Axi Stream Send.  TData: 00000023  TStrb: 1111  TKeep: 1111  TID: 00  TDest: 0  TUser: 0  TLast: 0  Operation# 19 at 330 ns
%% Log    INFO      in transmitter_1,   Axi Stream Send.  TData: 00000004  TStrb: 1111  TKeep: 1111  TID: 00  TDest: 0  TUser: 0  TLast: 0  Operation# 20 at 340 ns
%% Log    INFO      in transmitter_1,   Axi Stream Send.  TData: 00000042  TStrb: 1111  TKeep: 1111  TID: 00  TDest: 0  TUser: 0  TLast: 0  Operation# 21 at 350 ns
%% Log    INFO      in transmitter_1,   Axi Stream Send.  TData: 00000047  TStrb: 1111  TKeep: 1111  TID: 00  TDest: 0  TUser: 0  TLast: 0  Operation# 22 at 360 ns
%% Log    INFO      in transmitter_1,   Axi Stream Send.  TData: 00000060  TStrb: 1111  TKeep: 1111  TID: 00  TDest: 0  TUser: 0  TLast: 0  Operation# 23 at 370 ns
%% Log    INFO      in transmitter_1,   Axi Stream Send.  TData: 00000067  TStrb: 1111  TKeep: 1111  TID: 00  TDest: 0  TUser: 0  TLast: 0  Operation# 24 at 380 ns
%% Log    INFO      in transmitter_1,   Axi Stream Send.  TData: 00000065  TStrb: 1111  TKeep: 1111  TID: 00  TDest: 0  TUser: 0  TLast: 0  Operation# 25 at 390 ns
%% Log    INFO      in transmitter_1,   Axi Stream Send.  TData: 00000044  TStrb: 1111  TKeep: 1111  TID: 00  TDest: 0  TUser: 0  TLast: 0  Operation# 26 at 400 ns
%% Log    INFO      in transmitter_1,   Axi Stream Send.  TData: 00000003  TStrb: 1111  TKeep: 1111  TID: 00  TDest: 0  TUser: 0  TLast: 0  Operation# 27 at 410 ns
%% Log    INFO      in transmitter_1,   Axi Stream Send.  TData: 00000045  TStrb: 1111  TKeep: 1111  TID: 00  TDest: 0  TUser: 0  TLast: 0  Operation# 28 at 420 ns
%% Log    INFO      in transmitter_1,   Axi Stream Send.  TData: 00000066  TStrb: 1111  TKeep: 1111  TID: 00  TDest: 0  TUser: 0  TLast: 0  Operation# 29 at 430 ns
%% Log    INFO      in transmitter_1,   Axi Stream Send.  TData: 00000043  TStrb: 1111  TKeep: 1111  TID: 00  TDest: 0  TUser: 0  TLast: 1  Operation# 30 at 440 ns
%% Log    PASSED    in receiver_1: RxBurstFifo,   Received: 00000064   Item Number: 17 at 450 ns
%% Log    PASSED    in receiver_1: RxBurstFifo,   Received: 00000006   Item Number: 18 at 450 ns
%% Log    PASSED    in receiver_1: RxBurstFifo,   Received: 00000023   Item Number: 19 at 450 ns
%% Log    PASSED    in receiver_1: RxBurstFifo,   Received: 00000004   Item Number: 20 at 450 ns
%% Log    PASSED    in receiver_1: RxBurstFifo,   Received: 00000042   Item Number: 21 at 450 ns
%% Log    PASSED    in receiver_1: RxBurstFifo,   Received: 00000047   Item Number: 22 at 450 ns
%% Log    PASSED    in receiver_1: RxBurstFifo,   Received: 00000060   Item Number: 23 at 450 ns
%% Log    PASSED    in receiver_1: RxBurstFifo,   Received: 00000067   Item Number: 24 at 450 ns
%% Log    PASSED    in receiver_1: RxBurstFifo,   Received: 00000065   Item Number: 25 at 450 ns
%% Log    PASSED    in receiver_1: RxBurstFifo,   Received: 00000044   Item Number: 26 at 450 ns
%% Log    PASSED    in receiver_1: RxBurstFifo,   Received: 00000003   Item Number: 27 at 450 ns
%% Log    PASSED    in receiver_1: RxBurstFifo,   Received: 00000045   Item Number: 28 at 450 ns
%% Log    PASSED    in receiver_1: RxBurstFifo,   Received: 00000066   Item Number: 29 at 450 ns
%% Log    PASSED    in receiver_1: RxBurstFifo,   Received: 00000043   Item Number: 30 at 450 ns
%% Log    INFO      in receiver_1,   Burst Check.  Operation# 2  Last Data: 00000043  TID: 00  TDest: 0  TUser: 0  TLast: 1 at 450 ns
%% Log    PASSED    in receiver_1,   Burst Check WordCount Received : 14 at 450 ns
%% Log    PASSED    in receiver_1,   ID Received : 00 at 450 ns
%% Log    PASSED    in receiver_1,   DEST Received : 0 at 450 ns
%% Log    PASSED    in receiver_1,   USER Received : 0 at 450 ns
%% Log    PASSED    in receiver_1,   Last Received : 1 at 450 ns
%% Log    ALWAYS    in Default,   Transmit 17 words. at 450 ns
%% Log    INFO      in transmitter_1,   Axi Stream Send.  TData: 00000025  TStrb: 1111  TKeep: 1111  TID: 00  TDest: 0  TUser: 0  TLast: 0  Operation# 31 at 450 ns
%% Log    INFO      in transmitter_1,   Axi Stream Send.  TData: 00000040  TStrb: 1111  TKeep: 1111  TID: 00  TDest: 0  TUser: 0  TLast: 0  Operation# 32 at 460 ns
%% Log    INFO      in transmitter_1,   Axi Stream Send.  TData: 00000023  TStrb: 1111  TKeep: 1111  TID: 00  TDest: 0  TUser: 0  TLast: 0  Operation# 33 at 470 ns
%% Log    INFO      in transmitter_1,   Axi Stream Send.  TData: 00000067  TStrb: 1111  TKeep: 1111  TID: 00  TDest: 0  TUser: 0  TLast: 0  Operation# 34 at 480 ns
%% Log    INFO      in transmitter_1,   Axi Stream Send.  TData: 00000020  TStrb: 1111  TKeep: 1111  TID: 00  TDest: 0  TUser: 0  TLast: 0  Operation# 35 at 490 ns
%% Log    INFO      in transmitter_1,   Axi Stream Send.  TData: 00000045  TStrb: 1111  TKeep: 1111  TID: 00  TDest: 0  TUser: 0  TLast: 0  Operation# 36 at 500 ns
%% Log    INFO      in transmitter_1,   Axi Stream Send.  TData: 00000045  TStrb: 1111  TKeep: 1111  TID: 00  TDest: 0  TUser: 0  TLast: 0  Operation# 37 at 510 ns
%% Log    INFO      in transmitter_1,   Axi Stream Send.  TData: 00000020  TStrb: 1111  TKeep: 1111  TID: 00  TDest: 0  TUser: 0  TLast: 0  Operation# 38 at 520 ns
%% Log    INFO      in transmitter_1,   Axi Stream Send.  TData: 00000027  TStrb: 1111  TKeep: 1111  TID: 00  TDest: 0  TUser: 0  TLast: 0  Operation# 39 at 530 ns
%% Log    INFO      in transmitter_1,   Axi Stream Send.  TData: 00000045  TStrb: 1111  TKeep: 1111  TID: 00  TDest: 0  TUser: 0  TLast: 0  Operation# 40 at 540 ns
%% Log    INFO      in transmitter_1,   Axi Stream Send.  TData: 00000046  TStrb: 1111  TKeep: 1111  TID: 00  TDest: 0  TUser: 0  TLast: 0  Operation# 41 at 550 ns
%% Log    INFO      in transmitter_1,   Axi Stream Send.  TData: 00000022  TStrb: 1111  TKeep: 1111  TID: 00  TDest: 0  TUser: 0  TLast: 0  Operation# 42 at 560 ns
%% Log    INFO      in transmitter_1,   Axi Stream Send.  TData: 00000020  TStrb: 1111  TKeep: 1111  TID: 00  TDest: 0  TUser: 0  TLast: 0  Operation# 43 at 570 ns
%% Log    INFO      in transmitter_1,   Axi Stream Send.  TData: 00000060  TStrb: 1111  TKeep: 1111  TID: 00  TDest: 0  TUser: 0  TLast: 0  Operation# 44 at 580 ns
%% Log    INFO      in transmitter_1,   Axi Stream Send.  TData: 00000003  TStrb: 1111  TKeep: 1111  TID: 00  TDest: 0  TUser: 0  TLast: 0  Operation# 45 at 590 ns
%% Log    INFO      in transmitter_1,   Axi Stream Send.  TData: 00000063  TStrb: 1111  TKeep: 1111  TID: 00  TDest: 0  TUser: 0  TLast: 0  Operation# 46 at 600 ns
%% Log    INFO      in transmitter_1,   Axi Stream Send.  TData: 00000047  TStrb: 1111  TKeep: 1111  TID: 00  TDest: 0  TUser: 0  TLast: 1  Operation# 47 at 610 ns
%% Log    PASSED    in receiver_1: RxBurstFifo,   Received: 00000025   Item Number: 31 at 620 ns
%% Log    PASSED    in receiver_1: RxBurstFifo,   Received: 00000040   Item Number: 32 at 620 ns
%% Log    PASSED    in receiver_1: RxBurstFifo,   Received: 00000023   Item Number: 33 at 620 ns
%% Log    PASSED    in receiver_1: RxBurstFifo,   Received: 00000067   Item Number: 34 at 620 ns
%% Log    PASSED    in receiver_1: RxBurstFifo,   Received: 00000020   Item Number: 35 at 620 ns
%% Log    PASSED    in receiver_1: RxBurstFifo,   Received: 00000045   Item Number: 36 at 620 ns
%% Log    PASSED    in receiver_1: RxBurstFifo,   Received: 00000045   Item Number: 37 at 620 ns
%% Log    PASSED    in receiver_1: RxBurstFifo,   Received: 00000020   Item Number: 38 at 620 ns
%% Log    PASSED    in receiver_1: RxBurstFifo,   Received: 00000027   Item Number: 39 at 620 ns
%% Log    PASSED    in receiver_1: RxBurstFifo,   Received: 00000045   Item Number: 40 at 620 ns
%% Log    PASSED    in receiver_1: RxBurstFifo,   Received: 00000046   Item Number: 41 at 620 ns
%% Log    PASSED    in receiver_1: RxBurstFifo,   Received: 00000022   Item Number: 42 at 620 ns
%% Log    PASSED    in receiver_1: RxBurstFifo,   Received: 00000020   Item Number: 43 at 620 ns
%% Log    PASSED    in receiver_1: RxBurstFifo,   Received: 00000060   Item Number: 44 at 620 ns
%% Log    PASSED    in receiver_1: RxBurstFifo,   Received: 00000003   Item Number: 45 at 620 ns
%% Log    PASSED    in receiver_1: RxBurstFifo,   Received: 00000063   Item Number: 46 at 620 ns
%% Log    PASSED    in receiver_1: RxBurstFifo,   Received: 00000047   Item Number: 47 at 620 ns
%% Log    INFO      in receiver_1,   Burst Check.  Operation# 3  Last Data: 00000047  TID: 00  TDest: 0  TUser: 0  TLast: 1 at 620 ns
%% Log    PASSED    in receiver_1,   Burst Check WordCount Received : 17 at 620 ns
%% Log    PASSED    in receiver_1,   ID Received : 00 at 620 ns
%% Log    PASSED    in receiver_1,   DEST Received : 0 at 620 ns
%% Log    PASSED    in receiver_1,   USER Received : 0 at 620 ns
%% Log    PASSED    in receiver_1,   Last Received : 1 at 620 ns
%% Log    ALWAYS    in Default,   Transmit 13 words. at 690 ns
%% Log    INFO      in transmitter_1,   Axi Stream Send.  TData: 00000024  TStrb: 1111  TKeep: 1111  TID: 00  TDest: 0  TUser: 0  TLast: 0  Operation# 48 at 690 ns
%% Log    INFO      in transmitter_1,   Axi Stream Send.  TData: 00000062  TStrb: 1111  TKeep: 1111  TID: 00  TDest: 0  TUser: 0  TLast: 0  Operation# 49 at 700 ns
%% Log    INFO      in transmitter_1,   Axi Stream Send.  TData: 00000004  TStrb: 1111  TKeep: 1111  TID: 00  TDest: 0  TUser: 0  TLast: 0  Operation# 50 at 710 ns
%% Log    INFO      in transmitter_1,   Axi Stream Send.  TData: 00000024  TStrb: 1111  TKeep: 1111  TID: 00  TDest: 0  TUser: 0  TLast: 0  Operation# 51 at 720 ns
%% Log    INFO      in transmitter_1,   Axi Stream Send.  TData: 00000045  TStrb: 1111  TKeep: 1111  TID: 00  TDest: 0  TUser: 0  TLast: 0  Operation# 52 at 730 ns
%% Log    INFO      in transmitter_1,   Axi Stream Send.  TData: 00000020  TStrb: 1111  TKeep: 1111  TID: 00  TDest: 0  TUser: 0  TLast: 0  Operation# 53 at 740 ns
%% Log    INFO      in transmitter_1,   Axi Stream Send.  TData: 00000041  TStrb: 1111  TKeep: 1111  TID: 00  TDest: 0  TUser: 0  TLast: 0  Operation# 54 at 750 ns
%% Log    INFO      in transmitter_1,   Axi Stream Send.  TData: 00000003  TStrb: 1111  TKeep: 1111  TID: 00  TDest: 0  TUser: 0  TLast: 0  Operation# 55 at 760 ns
%% Log    INFO      in transmitter_1,   Axi Stream Send.  TData: 00000004  TStrb: 1111  TKeep: 1111  TID: 00  TDest: 0  TUser: 0  TLast: 0  Operation# 56 at 770 ns
%% Log    INFO      in transmitter_1,   Axi Stream Send.  TData: 00000045  TStrb: 1111  TKeep: 1111  TID: 00  TDest: 0  TUser: 0  TLast: 0  Operation# 57 at 780 ns
%% Log    INFO      in transmitter_1,   Axi Stream Send.  TData: 00000047  TStrb: 1111  TKeep: 1111  TID: 00  TDest: 0  TUser: 0  TLast: 0  Operation# 58 at 790 ns
%% Log    INFO      in transmitter_1,   Axi Stream Send.  TData: 00000062  TStrb: 1111  TKeep: 1111  TID: 00  TDest: 0  TUser: 0  TLast: 0  Operation# 59 at 800 ns
%% Log    INFO      in transmitter_1,   Axi Stream Send.  TData: 00000042  TStrb: 1111  TKeep: 1111  TID: 00  TDest: 0  TUser: 0  TLast: 1  Operation# 60 at 810 ns
%% Log    PASSED    in receiver_1: RxBurstFifo,   Received: 00000024   Item Number: 48 at 820 ns
%% Log    PASSED    in receiver_1: RxBurstFifo,   Received: 00000062   Item Number: 49 at 820 ns
%% Log    PASSED    in receiver_1: RxBurstFifo,   Received: 00000004   Item Number: 50 at 820 ns
%% Log    PASSED    in receiver_1: RxBurstFifo,   Received: 00000024   Item Number: 51 at 820 ns
%% Log    PASSED    in receiver_1: RxBurstFifo,   Received: 00000045   Item Number: 52 at 820 ns
%% Log    PASSED    in receiver_1: RxBurstFifo,   Received: 00000020   Item Number: 53 at 820 ns
%% Log    PASSED    in receiver_1: RxBurstFifo,   Received: 00000041   Item Number: 54 at 820 ns
%% Log    PASSED    in receiver_1: RxBurstFifo,   Received: 00000003   Item Number: 55 at 820 ns
%% Log    PASSED    in receiver_1: RxBurstFifo,   Received: 00000004   Item Number: 56 at 820 ns
%% Log    PASSED    in receiver_1: RxBurstFifo,   Received: 00000045   Item Number: 57 at 820 ns
%% Log    PASSED    in receiver_1: RxBurstFifo,   Received: 00000047   Item Number: 58 at 820 ns
%% Log    PASSED    in receiver_1: RxBurstFifo,   Received: 00000062   Item Number: 59 at 820 ns
%% Log    PASSED    in receiver_1: RxBurstFifo,   Received: 00000042   Item Number: 60 at 820 ns
%% Log    INFO      in receiver_1,   Burst Check.  Operation# 4  Last Data: 00000042  TID: 00  TDest: 0  TUser: 0  TLast: 1 at 820 ns
%% Log    PASSED    in receiver_1,   Burst Check WordCount Received : 13 at 820 ns
%% Log    PASSED    in receiver_1,   ID Received : 00 at 820 ns
%% Log    PASSED    in receiver_1,   DEST Received : 0 at 820 ns
%% Log    PASSED    in receiver_1,   USER Received : 0 at 820 ns
%% Log    PASSED    in receiver_1,   Last Received : 1 at 820 ns
