%%    110 ns    Log    ALWAYS    in Default,                      Transmit 32 Bytes -- word aligned
%%    110 ns    Log    INFO      in transmitter_1,                Axi Stream Send.  TData: 06050403  TStrb: 1111  TKeep: 1111  TID: 00  TDest: 0  TUser: 0  TLast: 0  Operation# 1
%%    120 ns    Log    INFO      in transmitter_1,                Axi Stream Send.  TData: 0A090807  TStrb: 1111  TKeep: 1111  TID: 00  TDest: 0  TUser: 0  TLast: 0  Operation# 2
%%    130 ns    Log    INFO      in transmitter_1,                Axi Stream Send.  TData: 0E0D0C0B  TStrb: 1111  TKeep: 1111  TID: 00  TDest: 0  TUser: 0  TLast: 0  Operation# 3
%%    140 ns    Log    INFO      in transmitter_1,                Axi Stream Send.  TData: 1211100F  TStrb: 1111  TKeep: 1111  TID: 00  TDest: 0  TUser: 0  TLast: 0  Operation# 4
%%    150 ns    Log    INFO      in transmitter_1,                Axi Stream Send.  TData: 16151413  TStrb: 1111  TKeep: 1111  TID: 00  TDest: 0  TUser: 0  TLast: 0  Operation# 5
%%    160 ns    Log    INFO      in transmitter_1,                Axi Stream Send.  TData: 1A191817  TStrb: 1111  TKeep: 1111  TID: 00  TDest: 0  TUser: 0  TLast: 0  Operation# 6
%%    170 ns    Log    INFO      in transmitter_1,                Axi Stream Send.  TData: 1E1D1C1B  TStrb: 1111  TKeep: 1111  TID: 00  TDest: 0  TUser: 0  TLast: 0  Operation# 7
%%    180 ns    Log    INFO      in transmitter_1,                Axi Stream Send.  TData: 2221201F  TStrb: 1111  TKeep: 1111  TID: 00  TDest: 0  TUser: 0  TLast: 1  Operation# 8
%%    190 ns    Log    PASSED    in receiver_1: RxBurstFifo,      Received: 03   Item Number: 1
%%    190 ns    Log    PASSED    in receiver_1: RxBurstFifo,      Received: 04   Item Number: 2
%%    190 ns    Log    PASSED    in receiver_1: RxBurstFifo,      Received: 05   Item Number: 3
%%    190 ns    Log    PASSED    in receiver_1: RxBurstFifo,      Received: 06   Item Number: 4
%%    190 ns    Log    PASSED    in receiver_1: RxBurstFifo,      Received: 07   Item Number: 5
%%    190 ns    Log    PASSED    in receiver_1: RxBurstFifo,      Received: 08   Item Number: 6
%%    190 ns    Log    PASSED    in receiver_1: RxBurstFifo,      Received: 09   Item Number: 7
%%    190 ns    Log    PASSED    in receiver_1: RxBurstFifo,      Received: 0A   Item Number: 8
%%    190 ns    Log    PASSED    in receiver_1: RxBurstFifo,      Received: 0B   Item Number: 9
%%    190 ns    Log    PASSED    in receiver_1: RxBurstFifo,      Received: 0C   Item Number: 10
%%    190 ns    Log    PASSED    in receiver_1: RxBurstFifo,      Received: 0D   Item Number: 11
%%    190 ns    Log    PASSED    in receiver_1: RxBurstFifo,      Received: 0E   Item Number: 12
%%    190 ns    Log    PASSED    in receiver_1: RxBurstFifo,      Received: 0F   Item Number: 13
%%    190 ns    Log    PASSED    in receiver_1: RxBurstFifo,      Received: 10   Item Number: 14
%%    190 ns    Log    PASSED    in receiver_1: RxBurstFifo,      Received: 11   Item Number: 15
%%    190 ns    Log    PASSED    in receiver_1: RxBurstFifo,      Received: 12   Item Number: 16
%%    190 ns    Log    PASSED    in receiver_1: RxBurstFifo,      Received: 13   Item Number: 17
%%    190 ns    Log    PASSED    in receiver_1: RxBurstFifo,      Received: 14   Item Number: 18
%%    190 ns    Log    PASSED    in receiver_1: RxBurstFifo,      Received: 15   Item Number: 19
%%    190 ns    Log    PASSED    in receiver_1: RxBurstFifo,      Received: 16   Item Number: 20
%%    190 ns    Log    PASSED    in receiver_1: RxBurstFifo,      Received: 17   Item Number: 21
%%    190 ns    Log    PASSED    in receiver_1: RxBurstFifo,      Received: 18   Item Number: 22
%%    190 ns    Log    PASSED    in receiver_1: RxBurstFifo,      Received: 19   Item Number: 23
%%    190 ns    Log    PASSED    in receiver_1: RxBurstFifo,      Received: 1A   Item Number: 24
%%    190 ns    Log    PASSED    in receiver_1: RxBurstFifo,      Received: 1B   Item Number: 25
%%    190 ns    Log    PASSED    in receiver_1: RxBurstFifo,      Received: 1C   Item Number: 26
%%    190 ns    Log    PASSED    in receiver_1: RxBurstFifo,      Received: 1D   Item Number: 27
%%    190 ns    Log    PASSED    in receiver_1: RxBurstFifo,      Received: 1E   Item Number: 28
%%    190 ns    Log    PASSED    in receiver_1: RxBurstFifo,      Received: 1F   Item Number: 29
%%    190 ns    Log    PASSED    in receiver_1: RxBurstFifo,      Received: 20   Item Number: 30
%%    190 ns    Log    PASSED    in receiver_1: RxBurstFifo,      Received: 21   Item Number: 31
%%    190 ns    Log    PASSED    in receiver_1: RxBurstFifo,      Received: 22   Item Number: 32
%%    190 ns    Log    INFO      in receiver_1,                   Burst Check.  Operation# 1  Last Data: 2221201F  TID: 00  TDest: 0  TUser: 0  TLast: 1
%%    190 ns    Log    PASSED    in receiver_1,                   Burst Check WordCount Received : 32
%%    190 ns    Log    PASSED    in receiver_1,                   ID Received : 00
%%    190 ns    Log    PASSED    in receiver_1,                   DEST Received : 0
%%    190 ns    Log    PASSED    in receiver_1,                   USER Received : 0
%%    190 ns    Log    PASSED    in receiver_1,                   Last Received : 1
%%    230 ns    Log    ALWAYS    in Default,                      Transmit 30 Bytes -- unaligned
%%    230 ns    Log    INFO      in transmitter_1,                Axi Stream Send.  TData: 07050301  TStrb: 1111  TKeep: 1111  TID: 00  TDest: 0  TUser: 0  TLast: 0  Operation# 9
%%    240 ns    Log    INFO      in transmitter_1,                Axi Stream Send.  TData: 0F0D0B09  TStrb: 1111  TKeep: 1111  TID: 00  TDest: 0  TUser: 0  TLast: 0  Operation# 10
%%    250 ns    Log    INFO      in transmitter_1,                Axi Stream Send.  TData: 17151311  TStrb: 1111  TKeep: 1111  TID: 00  TDest: 0  TUser: 0  TLast: 0  Operation# 11
%%    260 ns    Log    INFO      in transmitter_1,                Axi Stream Send.  TData: 1F1D1B19  TStrb: 1111  TKeep: 1111  TID: 00  TDest: 0  TUser: 0  TLast: 0  Operation# 12
%%    270 ns    Log    INFO      in transmitter_1,                Axi Stream Send.  TData: 27252321  TStrb: 1111  TKeep: 1111  TID: 00  TDest: 0  TUser: 0  TLast: 0  Operation# 13
%%    280 ns    Log    INFO      in transmitter_1,                Axi Stream Send.  TData: 2F2D2B29  TStrb: 1111  TKeep: 1111  TID: 00  TDest: 0  TUser: 0  TLast: 0  Operation# 14
%%    290 ns    Log    INFO      in transmitter_1,                Axi Stream Send.  TData: 37353331  TStrb: 1111  TKeep: 1111  TID: 00  TDest: 0  TUser: 0  TLast: 0  Operation# 15
%%    300 ns    Log    INFO      in transmitter_1,                Axi Stream Send.  TData: XXXX3B39  TStrb: 0011  TKeep: 0011  TID: 00  TDest: 0  TUser: 0  TLast: 1  Operation# 16
%%    310 ns    Log    PASSED    in receiver_1: RxBurstFifo,      Received: 01   Item Number: 33
%%    310 ns    Log    PASSED    in receiver_1: RxBurstFifo,      Received: 03   Item Number: 34
%%    310 ns    Log    PASSED    in receiver_1: RxBurstFifo,      Received: 05   Item Number: 35
%%    310 ns    Log    PASSED    in receiver_1: RxBurstFifo,      Received: 07   Item Number: 36
%%    310 ns    Log    PASSED    in receiver_1: RxBurstFifo,      Received: 09   Item Number: 37
%%    310 ns    Log    PASSED    in receiver_1: RxBurstFifo,      Received: 0B   Item Number: 38
%%    310 ns    Log    PASSED    in receiver_1: RxBurstFifo,      Received: 0D   Item Number: 39
%%    310 ns    Log    PASSED    in receiver_1: RxBurstFifo,      Received: 0F   Item Number: 40
%%    310 ns    Log    PASSED    in receiver_1: RxBurstFifo,      Received: 11   Item Number: 41
%%    310 ns    Log    PASSED    in receiver_1: RxBurstFifo,      Received: 13   Item Number: 42
%%    310 ns    Log    PASSED    in receiver_1: RxBurstFifo,      Received: 15   Item Number: 43
%%    310 ns    Log    PASSED    in receiver_1: RxBurstFifo,      Received: 17   Item Number: 44
%%    310 ns    Log    PASSED    in receiver_1: RxBurstFifo,      Received: 19   Item Number: 45
%%    310 ns    Log    PASSED    in receiver_1: RxBurstFifo,      Received: 1B   Item Number: 46
%%    310 ns    Log    PASSED    in receiver_1: RxBurstFifo,      Received: 1D   Item Number: 47
%%    310 ns    Log    PASSED    in receiver_1: RxBurstFifo,      Received: 1F   Item Number: 48
%%    310 ns    Log    PASSED    in receiver_1: RxBurstFifo,      Received: 21   Item Number: 49
%%    310 ns    Log    PASSED    in receiver_1: RxBurstFifo,      Received: 23   Item Number: 50
%%    310 ns    Log    PASSED    in receiver_1: RxBurstFifo,      Received: 25   Item Number: 51
%%    310 ns    Log    PASSED    in receiver_1: RxBurstFifo,      Received: 27   Item Number: 52
%%    310 ns    Log    PASSED    in receiver_1: RxBurstFifo,      Received: 29   Item Number: 53
%%    310 ns    Log    PASSED    in receiver_1: RxBurstFifo,      Received: 2B   Item Number: 54
%%    310 ns    Log    PASSED    in receiver_1: RxBurstFifo,      Received: 2D   Item Number: 55
%%    310 ns    Log    PASSED    in receiver_1: RxBurstFifo,      Received: 2F   Item Number: 56
%%    310 ns    Log    PASSED    in receiver_1: RxBurstFifo,      Received: 31   Item Number: 57
%%    310 ns    Log    PASSED    in receiver_1: RxBurstFifo,      Received: 33   Item Number: 58
%%    310 ns    Log    PASSED    in receiver_1: RxBurstFifo,      Received: 35   Item Number: 59
%%    310 ns    Log    PASSED    in receiver_1: RxBurstFifo,      Received: 37   Item Number: 60
%%    310 ns    Log    PASSED    in receiver_1: RxBurstFifo,      Received: 39   Item Number: 61
%%    310 ns    Log    PASSED    in receiver_1: RxBurstFifo,      Received: 3B   Item Number: 62
%%    310 ns    Log    INFO      in receiver_1,                   Burst Check.  Operation# 2  Last Data: ----3B39  TID: 00  TDest: 0  TUser: 0  TLast: 1
%%    310 ns    Log    PASSED    in receiver_1,                   Burst Check WordCount Received : 30
%%    310 ns    Log    PASSED    in receiver_1,                   ID Received : 00
%%    310 ns    Log    PASSED    in receiver_1,                   DEST Received : 0
%%    310 ns    Log    PASSED    in receiver_1,                   USER Received : 0
%%    310 ns    Log    PASSED    in receiver_1,                   Last Received : 1
%%    350 ns    Log    ALWAYS    in Default,                      Transmit 34 Bytes -- unaligned
%%    350 ns    Log    INFO      in transmitter_1,                Axi Stream Send.  TData: 57BDD207  TStrb: 1111  TKeep: 1111  TID: 00  TDest: 0  TUser: 0  TLast: 0  Operation# 17
%%    360 ns    Log    INFO      in transmitter_1,                Axi Stream Send.  TData: 5B6D6975  TStrb: 1111  TKeep: 1111  TID: 00  TDest: 0  TUser: 0  TLast: 0  Operation# 18
%%    370 ns    Log    INFO      in transmitter_1,                Axi Stream Send.  TData: 6E1B638E  TStrb: 1111  TKeep: 1111  TID: 00  TDest: 0  TUser: 0  TLast: 0  Operation# 19
%%    380 ns    Log    INFO      in transmitter_1,                Axi Stream Send.  TData: 2CA095D2  TStrb: 1111  TKeep: 1111  TID: 00  TDest: 0  TUser: 0  TLast: 0  Operation# 20
%%    390 ns    Log    INFO      in transmitter_1,                Axi Stream Send.  TData: EDF859E6  TStrb: 1111  TKeep: 1111  TID: 00  TDest: 0  TUser: 0  TLast: 0  Operation# 21
%%    400 ns    Log    INFO      in transmitter_1,                Axi Stream Send.  TData: DCAC003D  TStrb: 1111  TKeep: 1111  TID: 00  TDest: 0  TUser: 0  TLast: 0  Operation# 22
%%    410 ns    Log    INFO      in transmitter_1,                Axi Stream Send.  TData: 9ADE4F00  TStrb: 1111  TKeep: 1111  TID: 00  TDest: 0  TUser: 0  TLast: 0  Operation# 23
%%    420 ns    Log    INFO      in transmitter_1,                Axi Stream Send.  TData: 6BE49940  TStrb: 1111  TKeep: 1111  TID: 00  TDest: 0  TUser: 0  TLast: 0  Operation# 24
%%    430 ns    Log    INFO      in transmitter_1,                Axi Stream Send.  TData: XXXXC990  TStrb: 0011  TKeep: 0011  TID: 00  TDest: 0  TUser: 0  TLast: 1  Operation# 25
%%    440 ns    Log    PASSED    in receiver_1: RxBurstFifo,      Received: 07   Item Number: 63
%%    440 ns    Log    PASSED    in receiver_1: RxBurstFifo,      Received: D2   Item Number: 64
%%    440 ns    Log    PASSED    in receiver_1: RxBurstFifo,      Received: BD   Item Number: 65
%%    440 ns    Log    PASSED    in receiver_1: RxBurstFifo,      Received: 57   Item Number: 66
%%    440 ns    Log    PASSED    in receiver_1: RxBurstFifo,      Received: 75   Item Number: 67
%%    440 ns    Log    PASSED    in receiver_1: RxBurstFifo,      Received: 69   Item Number: 68
%%    440 ns    Log    PASSED    in receiver_1: RxBurstFifo,      Received: 6D   Item Number: 69
%%    440 ns    Log    PASSED    in receiver_1: RxBurstFifo,      Received: 5B   Item Number: 70
%%    440 ns    Log    PASSED    in receiver_1: RxBurstFifo,      Received: 8E   Item Number: 71
%%    440 ns    Log    PASSED    in receiver_1: RxBurstFifo,      Received: 63   Item Number: 72
%%    440 ns    Log    PASSED    in receiver_1: RxBurstFifo,      Received: 1B   Item Number: 73
%%    440 ns    Log    PASSED    in receiver_1: RxBurstFifo,      Received: 6E   Item Number: 74
%%    440 ns    Log    PASSED    in receiver_1: RxBurstFifo,      Received: D2   Item Number: 75
%%    440 ns    Log    PASSED    in receiver_1: RxBurstFifo,      Received: 95   Item Number: 76
%%    440 ns    Log    PASSED    in receiver_1: RxBurstFifo,      Received: A0   Item Number: 77
%%    440 ns    Log    PASSED    in receiver_1: RxBurstFifo,      Received: 2C   Item Number: 78
%%    440 ns    Log    PASSED    in receiver_1: RxBurstFifo,      Received: E6   Item Number: 79
%%    440 ns    Log    PASSED    in receiver_1: RxBurstFifo,      Received: 59   Item Number: 80
%%    440 ns    Log    PASSED    in receiver_1: RxBurstFifo,      Received: F8   Item Number: 81
%%    440 ns    Log    PASSED    in receiver_1: RxBurstFifo,      Received: ED   Item Number: 82
%%    440 ns    Log    PASSED    in receiver_1: RxBurstFifo,      Received: 3D   Item Number: 83
%%    440 ns    Log    PASSED    in receiver_1: RxBurstFifo,      Received: 00   Item Number: 84
%%    440 ns    Log    PASSED    in receiver_1: RxBurstFifo,      Received: AC   Item Number: 85
%%    440 ns    Log    PASSED    in receiver_1: RxBurstFifo,      Received: DC   Item Number: 86
%%    440 ns    Log    PASSED    in receiver_1: RxBurstFifo,      Received: 00   Item Number: 87
%%    440 ns    Log    PASSED    in receiver_1: RxBurstFifo,      Received: 4F   Item Number: 88
%%    440 ns    Log    PASSED    in receiver_1: RxBurstFifo,      Received: DE   Item Number: 89
%%    440 ns    Log    PASSED    in receiver_1: RxBurstFifo,      Received: 9A   Item Number: 90
%%    440 ns    Log    PASSED    in receiver_1: RxBurstFifo,      Received: 40   Item Number: 91
%%    440 ns    Log    PASSED    in receiver_1: RxBurstFifo,      Received: 99   Item Number: 92
%%    440 ns    Log    PASSED    in receiver_1: RxBurstFifo,      Received: E4   Item Number: 93
%%    440 ns    Log    PASSED    in receiver_1: RxBurstFifo,      Received: 6B   Item Number: 94
%%    440 ns    Log    PASSED    in receiver_1: RxBurstFifo,      Received: 90   Item Number: 95
%%    440 ns    Log    PASSED    in receiver_1: RxBurstFifo,      Received: C9   Item Number: 96
%%    440 ns    Log    INFO      in receiver_1,                   Burst Check.  Operation# 3  Last Data: ----C990  TID: 00  TDest: 0  TUser: 0  TLast: 1
%%    440 ns    Log    PASSED    in receiver_1,                   Burst Check WordCount Received : 34
%%    440 ns    Log    PASSED    in receiver_1,                   ID Received : 00
%%    440 ns    Log    PASSED    in receiver_1,                   DEST Received : 0
%%    440 ns    Log    PASSED    in receiver_1,                   USER Received : 0
%%    440 ns    Log    PASSED    in receiver_1,                   Last Received : 1
%%    440 ns    Log    ALWAYS    in Default,                      Transmit 32 Bytes. Starting with 0
%%    440 ns    Log    INFO      in transmitter_1,                Axi Stream Send.  TData: 03020100  TStrb: 1111  TKeep: 1111  TID: 00  TDest: 0  TUser: 0  TLast: 0  Operation# 26
%%    450 ns    Log    INFO      in transmitter_1,                Axi Stream Send.  TData: 07060504  TStrb: 1111  TKeep: 1111  TID: 00  TDest: 0  TUser: 0  TLast: 0  Operation# 27
%%    460 ns    Log    INFO      in transmitter_1,                Axi Stream Send.  TData: 0B0A0908  TStrb: 1111  TKeep: 1111  TID: 00  TDest: 0  TUser: 0  TLast: 0  Operation# 28
%%    470 ns    Log    INFO      in transmitter_1,                Axi Stream Send.  TData: 0F0E0D0C  TStrb: 1111  TKeep: 1111  TID: 00  TDest: 0  TUser: 0  TLast: 0  Operation# 29
%%    480 ns    Log    INFO      in transmitter_1,                Axi Stream Send.  TData: 13121110  TStrb: 1111  TKeep: 1111  TID: 00  TDest: 0  TUser: 0  TLast: 0  Operation# 30
%%    490 ns    Log    INFO      in transmitter_1,                Axi Stream Send.  TData: 17161514  TStrb: 1111  TKeep: 1111  TID: 00  TDest: 0  TUser: 0  TLast: 0  Operation# 31
%%    500 ns    Log    INFO      in transmitter_1,                Axi Stream Send.  TData: 1B1A1918  TStrb: 1111  TKeep: 1111  TID: 00  TDest: 0  TUser: 0  TLast: 0  Operation# 32
%%    510 ns    Log    INFO      in transmitter_1,                Axi Stream Send.  TData: 1F1E1D1C  TStrb: 1111  TKeep: 1111  TID: 00  TDest: 0  TUser: 0  TLast: 1  Operation# 33
%%    520 ns    Log    PASSED    in receiver_1: RxBurstFifo,      Received: 00   Item Number: 97
%%    520 ns    Log    PASSED    in receiver_1: RxBurstFifo,      Received: 01   Item Number: 98
%%    520 ns    Log    PASSED    in receiver_1: RxBurstFifo,      Received: 02   Item Number: 99
%%    520 ns    Log    PASSED    in receiver_1: RxBurstFifo,      Received: 03   Item Number: 100
%%    520 ns    Log    PASSED    in receiver_1: RxBurstFifo,      Received: 04   Item Number: 101
%%    520 ns    Log    PASSED    in receiver_1: RxBurstFifo,      Received: 05   Item Number: 102
%%    520 ns    Log    PASSED    in receiver_1: RxBurstFifo,      Received: 06   Item Number: 103
%%    520 ns    Log    PASSED    in receiver_1: RxBurstFifo,      Received: 07   Item Number: 104
%%    520 ns    Log    PASSED    in receiver_1: RxBurstFifo,      Received: 08   Item Number: 105
%%    520 ns    Log    PASSED    in receiver_1: RxBurstFifo,      Received: 09   Item Number: 106
%%    520 ns    Log    PASSED    in receiver_1: RxBurstFifo,      Received: 0A   Item Number: 107
%%    520 ns    Log    PASSED    in receiver_1: RxBurstFifo,      Received: 0B   Item Number: 108
%%    520 ns    Log    PASSED    in receiver_1: RxBurstFifo,      Received: 0C   Item Number: 109
%%    520 ns    Log    PASSED    in receiver_1: RxBurstFifo,      Received: 0D   Item Number: 110
%%    520 ns    Log    PASSED    in receiver_1: RxBurstFifo,      Received: 0E   Item Number: 111
%%    520 ns    Log    PASSED    in receiver_1: RxBurstFifo,      Received: 0F   Item Number: 112
%%    520 ns    Log    PASSED    in receiver_1: RxBurstFifo,      Received: 10   Item Number: 113
%%    520 ns    Log    PASSED    in receiver_1: RxBurstFifo,      Received: 11   Item Number: 114
%%    520 ns    Log    PASSED    in receiver_1: RxBurstFifo,      Received: 12   Item Number: 115
%%    520 ns    Log    PASSED    in receiver_1: RxBurstFifo,      Received: 13   Item Number: 116
%%    520 ns    Log    PASSED    in receiver_1: RxBurstFifo,      Received: 14   Item Number: 117
%%    520 ns    Log    PASSED    in receiver_1: RxBurstFifo,      Received: 15   Item Number: 118
%%    520 ns    Log    PASSED    in receiver_1: RxBurstFifo,      Received: 16   Item Number: 119
%%    520 ns    Log    PASSED    in receiver_1: RxBurstFifo,      Received: 17   Item Number: 120
%%    520 ns    Log    PASSED    in receiver_1: RxBurstFifo,      Received: 18   Item Number: 121
%%    520 ns    Log    PASSED    in receiver_1: RxBurstFifo,      Received: 19   Item Number: 122
%%    520 ns    Log    PASSED    in receiver_1: RxBurstFifo,      Received: 1A   Item Number: 123
%%    520 ns    Log    PASSED    in receiver_1: RxBurstFifo,      Received: 1B   Item Number: 124
%%    520 ns    Log    PASSED    in receiver_1: RxBurstFifo,      Received: 1C   Item Number: 125
%%    520 ns    Log    PASSED    in receiver_1: RxBurstFifo,      Received: 1D   Item Number: 126
%%    520 ns    Log    PASSED    in receiver_1: RxBurstFifo,      Received: 1E   Item Number: 127
%%    520 ns    Log    PASSED    in receiver_1: RxBurstFifo,      Received: 1F   Item Number: 128
%%    520 ns    Log    INFO      in receiver_1,                   Burst Check.  Operation# 4  Last Data: 1F1E1D1C  TID: 00  TDest: 0  TUser: 0  TLast: 1
%%    520 ns    Log    PASSED    in receiver_1,                   Burst Check WordCount Received : 32
%%    520 ns    Log    PASSED    in receiver_1,                   ID Received : 00
%%    520 ns    Log    PASSED    in receiver_1,                   DEST Received : 0
%%    520 ns    Log    PASSED    in receiver_1,                   USER Received : 0
%%    520 ns    Log    PASSED    in receiver_1,                   Last Received : 1
%%    520 ns    Log    ALWAYS    in Default,                      Transmit 37 Bytes. Starting with 32
%%    520 ns    Log    INFO      in transmitter_1,                Axi Stream Send.  TData: 23222120  TStrb: 1111  TKeep: 1111  TID: 00  TDest: 0  TUser: 0  TLast: 0  Operation# 34
%%    530 ns    Log    INFO      in transmitter_1,                Axi Stream Send.  TData: 27262524  TStrb: 1111  TKeep: 1111  TID: 00  TDest: 0  TUser: 0  TLast: 0  Operation# 35
%%    540 ns    Log    INFO      in transmitter_1,                Axi Stream Send.  TData: 2B2A2928  TStrb: 1111  TKeep: 1111  TID: 00  TDest: 0  TUser: 0  TLast: 0  Operation# 36
%%    550 ns    Log    INFO      in transmitter_1,                Axi Stream Send.  TData: 2F2E2D2C  TStrb: 1111  TKeep: 1111  TID: 00  TDest: 0  TUser: 0  TLast: 0  Operation# 37
%%    560 ns    Log    INFO      in transmitter_1,                Axi Stream Send.  TData: 33323130  TStrb: 1111  TKeep: 1111  TID: 00  TDest: 0  TUser: 0  TLast: 0  Operation# 38
%%    570 ns    Log    INFO      in transmitter_1,                Axi Stream Send.  TData: 37363534  TStrb: 1111  TKeep: 1111  TID: 00  TDest: 0  TUser: 0  TLast: 0  Operation# 39
%%    580 ns    Log    INFO      in transmitter_1,                Axi Stream Send.  TData: 3B3A3938  TStrb: 1111  TKeep: 1111  TID: 00  TDest: 0  TUser: 0  TLast: 0  Operation# 40
%%    590 ns    Log    INFO      in transmitter_1,                Axi Stream Send.  TData: 3F3E3D3C  TStrb: 1111  TKeep: 1111  TID: 00  TDest: 0  TUser: 0  TLast: 0  Operation# 41
%%    600 ns    Log    INFO      in transmitter_1,                Axi Stream Send.  TData: 43424140  TStrb: 1111  TKeep: 1111  TID: 00  TDest: 0  TUser: 0  TLast: 0  Operation# 42
%%    610 ns    Log    INFO      in transmitter_1,                Axi Stream Send.  TData: XXXXXX44  TStrb: 0001  TKeep: 0001  TID: 00  TDest: 0  TUser: 0  TLast: 1  Operation# 43
%%    620 ns    Log    PASSED    in receiver_1: RxBurstFifo,      Received: 20   Item Number: 129
%%    620 ns    Log    PASSED    in receiver_1: RxBurstFifo,      Received: 21   Item Number: 130
%%    620 ns    Log    PASSED    in receiver_1: RxBurstFifo,      Received: 22   Item Number: 131
%%    620 ns    Log    PASSED    in receiver_1: RxBurstFifo,      Received: 23   Item Number: 132
%%    620 ns    Log    PASSED    in receiver_1: RxBurstFifo,      Received: 24   Item Number: 133
%%    620 ns    Log    PASSED    in receiver_1: RxBurstFifo,      Received: 25   Item Number: 134
%%    620 ns    Log    PASSED    in receiver_1: RxBurstFifo,      Received: 26   Item Number: 135
%%    620 ns    Log    PASSED    in receiver_1: RxBurstFifo,      Received: 27   Item Number: 136
%%    620 ns    Log    PASSED    in receiver_1: RxBurstFifo,      Received: 28   Item Number: 137
%%    620 ns    Log    PASSED    in receiver_1: RxBurstFifo,      Received: 29   Item Number: 138
%%    620 ns    Log    PASSED    in receiver_1: RxBurstFifo,      Received: 2A   Item Number: 139
%%    620 ns    Log    PASSED    in receiver_1: RxBurstFifo,      Received: 2B   Item Number: 140
%%    620 ns    Log    PASSED    in receiver_1: RxBurstFifo,      Received: 2C   Item Number: 141
%%    620 ns    Log    PASSED    in receiver_1: RxBurstFifo,      Received: 2D   Item Number: 142
%%    620 ns    Log    PASSED    in receiver_1: RxBurstFifo,      Received: 2E   Item Number: 143
%%    620 ns    Log    PASSED    in receiver_1: RxBurstFifo,      Received: 2F   Item Number: 144
%%    620 ns    Log    PASSED    in receiver_1: RxBurstFifo,      Received: 30   Item Number: 145
%%    620 ns    Log    PASSED    in receiver_1: RxBurstFifo,      Received: 31   Item Number: 146
%%    620 ns    Log    PASSED    in receiver_1: RxBurstFifo,      Received: 32   Item Number: 147
%%    620 ns    Log    PASSED    in receiver_1: RxBurstFifo,      Received: 33   Item Number: 148
%%    620 ns    Log    PASSED    in receiver_1: RxBurstFifo,      Received: 34   Item Number: 149
%%    620 ns    Log    PASSED    in receiver_1: RxBurstFifo,      Received: 35   Item Number: 150
%%    620 ns    Log    PASSED    in receiver_1: RxBurstFifo,      Received: 36   Item Number: 151
%%    620 ns    Log    PASSED    in receiver_1: RxBurstFifo,      Received: 37   Item Number: 152
%%    620 ns    Log    PASSED    in receiver_1: RxBurstFifo,      Received: 38   Item Number: 153
%%    620 ns    Log    PASSED    in receiver_1: RxBurstFifo,      Received: 39   Item Number: 154
%%    620 ns    Log    PASSED    in receiver_1: RxBurstFifo,      Received: 3A   Item Number: 155
%%    620 ns    Log    PASSED    in receiver_1: RxBurstFifo,      Received: 3B   Item Number: 156
%%    620 ns    Log    PASSED    in receiver_1: RxBurstFifo,      Received: 3C   Item Number: 157
%%    620 ns    Log    PASSED    in receiver_1: RxBurstFifo,      Received: 3D   Item Number: 158
%%    620 ns    Log    PASSED    in receiver_1: RxBurstFifo,      Received: 3E   Item Number: 159
%%    620 ns    Log    PASSED    in receiver_1: RxBurstFifo,      Received: 3F   Item Number: 160
%%    620 ns    Log    PASSED    in receiver_1: RxBurstFifo,      Received: 40   Item Number: 161
%%    620 ns    Log    PASSED    in receiver_1: RxBurstFifo,      Received: 41   Item Number: 162
%%    620 ns    Log    PASSED    in receiver_1: RxBurstFifo,      Received: 42   Item Number: 163
%%    620 ns    Log    PASSED    in receiver_1: RxBurstFifo,      Received: 43   Item Number: 164
%%    620 ns    Log    PASSED    in receiver_1: RxBurstFifo,      Received: 44   Item Number: 165
%%    620 ns    Log    INFO      in receiver_1,                   Burst Check.  Operation# 5  Last Data: ------44  TID: 00  TDest: 0  TUser: 0  TLast: 1
%%    620 ns    Log    PASSED    in receiver_1,                   Burst Check WordCount Received : 37
%%    620 ns    Log    PASSED    in receiver_1,                   ID Received : 00
%%    620 ns    Log    PASSED    in receiver_1,                   DEST Received : 0
%%    620 ns    Log    PASSED    in receiver_1,                   USER Received : 0
%%    620 ns    Log    PASSED    in receiver_1,                   Last Received : 1
%%    620 ns    Log    ALWAYS    in Default,                      Transmit 42 Bytes. Starting with 64
%%    620 ns    Log    INFO      in transmitter_1,                Axi Stream Send.  TData: 43424140  TStrb: 1111  TKeep: 1111  TID: 00  TDest: 0  TUser: 0  TLast: 0  Operation# 44
%%    630 ns    Log    INFO      in transmitter_1,                Axi Stream Send.  TData: 47464544  TStrb: 1111  TKeep: 1111  TID: 00  TDest: 0  TUser: 0  TLast: 0  Operation# 45
%%    640 ns    Log    INFO      in transmitter_1,                Axi Stream Send.  TData: 4B4A4948  TStrb: 1111  TKeep: 1111  TID: 00  TDest: 0  TUser: 0  TLast: 0  Operation# 46
%%    650 ns    Log    INFO      in transmitter_1,                Axi Stream Send.  TData: 4F4E4D4C  TStrb: 1111  TKeep: 1111  TID: 00  TDest: 0  TUser: 0  TLast: 0  Operation# 47
%%    660 ns    Log    INFO      in transmitter_1,                Axi Stream Send.  TData: 53525150  TStrb: 1111  TKeep: 1111  TID: 00  TDest: 0  TUser: 0  TLast: 0  Operation# 48
%%    670 ns    Log    INFO      in transmitter_1,                Axi Stream Send.  TData: 57565554  TStrb: 1111  TKeep: 1111  TID: 00  TDest: 0  TUser: 0  TLast: 0  Operation# 49
%%    680 ns    Log    INFO      in transmitter_1,                Axi Stream Send.  TData: 5B5A5958  TStrb: 1111  TKeep: 1111  TID: 00  TDest: 0  TUser: 0  TLast: 0  Operation# 50
%%    690 ns    Log    INFO      in transmitter_1,                Axi Stream Send.  TData: 5F5E5D5C  TStrb: 1111  TKeep: 1111  TID: 00  TDest: 0  TUser: 0  TLast: 0  Operation# 51
%%    700 ns    Log    INFO      in transmitter_1,                Axi Stream Send.  TData: 63626160  TStrb: 1111  TKeep: 1111  TID: 00  TDest: 0  TUser: 0  TLast: 0  Operation# 52
%%    710 ns    Log    INFO      in transmitter_1,                Axi Stream Send.  TData: 67666564  TStrb: 1111  TKeep: 1111  TID: 00  TDest: 0  TUser: 0  TLast: 0  Operation# 53
%%    720 ns    Log    INFO      in transmitter_1,                Axi Stream Send.  TData: XXXX6968  TStrb: 0011  TKeep: 0011  TID: 00  TDest: 0  TUser: 0  TLast: 1  Operation# 54
%%    730 ns    Log    PASSED    in receiver_1: RxBurstFifo,      Received: 40   Item Number: 166
%%    730 ns    Log    PASSED    in receiver_1: RxBurstFifo,      Received: 41   Item Number: 167
%%    730 ns    Log    PASSED    in receiver_1: RxBurstFifo,      Received: 42   Item Number: 168
%%    730 ns    Log    PASSED    in receiver_1: RxBurstFifo,      Received: 43   Item Number: 169
%%    730 ns    Log    PASSED    in receiver_1: RxBurstFifo,      Received: 44   Item Number: 170
%%    730 ns    Log    PASSED    in receiver_1: RxBurstFifo,      Received: 45   Item Number: 171
%%    730 ns    Log    PASSED    in receiver_1: RxBurstFifo,      Received: 46   Item Number: 172
%%    730 ns    Log    PASSED    in receiver_1: RxBurstFifo,      Received: 47   Item Number: 173
%%    730 ns    Log    PASSED    in receiver_1: RxBurstFifo,      Received: 48   Item Number: 174
%%    730 ns    Log    PASSED    in receiver_1: RxBurstFifo,      Received: 49   Item Number: 175
%%    730 ns    Log    PASSED    in receiver_1: RxBurstFifo,      Received: 4A   Item Number: 176
%%    730 ns    Log    PASSED    in receiver_1: RxBurstFifo,      Received: 4B   Item Number: 177
%%    730 ns    Log    PASSED    in receiver_1: RxBurstFifo,      Received: 4C   Item Number: 178
%%    730 ns    Log    PASSED    in receiver_1: RxBurstFifo,      Received: 4D   Item Number: 179
%%    730 ns    Log    PASSED    in receiver_1: RxBurstFifo,      Received: 4E   Item Number: 180
%%    730 ns    Log    PASSED    in receiver_1: RxBurstFifo,      Received: 4F   Item Number: 181
%%    730 ns    Log    PASSED    in receiver_1: RxBurstFifo,      Received: 50   Item Number: 182
%%    730 ns    Log    PASSED    in receiver_1: RxBurstFifo,      Received: 51   Item Number: 183
%%    730 ns    Log    PASSED    in receiver_1: RxBurstFifo,      Received: 52   Item Number: 184
%%    730 ns    Log    PASSED    in receiver_1: RxBurstFifo,      Received: 53   Item Number: 185
%%    730 ns    Log    PASSED    in receiver_1: RxBurstFifo,      Received: 54   Item Number: 186
%%    730 ns    Log    PASSED    in receiver_1: RxBurstFifo,      Received: 55   Item Number: 187
%%    730 ns    Log    PASSED    in receiver_1: RxBurstFifo,      Received: 56   Item Number: 188
%%    730 ns    Log    PASSED    in receiver_1: RxBurstFifo,      Received: 57   Item Number: 189
%%    730 ns    Log    PASSED    in receiver_1: RxBurstFifo,      Received: 58   Item Number: 190
%%    730 ns    Log    PASSED    in receiver_1: RxBurstFifo,      Received: 59   Item Number: 191
%%    730 ns    Log    PASSED    in receiver_1: RxBurstFifo,      Received: 5A   Item Number: 192
%%    730 ns    Log    PASSED    in receiver_1: RxBurstFifo,      Received: 5B   Item Number: 193
%%    730 ns    Log    PASSED    in receiver_1: RxBurstFifo,      Received: 5C   Item Number: 194
%%    730 ns    Log    PASSED    in receiver_1: RxBurstFifo,      Received: 5D   Item Number: 195
%%    730 ns    Log    PASSED    in receiver_1: RxBurstFifo,      Received: 5E   Item Number: 196
%%    730 ns    Log    PASSED    in receiver_1: RxBurstFifo,      Received: 5F   Item Number: 197
%%    730 ns    Log    PASSED    in receiver_1: RxBurstFifo,      Received: 60   Item Number: 198
%%    730 ns    Log    PASSED    in receiver_1: RxBurstFifo,      Received: 61   Item Number: 199
%%    730 ns    Log    PASSED    in receiver_1: RxBurstFifo,      Received: 62   Item Number: 200
%%    730 ns    Log    PASSED    in receiver_1: RxBurstFifo,      Received: 63   Item Number: 201
%%    730 ns    Log    PASSED    in receiver_1: RxBurstFifo,      Received: 64   Item Number: 202
%%    730 ns    Log    PASSED    in receiver_1: RxBurstFifo,      Received: 65   Item Number: 203
%%    730 ns    Log    PASSED    in receiver_1: RxBurstFifo,      Received: 66   Item Number: 204
%%    730 ns    Log    PASSED    in receiver_1: RxBurstFifo,      Received: 67   Item Number: 205
%%    730 ns    Log    PASSED    in receiver_1: RxBurstFifo,      Received: 68   Item Number: 206
%%    730 ns    Log    PASSED    in receiver_1: RxBurstFifo,      Received: 69   Item Number: 207
%%    730 ns    Log    INFO      in receiver_1,                   Burst Check.  Operation# 6  Last Data: ----6968  TID: 00  TDest: 0  TUser: 0  TLast: 1
%%    730 ns    Log    PASSED    in receiver_1,                   Burst Check WordCount Received : 42
%%    730 ns    Log    PASSED    in receiver_1,                   ID Received : 00
%%    730 ns    Log    PASSED    in receiver_1,                   DEST Received : 0
%%    730 ns    Log    PASSED    in receiver_1,                   USER Received : 0
%%    730 ns    Log    PASSED    in receiver_1,                   Last Received : 1
%%    730 ns    Log    ALWAYS    in Default,                      Transmit 47 Bytes. Starting with 96
%%    730 ns    Log    INFO      in transmitter_1,                Axi Stream Send.  TData: 63626160  TStrb: 1111  TKeep: 1111  TID: 00  TDest: 0  TUser: 0  TLast: 0  Operation# 55
%%    740 ns    Log    INFO      in transmitter_1,                Axi Stream Send.  TData: 67666564  TStrb: 1111  TKeep: 1111  TID: 00  TDest: 0  TUser: 0  TLast: 0  Operation# 56
%%    750 ns    Log    INFO      in transmitter_1,                Axi Stream Send.  TData: 6B6A6968  TStrb: 1111  TKeep: 1111  TID: 00  TDest: 0  TUser: 0  TLast: 0  Operation# 57
%%    760 ns    Log    INFO      in transmitter_1,                Axi Stream Send.  TData: 6F6E6D6C  TStrb: 1111  TKeep: 1111  TID: 00  TDest: 0  TUser: 0  TLast: 0  Operation# 58
%%    770 ns    Log    INFO      in transmitter_1,                Axi Stream Send.  TData: 73727170  TStrb: 1111  TKeep: 1111  TID: 00  TDest: 0  TUser: 0  TLast: 0  Operation# 59
%%    780 ns    Log    INFO      in transmitter_1,                Axi Stream Send.  TData: 77767574  TStrb: 1111  TKeep: 1111  TID: 00  TDest: 0  TUser: 0  TLast: 0  Operation# 60
%%    790 ns    Log    INFO      in transmitter_1,                Axi Stream Send.  TData: 7B7A7978  TStrb: 1111  TKeep: 1111  TID: 00  TDest: 0  TUser: 0  TLast: 0  Operation# 61
%%    800 ns    Log    INFO      in transmitter_1,                Axi Stream Send.  TData: 7F7E7D7C  TStrb: 1111  TKeep: 1111  TID: 00  TDest: 0  TUser: 0  TLast: 0  Operation# 62
%%    810 ns    Log    INFO      in transmitter_1,                Axi Stream Send.  TData: 83828180  TStrb: 1111  TKeep: 1111  TID: 00  TDest: 0  TUser: 0  TLast: 0  Operation# 63
%%    820 ns    Log    INFO      in transmitter_1,                Axi Stream Send.  TData: 87868584  TStrb: 1111  TKeep: 1111  TID: 00  TDest: 0  TUser: 0  TLast: 0  Operation# 64
%%    830 ns    Log    INFO      in transmitter_1,                Axi Stream Send.  TData: 8B8A8988  TStrb: 1111  TKeep: 1111  TID: 00  TDest: 0  TUser: 0  TLast: 0  Operation# 65
%%    840 ns    Log    INFO      in transmitter_1,                Axi Stream Send.  TData: XX8E8D8C  TStrb: 0111  TKeep: 0111  TID: 00  TDest: 0  TUser: 0  TLast: 1  Operation# 66
%%    850 ns    Log    PASSED    in receiver_1: RxBurstFifo,      Received: 60   Item Number: 208
%%    850 ns    Log    PASSED    in receiver_1: RxBurstFifo,      Received: 61   Item Number: 209
%%    850 ns    Log    PASSED    in receiver_1: RxBurstFifo,      Received: 62   Item Number: 210
%%    850 ns    Log    PASSED    in receiver_1: RxBurstFifo,      Received: 63   Item Number: 211
%%    850 ns    Log    PASSED    in receiver_1: RxBurstFifo,      Received: 64   Item Number: 212
%%    850 ns    Log    PASSED    in receiver_1: RxBurstFifo,      Received: 65   Item Number: 213
%%    850 ns    Log    PASSED    in receiver_1: RxBurstFifo,      Received: 66   Item Number: 214
%%    850 ns    Log    PASSED    in receiver_1: RxBurstFifo,      Received: 67   Item Number: 215
%%    850 ns    Log    PASSED    in receiver_1: RxBurstFifo,      Received: 68   Item Number: 216
%%    850 ns    Log    PASSED    in receiver_1: RxBurstFifo,      Received: 69   Item Number: 217
%%    850 ns    Log    PASSED    in receiver_1: RxBurstFifo,      Received: 6A   Item Number: 218
%%    850 ns    Log    PASSED    in receiver_1: RxBurstFifo,      Received: 6B   Item Number: 219
%%    850 ns    Log    PASSED    in receiver_1: RxBurstFifo,      Received: 6C   Item Number: 220
%%    850 ns    Log    PASSED    in receiver_1: RxBurstFifo,      Received: 6D   Item Number: 221
%%    850 ns    Log    PASSED    in receiver_1: RxBurstFifo,      Received: 6E   Item Number: 222
%%    850 ns    Log    PASSED    in receiver_1: RxBurstFifo,      Received: 6F   Item Number: 223
%%    850 ns    Log    PASSED    in receiver_1: RxBurstFifo,      Received: 70   Item Number: 224
%%    850 ns    Log    PASSED    in receiver_1: RxBurstFifo,      Received: 71   Item Number: 225
%%    850 ns    Log    PASSED    in receiver_1: RxBurstFifo,      Received: 72   Item Number: 226
%%    850 ns    Log    PASSED    in receiver_1: RxBurstFifo,      Received: 73   Item Number: 227
%%    850 ns    Log    PASSED    in receiver_1: RxBurstFifo,      Received: 74   Item Number: 228
%%    850 ns    Log    PASSED    in receiver_1: RxBurstFifo,      Received: 75   Item Number: 229
%%    850 ns    Log    PASSED    in receiver_1: RxBurstFifo,      Received: 76   Item Number: 230
%%    850 ns    Log    PASSED    in receiver_1: RxBurstFifo,      Received: 77   Item Number: 231
%%    850 ns    Log    PASSED    in receiver_1: RxBurstFifo,      Received: 78   Item Number: 232
%%    850 ns    Log    PASSED    in receiver_1: RxBurstFifo,      Received: 79   Item Number: 233
%%    850 ns    Log    PASSED    in receiver_1: RxBurstFifo,      Received: 7A   Item Number: 234
%%    850 ns    Log    PASSED    in receiver_1: RxBurstFifo,      Received: 7B   Item Number: 235
%%    850 ns    Log    PASSED    in receiver_1: RxBurstFifo,      Received: 7C   Item Number: 236
%%    850 ns    Log    PASSED    in receiver_1: RxBurstFifo,      Received: 7D   Item Number: 237
%%    850 ns    Log    PASSED    in receiver_1: RxBurstFifo,      Received: 7E   Item Number: 238
%%    850 ns    Log    PASSED    in receiver_1: RxBurstFifo,      Received: 7F   Item Number: 239
%%    850 ns    Log    PASSED    in receiver_1: RxBurstFifo,      Received: 80   Item Number: 240
%%    850 ns    Log    PASSED    in receiver_1: RxBurstFifo,      Received: 81   Item Number: 241
%%    850 ns    Log    PASSED    in receiver_1: RxBurstFifo,      Received: 82   Item Number: 242
%%    850 ns    Log    PASSED    in receiver_1: RxBurstFifo,      Received: 83   Item Number: 243
%%    850 ns    Log    PASSED    in receiver_1: RxBurstFifo,      Received: 84   Item Number: 244
%%    850 ns    Log    PASSED    in receiver_1: RxBurstFifo,      Received: 85   Item Number: 245
%%    850 ns    Log    PASSED    in receiver_1: RxBurstFifo,      Received: 86   Item Number: 246
%%    850 ns    Log    PASSED    in receiver_1: RxBurstFifo,      Received: 87   Item Number: 247
%%    850 ns    Log    PASSED    in receiver_1: RxBurstFifo,      Received: 88   Item Number: 248
%%    850 ns    Log    PASSED    in receiver_1: RxBurstFifo,      Received: 89   Item Number: 249
%%    850 ns    Log    PASSED    in receiver_1: RxBurstFifo,      Received: 8A   Item Number: 250
%%    850 ns    Log    PASSED    in receiver_1: RxBurstFifo,      Received: 8B   Item Number: 251
%%    850 ns    Log    PASSED    in receiver_1: RxBurstFifo,      Received: 8C   Item Number: 252
%%    850 ns    Log    PASSED    in receiver_1: RxBurstFifo,      Received: 8D   Item Number: 253
%%    850 ns    Log    PASSED    in receiver_1: RxBurstFifo,      Received: 8E   Item Number: 254
%%    850 ns    Log    INFO      in receiver_1,                   Burst Check.  Operation# 7  Last Data: --8E8D8C  TID: 00  TDest: 0  TUser: 0  TLast: 1
%%    850 ns    Log    PASSED    in receiver_1,                   Burst Check WordCount Received : 47
%%    850 ns    Log    PASSED    in receiver_1,                   ID Received : 00
%%    850 ns    Log    PASSED    in receiver_1,                   DEST Received : 0
%%    850 ns    Log    PASSED    in receiver_1,                   USER Received : 0
%%    850 ns    Log    PASSED    in receiver_1,                   Last Received : 1
%%    850 ns    Log    ALWAYS    in Default,                      Transmit 52 Bytes. Starting with 128
%%    850 ns    Log    INFO      in transmitter_1,                Axi Stream Send.  TData: 83828180  TStrb: 1111  TKeep: 1111  TID: 00  TDest: 0  TUser: 0  TLast: 0  Operation# 67
%%    860 ns    Log    INFO      in transmitter_1,                Axi Stream Send.  TData: 87868584  TStrb: 1111  TKeep: 1111  TID: 00  TDest: 0  TUser: 0  TLast: 0  Operation# 68
%%    870 ns    Log    INFO      in transmitter_1,                Axi Stream Send.  TData: 8B8A8988  TStrb: 1111  TKeep: 1111  TID: 00  TDest: 0  TUser: 0  TLast: 0  Operation# 69
%%    880 ns    Log    INFO      in transmitter_1,                Axi Stream Send.  TData: 8F8E8D8C  TStrb: 1111  TKeep: 1111  TID: 00  TDest: 0  TUser: 0  TLast: 0  Operation# 70
%%    890 ns    Log    INFO      in transmitter_1,                Axi Stream Send.  TData: 93929190  TStrb: 1111  TKeep: 1111  TID: 00  TDest: 0  TUser: 0  TLast: 0  Operation# 71
%%    900 ns    Log    INFO      in transmitter_1,                Axi Stream Send.  TData: 97969594  TStrb: 1111  TKeep: 1111  TID: 00  TDest: 0  TUser: 0  TLast: 0  Operation# 72
%%    910 ns    Log    INFO      in transmitter_1,                Axi Stream Send.  TData: 9B9A9998  TStrb: 1111  TKeep: 1111  TID: 00  TDest: 0  TUser: 0  TLast: 0  Operation# 73
%%    920 ns    Log    INFO      in transmitter_1,                Axi Stream Send.  TData: 9F9E9D9C  TStrb: 1111  TKeep: 1111  TID: 00  TDest: 0  TUser: 0  TLast: 0  Operation# 74
%%    930 ns    Log    INFO      in transmitter_1,                Axi Stream Send.  TData: A3A2A1A0  TStrb: 1111  TKeep: 1111  TID: 00  TDest: 0  TUser: 0  TLast: 0  Operation# 75
%%    940 ns    Log    INFO      in transmitter_1,                Axi Stream Send.  TData: A7A6A5A4  TStrb: 1111  TKeep: 1111  TID: 00  TDest: 0  TUser: 0  TLast: 0  Operation# 76
%%    950 ns    Log    INFO      in transmitter_1,                Axi Stream Send.  TData: ABAAA9A8  TStrb: 1111  TKeep: 1111  TID: 00  TDest: 0  TUser: 0  TLast: 0  Operation# 77
%%    960 ns    Log    INFO      in transmitter_1,                Axi Stream Send.  TData: AFAEADAC  TStrb: 1111  TKeep: 1111  TID: 00  TDest: 0  TUser: 0  TLast: 0  Operation# 78
%%    970 ns    Log    INFO      in transmitter_1,                Axi Stream Send.  TData: B3B2B1B0  TStrb: 1111  TKeep: 1111  TID: 00  TDest: 0  TUser: 0  TLast: 1  Operation# 79
%%    980 ns    Log    PASSED    in receiver_1: RxBurstFifo,      Received: 80   Item Number: 255
%%    980 ns    Log    PASSED    in receiver_1: RxBurstFifo,      Received: 81   Item Number: 256
%%    980 ns    Log    PASSED    in receiver_1: RxBurstFifo,      Received: 82   Item Number: 257
%%    980 ns    Log    PASSED    in receiver_1: RxBurstFifo,      Received: 83   Item Number: 258
%%    980 ns    Log    PASSED    in receiver_1: RxBurstFifo,      Received: 84   Item Number: 259
%%    980 ns    Log    PASSED    in receiver_1: RxBurstFifo,      Received: 85   Item Number: 260
%%    980 ns    Log    PASSED    in receiver_1: RxBurstFifo,      Received: 86   Item Number: 261
%%    980 ns    Log    PASSED    in receiver_1: RxBurstFifo,      Received: 87   Item Number: 262
%%    980 ns    Log    PASSED    in receiver_1: RxBurstFifo,      Received: 88   Item Number: 263
%%    980 ns    Log    PASSED    in receiver_1: RxBurstFifo,      Received: 89   Item Number: 264
%%    980 ns    Log    PASSED    in receiver_1: RxBurstFifo,      Received: 8A   Item Number: 265
%%    980 ns    Log    PASSED    in receiver_1: RxBurstFifo,      Received: 8B   Item Number: 266
%%    980 ns    Log    PASSED    in receiver_1: RxBurstFifo,      Received: 8C   Item Number: 267
%%    980 ns    Log    PASSED    in receiver_1: RxBurstFifo,      Received: 8D   Item Number: 268
%%    980 ns    Log    PASSED    in receiver_1: RxBurstFifo,      Received: 8E   Item Number: 269
%%    980 ns    Log    PASSED    in receiver_1: RxBurstFifo,      Received: 8F   Item Number: 270
%%    980 ns    Log    PASSED    in receiver_1: RxBurstFifo,      Received: 90   Item Number: 271
%%    980 ns    Log    PASSED    in receiver_1: RxBurstFifo,      Received: 91   Item Number: 272
%%    980 ns    Log    PASSED    in receiver_1: RxBurstFifo,      Received: 92   Item Number: 273
%%    980 ns    Log    PASSED    in receiver_1: RxBurstFifo,      Received: 93   Item Number: 274
%%    980 ns    Log    PASSED    in receiver_1: RxBurstFifo,      Received: 94   Item Number: 275
%%    980 ns    Log    PASSED    in receiver_1: RxBurstFifo,      Received: 95   Item Number: 276
%%    980 ns    Log    PASSED    in receiver_1: RxBurstFifo,      Received: 96   Item Number: 277
%%    980 ns    Log    PASSED    in receiver_1: RxBurstFifo,      Received: 97   Item Number: 278
%%    980 ns    Log    PASSED    in receiver_1: RxBurstFifo,      Received: 98   Item Number: 279
%%    980 ns    Log    PASSED    in receiver_1: RxBurstFifo,      Received: 99   Item Number: 280
%%    980 ns    Log    PASSED    in receiver_1: RxBurstFifo,      Received: 9A   Item Number: 281
%%    980 ns    Log    PASSED    in receiver_1: RxBurstFifo,      Received: 9B   Item Number: 282
%%    980 ns    Log    PASSED    in receiver_1: RxBurstFifo,      Received: 9C   Item Number: 283
%%    980 ns    Log    PASSED    in receiver_1: RxBurstFifo,      Received: 9D   Item Number: 284
%%    980 ns    Log    PASSED    in receiver_1: RxBurstFifo,      Received: 9E   Item Number: 285
%%    980 ns    Log    PASSED    in receiver_1: RxBurstFifo,      Received: 9F   Item Number: 286
%%    980 ns    Log    PASSED    in receiver_1: RxBurstFifo,      Received: A0   Item Number: 287
%%    980 ns    Log    PASSED    in receiver_1: RxBurstFifo,      Received: A1   Item Number: 288
%%    980 ns    Log    PASSED    in receiver_1: RxBurstFifo,      Received: A2   Item Number: 289
%%    980 ns    Log    PASSED    in receiver_1: RxBurstFifo,      Received: A3   Item Number: 290
%%    980 ns    Log    PASSED    in receiver_1: RxBurstFifo,      Received: A4   Item Number: 291
%%    980 ns    Log    PASSED    in receiver_1: RxBurstFifo,      Received: A5   Item Number: 292
%%    980 ns    Log    PASSED    in receiver_1: RxBurstFifo,      Received: A6   Item Number: 293
%%    980 ns    Log    PASSED    in receiver_1: RxBurstFifo,      Received: A7   Item Number: 294
%%    980 ns    Log    PASSED    in receiver_1: RxBurstFifo,      Received: A8   Item Number: 295
%%    980 ns    Log    PASSED    in receiver_1: RxBurstFifo,      Received: A9   Item Number: 296
%%    980 ns    Log    PASSED    in receiver_1: RxBurstFifo,      Received: AA   Item Number: 297
%%    980 ns    Log    PASSED    in receiver_1: RxBurstFifo,      Received: AB   Item Number: 298
%%    980 ns    Log    PASSED    in receiver_1: RxBurstFifo,      Received: AC   Item Number: 299
%%    980 ns    Log    PASSED    in receiver_1: RxBurstFifo,      Received: AD   Item Number: 300
%%    980 ns    Log    PASSED    in receiver_1: RxBurstFifo,      Received: AE   Item Number: 301
%%    980 ns    Log    PASSED    in receiver_1: RxBurstFifo,      Received: AF   Item Number: 302
%%    980 ns    Log    PASSED    in receiver_1: RxBurstFifo,      Received: B0   Item Number: 303
%%    980 ns    Log    PASSED    in receiver_1: RxBurstFifo,      Received: B1   Item Number: 304
%%    980 ns    Log    PASSED    in receiver_1: RxBurstFifo,      Received: B2   Item Number: 305
%%    980 ns    Log    PASSED    in receiver_1: RxBurstFifo,      Received: B3   Item Number: 306
%%    980 ns    Log    INFO      in receiver_1,                   Burst Check.  Operation# 8  Last Data: B3B2B1B0  TID: 00  TDest: 0  TUser: 0  TLast: 1
%%    980 ns    Log    PASSED    in receiver_1,                   Burst Check WordCount Received : 52
%%    980 ns    Log    PASSED    in receiver_1,                   ID Received : 00
%%    980 ns    Log    PASSED    in receiver_1,                   DEST Received : 0
%%    980 ns    Log    PASSED    in receiver_1,                   USER Received : 0
%%    980 ns    Log    PASSED    in receiver_1,                   Last Received : 1
%%    980 ns    Log    ALWAYS    in Default,                      Transmit 57 Bytes. Starting with 160
%%    980 ns    Log    INFO      in transmitter_1,                Axi Stream Send.  TData: A3A2A1A0  TStrb: 1111  TKeep: 1111  TID: 00  TDest: 0  TUser: 0  TLast: 0  Operation# 80
%%    990 ns    Log    INFO      in transmitter_1,                Axi Stream Send.  TData: A7A6A5A4  TStrb: 1111  TKeep: 1111  TID: 00  TDest: 0  TUser: 0  TLast: 0  Operation# 81
%%   1000 ns    Log    INFO      in transmitter_1,                Axi Stream Send.  TData: ABAAA9A8  TStrb: 1111  TKeep: 1111  TID: 00  TDest: 0  TUser: 0  TLast: 0  Operation# 82
%%   1010 ns    Log    INFO      in transmitter_1,                Axi Stream Send.  TData: AFAEADAC  TStrb: 1111  TKeep: 1111  TID: 00  TDest: 0  TUser: 0  TLast: 0  Operation# 83
%%   1020 ns    Log    INFO      in transmitter_1,                Axi Stream Send.  TData: B3B2B1B0  TStrb: 1111  TKeep: 1111  TID: 00  TDest: 0  TUser: 0  TLast: 0  Operation# 84
%%   1030 ns    Log    INFO      in transmitter_1,                Axi Stream Send.  TData: B7B6B5B4  TStrb: 1111  TKeep: 1111  TID: 00  TDest: 0  TUser: 0  TLast: 0  Operation# 85
%%   1040 ns    Log    INFO      in transmitter_1,                Axi Stream Send.  TData: BBBAB9B8  TStrb: 1111  TKeep: 1111  TID: 00  TDest: 0  TUser: 0  TLast: 0  Operation# 86
%%   1050 ns    Log    INFO      in transmitter_1,                Axi Stream Send.  TData: BFBEBDBC  TStrb: 1111  TKeep: 1111  TID: 00  TDest: 0  TUser: 0  TLast: 0  Operation# 87
%%   1060 ns    Log    INFO      in transmitter_1,                Axi Stream Send.  TData: C3C2C1C0  TStrb: 1111  TKeep: 1111  TID: 00  TDest: 0  TUser: 0  TLast: 0  Operation# 88
%%   1070 ns    Log    INFO      in transmitter_1,                Axi Stream Send.  TData: C7C6C5C4  TStrb: 1111  TKeep: 1111  TID: 00  TDest: 0  TUser: 0  TLast: 0  Operation# 89
%%   1080 ns    Log    INFO      in transmitter_1,                Axi Stream Send.  TData: CBCAC9C8  TStrb: 1111  TKeep: 1111  TID: 00  TDest: 0  TUser: 0  TLast: 0  Operation# 90
%%   1090 ns    Log    INFO      in transmitter_1,                Axi Stream Send.  TData: CFCECDCC  TStrb: 1111  TKeep: 1111  TID: 00  TDest: 0  TUser: 0  TLast: 0  Operation# 91
%%   1100 ns    Log    INFO      in transmitter_1,                Axi Stream Send.  TData: D3D2D1D0  TStrb: 1111  TKeep: 1111  TID: 00  TDest: 0  TUser: 0  TLast: 0  Operation# 92
%%   1110 ns    Log    INFO      in transmitter_1,                Axi Stream Send.  TData: D7D6D5D4  TStrb: 1111  TKeep: 1111  TID: 00  TDest: 0  TUser: 0  TLast: 0  Operation# 93
%%   1120 ns    Log    INFO      in transmitter_1,                Axi Stream Send.  TData: XXXXXXD8  TStrb: 0001  TKeep: 0001  TID: 00  TDest: 0  TUser: 0  TLast: 1  Operation# 94
%%   1130 ns    Log    PASSED    in receiver_1: RxBurstFifo,      Received: A0   Item Number: 307
%%   1130 ns    Log    PASSED    in receiver_1: RxBurstFifo,      Received: A1   Item Number: 308
%%   1130 ns    Log    PASSED    in receiver_1: RxBurstFifo,      Received: A2   Item Number: 309
%%   1130 ns    Log    PASSED    in receiver_1: RxBurstFifo,      Received: A3   Item Number: 310
%%   1130 ns    Log    PASSED    in receiver_1: RxBurstFifo,      Received: A4   Item Number: 311
%%   1130 ns    Log    PASSED    in receiver_1: RxBurstFifo,      Received: A5   Item Number: 312
%%   1130 ns    Log    PASSED    in receiver_1: RxBurstFifo,      Received: A6   Item Number: 313
%%   1130 ns    Log    PASSED    in receiver_1: RxBurstFifo,      Received: A7   Item Number: 314
%%   1130 ns    Log    PASSED    in receiver_1: RxBurstFifo,      Received: A8   Item Number: 315
%%   1130 ns    Log    PASSED    in receiver_1: RxBurstFifo,      Received: A9   Item Number: 316
%%   1130 ns    Log    PASSED    in receiver_1: RxBurstFifo,      Received: AA   Item Number: 317
%%   1130 ns    Log    PASSED    in receiver_1: RxBurstFifo,      Received: AB   Item Number: 318
%%   1130 ns    Log    PASSED    in receiver_1: RxBurstFifo,      Received: AC   Item Number: 319
%%   1130 ns    Log    PASSED    in receiver_1: RxBurstFifo,      Received: AD   Item Number: 320
%%   1130 ns    Log    PASSED    in receiver_1: RxBurstFifo,      Received: AE   Item Number: 321
%%   1130 ns    Log    PASSED    in receiver_1: RxBurstFifo,      Received: AF   Item Number: 322
%%   1130 ns    Log    PASSED    in receiver_1: RxBurstFifo,      Received: B0   Item Number: 323
%%   1130 ns    Log    PASSED    in receiver_1: RxBurstFifo,      Received: B1   Item Number: 324
%%   1130 ns    Log    PASSED    in receiver_1: RxBurstFifo,      Received: B2   Item Number: 325
%%   1130 ns    Log    PASSED    in receiver_1: RxBurstFifo,      Received: B3   Item Number: 326
%%   1130 ns    Log    PASSED    in receiver_1: RxBurstFifo,      Received: B4   Item Number: 327
%%   1130 ns    Log    PASSED    in receiver_1: RxBurstFifo,      Received: B5   Item Number: 328
%%   1130 ns    Log    PASSED    in receiver_1: RxBurstFifo,      Received: B6   Item Number: 329
%%   1130 ns    Log    PASSED    in receiver_1: RxBurstFifo,      Received: B7   Item Number: 330
%%   1130 ns    Log    PASSED    in receiver_1: RxBurstFifo,      Received: B8   Item Number: 331
%%   1130 ns    Log    PASSED    in receiver_1: RxBurstFifo,      Received: B9   Item Number: 332
%%   1130 ns    Log    PASSED    in receiver_1: RxBurstFifo,      Received: BA   Item Number: 333
%%   1130 ns    Log    PASSED    in receiver_1: RxBurstFifo,      Received: BB   Item Number: 334
%%   1130 ns    Log    PASSED    in receiver_1: RxBurstFifo,      Received: BC   Item Number: 335
%%   1130 ns    Log    PASSED    in receiver_1: RxBurstFifo,      Received: BD   Item Number: 336
%%   1130 ns    Log    PASSED    in receiver_1: RxBurstFifo,      Received: BE   Item Number: 337
%%   1130 ns    Log    PASSED    in receiver_1: RxBurstFifo,      Received: BF   Item Number: 338
%%   1130 ns    Log    PASSED    in receiver_1: RxBurstFifo,      Received: C0   Item Number: 339
%%   1130 ns    Log    PASSED    in receiver_1: RxBurstFifo,      Received: C1   Item Number: 340
%%   1130 ns    Log    PASSED    in receiver_1: RxBurstFifo,      Received: C2   Item Number: 341
%%   1130 ns    Log    PASSED    in receiver_1: RxBurstFifo,      Received: C3   Item Number: 342
%%   1130 ns    Log    PASSED    in receiver_1: RxBurstFifo,      Received: C4   Item Number: 343
%%   1130 ns    Log    PASSED    in receiver_1: RxBurstFifo,      Received: C5   Item Number: 344
%%   1130 ns    Log    PASSED    in receiver_1: RxBurstFifo,      Received: C6   Item Number: 345
%%   1130 ns    Log    PASSED    in receiver_1: RxBurstFifo,      Received: C7   Item Number: 346
%%   1130 ns    Log    PASSED    in receiver_1: RxBurstFifo,      Received: C8   Item Number: 347
%%   1130 ns    Log    PASSED    in receiver_1: RxBurstFifo,      Received: C9   Item Number: 348
%%   1130 ns    Log    PASSED    in receiver_1: RxBurstFifo,      Received: CA   Item Number: 349
%%   1130 ns    Log    PASSED    in receiver_1: RxBurstFifo,      Received: CB   Item Number: 350
%%   1130 ns    Log    PASSED    in receiver_1: RxBurstFifo,      Received: CC   Item Number: 351
%%   1130 ns    Log    PASSED    in receiver_1: RxBurstFifo,      Received: CD   Item Number: 352
%%   1130 ns    Log    PASSED    in receiver_1: RxBurstFifo,      Received: CE   Item Number: 353
%%   1130 ns    Log    PASSED    in receiver_1: RxBurstFifo,      Received: CF   Item Number: 354
%%   1130 ns    Log    PASSED    in receiver_1: RxBurstFifo,      Received: D0   Item Number: 355
%%   1130 ns    Log    PASSED    in receiver_1: RxBurstFifo,      Received: D1   Item Number: 356
%%   1130 ns    Log    PASSED    in receiver_1: RxBurstFifo,      Received: D2   Item Number: 357
%%   1130 ns    Log    PASSED    in receiver_1: RxBurstFifo,      Received: D3   Item Number: 358
%%   1130 ns    Log    PASSED    in receiver_1: RxBurstFifo,      Received: D4   Item Number: 359
%%   1130 ns    Log    PASSED    in receiver_1: RxBurstFifo,      Received: D5   Item Number: 360
%%   1130 ns    Log    PASSED    in receiver_1: RxBurstFifo,      Received: D6   Item Number: 361
%%   1130 ns    Log    PASSED    in receiver_1: RxBurstFifo,      Received: D7   Item Number: 362
%%   1130 ns    Log    PASSED    in receiver_1: RxBurstFifo,      Received: D8   Item Number: 363
%%   1130 ns    Log    INFO      in receiver_1,                   Burst Check.  Operation# 9  Last Data: ------D8  TID: 00  TDest: 0  TUser: 0  TLast: 1
%%   1130 ns    Log    PASSED    in receiver_1,                   Burst Check WordCount Received : 57
%%   1130 ns    Log    PASSED    in receiver_1,                   ID Received : 00
%%   1130 ns    Log    PASSED    in receiver_1,                   DEST Received : 0
%%   1130 ns    Log    PASSED    in receiver_1,                   USER Received : 0
%%   1130 ns    Log    PASSED    in receiver_1,                   Last Received : 1
%%   1130 ns    Log    ALWAYS    in Default,                      Transmit 62 Bytes. Starting with 192
%%   1130 ns    Log    INFO      in transmitter_1,                Axi Stream Send.  TData: C3C2C1C0  TStrb: 1111  TKeep: 1111  TID: 00  TDest: 0  TUser: 0  TLast: 0  Operation# 95
%%   1140 ns    Log    INFO      in transmitter_1,                Axi Stream Send.  TData: C7C6C5C4  TStrb: 1111  TKeep: 1111  TID: 00  TDest: 0  TUser: 0  TLast: 0  Operation# 96
%%   1150 ns    Log    INFO      in transmitter_1,                Axi Stream Send.  TData: CBCAC9C8  TStrb: 1111  TKeep: 1111  TID: 00  TDest: 0  TUser: 0  TLast: 0  Operation# 97
%%   1160 ns    Log    INFO      in transmitter_1,                Axi Stream Send.  TData: CFCECDCC  TStrb: 1111  TKeep: 1111  TID: 00  TDest: 0  TUser: 0  TLast: 0  Operation# 98
%%   1170 ns    Log    INFO      in transmitter_1,                Axi Stream Send.  TData: D3D2D1D0  TStrb: 1111  TKeep: 1111  TID: 00  TDest: 0  TUser: 0  TLast: 0  Operation# 99
%%   1180 ns    Log    INFO      in transmitter_1,                Axi Stream Send.  TData: D7D6D5D4  TStrb: 1111  TKeep: 1111  TID: 00  TDest: 0  TUser: 0  TLast: 0  Operation# 100
%%   1190 ns    Log    INFO      in transmitter_1,                Axi Stream Send.  TData: DBDAD9D8  TStrb: 1111  TKeep: 1111  TID: 00  TDest: 0  TUser: 0  TLast: 0  Operation# 101
%%   1200 ns    Log    INFO      in transmitter_1,                Axi Stream Send.  TData: DFDEDDDC  TStrb: 1111  TKeep: 1111  TID: 00  TDest: 0  TUser: 0  TLast: 0  Operation# 102
%%   1210 ns    Log    INFO      in transmitter_1,                Axi Stream Send.  TData: E3E2E1E0  TStrb: 1111  TKeep: 1111  TID: 00  TDest: 0  TUser: 0  TLast: 0  Operation# 103
%%   1220 ns    Log    INFO      in transmitter_1,                Axi Stream Send.  TData: E7E6E5E4  TStrb: 1111  TKeep: 1111  TID: 00  TDest: 0  TUser: 0  TLast: 0  Operation# 104
%%   1230 ns    Log    INFO      in transmitter_1,                Axi Stream Send.  TData: EBEAE9E8  TStrb: 1111  TKeep: 1111  TID: 00  TDest: 0  TUser: 0  TLast: 0  Operation# 105
%%   1240 ns    Log    INFO      in transmitter_1,                Axi Stream Send.  TData: EFEEEDEC  TStrb: 1111  TKeep: 1111  TID: 00  TDest: 0  TUser: 0  TLast: 0  Operation# 106
%%   1250 ns    Log    INFO      in transmitter_1,                Axi Stream Send.  TData: F3F2F1F0  TStrb: 1111  TKeep: 1111  TID: 00  TDest: 0  TUser: 0  TLast: 0  Operation# 107
%%   1260 ns    Log    INFO      in transmitter_1,                Axi Stream Send.  TData: F7F6F5F4  TStrb: 1111  TKeep: 1111  TID: 00  TDest: 0  TUser: 0  TLast: 0  Operation# 108
%%   1270 ns    Log    INFO      in transmitter_1,                Axi Stream Send.  TData: FBFAF9F8  TStrb: 1111  TKeep: 1111  TID: 00  TDest: 0  TUser: 0  TLast: 0  Operation# 109
%%   1280 ns    Log    INFO      in transmitter_1,                Axi Stream Send.  TData: XXXXFDFC  TStrb: 0011  TKeep: 0011  TID: 00  TDest: 0  TUser: 0  TLast: 1  Operation# 110
%%   1290 ns    Log    PASSED    in receiver_1: RxBurstFifo,      Received: C0   Item Number: 364
%%   1290 ns    Log    PASSED    in receiver_1: RxBurstFifo,      Received: C1   Item Number: 365
%%   1290 ns    Log    PASSED    in receiver_1: RxBurstFifo,      Received: C2   Item Number: 366
%%   1290 ns    Log    PASSED    in receiver_1: RxBurstFifo,      Received: C3   Item Number: 367
%%   1290 ns    Log    PASSED    in receiver_1: RxBurstFifo,      Received: C4   Item Number: 368
%%   1290 ns    Log    PASSED    in receiver_1: RxBurstFifo,      Received: C5   Item Number: 369
%%   1290 ns    Log    PASSED    in receiver_1: RxBurstFifo,      Received: C6   Item Number: 370
%%   1290 ns    Log    PASSED    in receiver_1: RxBurstFifo,      Received: C7   Item Number: 371
%%   1290 ns    Log    PASSED    in receiver_1: RxBurstFifo,      Received: C8   Item Number: 372
%%   1290 ns    Log    PASSED    in receiver_1: RxBurstFifo,      Received: C9   Item Number: 373
%%   1290 ns    Log    PASSED    in receiver_1: RxBurstFifo,      Received: CA   Item Number: 374
%%   1290 ns    Log    PASSED    in receiver_1: RxBurstFifo,      Received: CB   Item Number: 375
%%   1290 ns    Log    PASSED    in receiver_1: RxBurstFifo,      Received: CC   Item Number: 376
%%   1290 ns    Log    PASSED    in receiver_1: RxBurstFifo,      Received: CD   Item Number: 377
%%   1290 ns    Log    PASSED    in receiver_1: RxBurstFifo,      Received: CE   Item Number: 378
%%   1290 ns    Log    PASSED    in receiver_1: RxBurstFifo,      Received: CF   Item Number: 379
%%   1290 ns    Log    PASSED    in receiver_1: RxBurstFifo,      Received: D0   Item Number: 380
%%   1290 ns    Log    PASSED    in receiver_1: RxBurstFifo,      Received: D1   Item Number: 381
%%   1290 ns    Log    PASSED    in receiver_1: RxBurstFifo,      Received: D2   Item Number: 382
%%   1290 ns    Log    PASSED    in receiver_1: RxBurstFifo,      Received: D3   Item Number: 383
%%   1290 ns    Log    PASSED    in receiver_1: RxBurstFifo,      Received: D4   Item Number: 384
%%   1290 ns    Log    PASSED    in receiver_1: RxBurstFifo,      Received: D5   Item Number: 385
%%   1290 ns    Log    PASSED    in receiver_1: RxBurstFifo,      Received: D6   Item Number: 386
%%   1290 ns    Log    PASSED    in receiver_1: RxBurstFifo,      Received: D7   Item Number: 387
%%   1290 ns    Log    PASSED    in receiver_1: RxBurstFifo,      Received: D8   Item Number: 388
%%   1290 ns    Log    PASSED    in receiver_1: RxBurstFifo,      Received: D9   Item Number: 389
%%   1290 ns    Log    PASSED    in receiver_1: RxBurstFifo,      Received: DA   Item Number: 390
%%   1290 ns    Log    PASSED    in receiver_1: RxBurstFifo,      Received: DB   Item Number: 391
%%   1290 ns    Log    PASSED    in receiver_1: RxBurstFifo,      Received: DC   Item Number: 392
%%   1290 ns    Log    PASSED    in receiver_1: RxBurstFifo,      Received: DD   Item Number: 393
%%   1290 ns    Log    PASSED    in receiver_1: RxBurstFifo,      Received: DE   Item Number: 394
%%   1290 ns    Log    PASSED    in receiver_1: RxBurstFifo,      Received: DF   Item Number: 395
%%   1290 ns    Log    PASSED    in receiver_1: RxBurstFifo,      Received: E0   Item Number: 396
%%   1290 ns    Log    PASSED    in receiver_1: RxBurstFifo,      Received: E1   Item Number: 397
%%   1290 ns    Log    PASSED    in receiver_1: RxBurstFifo,      Received: E2   Item Number: 398
%%   1290 ns    Log    PASSED    in receiver_1: RxBurstFifo,      Received: E3   Item Number: 399
%%   1290 ns    Log    PASSED    in receiver_1: RxBurstFifo,      Received: E4   Item Number: 400
%%   1290 ns    Log    PASSED    in receiver_1: RxBurstFifo,      Received: E5   Item Number: 401
%%   1290 ns    Log    PASSED    in receiver_1: RxBurstFifo,      Received: E6   Item Number: 402
%%   1290 ns    Log    PASSED    in receiver_1: RxBurstFifo,      Received: E7   Item Number: 403
%%   1290 ns    Log    PASSED    in receiver_1: RxBurstFifo,      Received: E8   Item Number: 404
%%   1290 ns    Log    PASSED    in receiver_1: RxBurstFifo,      Received: E9   Item Number: 405
%%   1290 ns    Log    PASSED    in receiver_1: RxBurstFifo,      Received: EA   Item Number: 406
%%   1290 ns    Log    PASSED    in receiver_1: RxBurstFifo,      Received: EB   Item Number: 407
%%   1290 ns    Log    PASSED    in receiver_1: RxBurstFifo,      Received: EC   Item Number: 408
%%   1290 ns    Log    PASSED    in receiver_1: RxBurstFifo,      Received: ED   Item Number: 409
%%   1290 ns    Log    PASSED    in receiver_1: RxBurstFifo,      Received: EE   Item Number: 410
%%   1290 ns    Log    PASSED    in receiver_1: RxBurstFifo,      Received: EF   Item Number: 411
%%   1290 ns    Log    PASSED    in receiver_1: RxBurstFifo,      Received: F0   Item Number: 412
%%   1290 ns    Log    PASSED    in receiver_1: RxBurstFifo,      Received: F1   Item Number: 413
%%   1290 ns    Log    PASSED    in receiver_1: RxBurstFifo,      Received: F2   Item Number: 414
%%   1290 ns    Log    PASSED    in receiver_1: RxBurstFifo,      Received: F3   Item Number: 415
%%   1290 ns    Log    PASSED    in receiver_1: RxBurstFifo,      Received: F4   Item Number: 416
%%   1290 ns    Log    PASSED    in receiver_1: RxBurstFifo,      Received: F5   Item Number: 417
%%   1290 ns    Log    PASSED    in receiver_1: RxBurstFifo,      Received: F6   Item Number: 418
%%   1290 ns    Log    PASSED    in receiver_1: RxBurstFifo,      Received: F7   Item Number: 419
%%   1290 ns    Log    PASSED    in receiver_1: RxBurstFifo,      Received: F8   Item Number: 420
%%   1290 ns    Log    PASSED    in receiver_1: RxBurstFifo,      Received: F9   Item Number: 421
%%   1290 ns    Log    PASSED    in receiver_1: RxBurstFifo,      Received: FA   Item Number: 422
%%   1290 ns    Log    PASSED    in receiver_1: RxBurstFifo,      Received: FB   Item Number: 423
%%   1290 ns    Log    PASSED    in receiver_1: RxBurstFifo,      Received: FC   Item Number: 424
%%   1290 ns    Log    PASSED    in receiver_1: RxBurstFifo,      Received: FD   Item Number: 425
%%   1290 ns    Log    INFO      in receiver_1,                   Burst Check.  Operation# 10  Last Data: ----FDFC  TID: 00  TDest: 0  TUser: 0  TLast: 1
%%   1290 ns    Log    PASSED    in receiver_1,                   Burst Check WordCount Received : 62
%%   1290 ns    Log    PASSED    in receiver_1,                   ID Received : 00
%%   1290 ns    Log    PASSED    in receiver_1,                   DEST Received : 0
%%   1290 ns    Log    PASSED    in receiver_1,                   USER Received : 0
%%   1290 ns    Log    PASSED    in receiver_1,                   Last Received : 1
