%% Log    INFO      in transmitter_1,   Axi Stream Send.  TData: 00000001  TStrb: 1111  TKeep: 1111  TID: 00  TDest: 1  TUser: 2  TLast: 0  Operation# 1 at 110 ns
%% Log    INFO      in transmitter_1,   Axi Stream Send.  TData: 00000002  TStrb: 1111  TKeep: 1111  TID: 00  TDest: 1  TUser: 2  TLast: 0  Operation# 2 at 120 ns
%% Log    INFO      in transmitter_1,   Axi Stream Send.  TData: 00000003  TStrb: 1111  TKeep: 1111  TID: 00  TDest: 1  TUser: 2  TLast: 0  Operation# 3 at 130 ns
%% Log    INFO      in transmitter_1,   Axi Stream Send.  TData: 00000004  TStrb: 1111  TKeep: 1111  TID: 00  TDest: 1  TUser: 2  TLast: 0  Operation# 4 at 140 ns
%% Log    INFO      in transmitter_1,   Axi Stream Send.  TData: 00000005  TStrb: 1111  TKeep: 1111  TID: 00  TDest: 1  TUser: 2  TLast: 0  Operation# 5 at 150 ns
%% Log    INFO      in transmitter_1,   Axi Stream Send.  TData: 00000006  TStrb: 1111  TKeep: 1111  TID: 00  TDest: 1  TUser: 2  TLast: 0  Operation# 6 at 160 ns
%% Log    INFO      in transmitter_1,   Axi Stream Send.  TData: 00000007  TStrb: 1111  TKeep: 1111  TID: 00  TDest: 1  TUser: 2  TLast: 0  Operation# 7 at 170 ns
%% Log    INFO      in transmitter_1,   Axi Stream Send.  TData: 00000008  TStrb: 1111  TKeep: 1111  TID: 00  TDest: 1  TUser: 2  TLast: 0  Operation# 8 at 180 ns
%% Log    INFO      in transmitter_1,   Axi Stream Send.  TData: 00000009  TStrb: 1111  TKeep: 1111  TID: 00  TDest: 1  TUser: 2  TLast: 0  Operation# 9 at 190 ns
%% Log    INFO      in transmitter_1,   Axi Stream Send.  TData: 0000000A  TStrb: 1111  TKeep: 1111  TID: 00  TDest: 1  TUser: 2  TLast: 0  Operation# 10 at 200 ns
%% Log    INFO      in transmitter_1,   Axi Stream Send.  TData: 0000000B  TStrb: 1111  TKeep: 1111  TID: 00  TDest: 1  TUser: 2  TLast: 0  Operation# 11 at 210 ns
%% Log    INFO      in transmitter_1,   Axi Stream Send.  TData: 0000000C  TStrb: 1111  TKeep: 1111  TID: 00  TDest: 1  TUser: 2  TLast: 0  Operation# 12 at 220 ns
%% Log    INFO      in transmitter_1,   Axi Stream Send.  TData: 0000000D  TStrb: 1111  TKeep: 1111  TID: 00  TDest: 1  TUser: 2  TLast: 0  Operation# 13 at 230 ns
%% Log    INFO      in transmitter_1,   Axi Stream Send.  TData: 0000000E  TStrb: 1111  TKeep: 1111  TID: 00  TDest: 1  TUser: 2  TLast: 0  Operation# 14 at 240 ns
%% Log    INFO      in transmitter_1,   Axi Stream Send.  TData: 0000000F  TStrb: 1111  TKeep: 1111  TID: 00  TDest: 1  TUser: 2  TLast: 0  Operation# 15 at 250 ns
%% Log    INFO      in transmitter_1,   Axi Stream Send.  TData: 00000010  TStrb: 1111  TKeep: 1111  TID: 00  TDest: 1  TUser: 2  TLast: 0  Operation# 16 at 260 ns
%% Log    INFO      in transmitter_1,   Axi Stream Send.  TData: 00000011  TStrb: 1111  TKeep: 1111  TID: 00  TDest: 1  TUser: 2  TLast: 0  Operation# 17 at 270 ns
%% Log    INFO      in transmitter_1,   Axi Stream Send.  TData: 00000012  TStrb: 1111  TKeep: 1111  TID: 00  TDest: 1  TUser: 2  TLast: 0  Operation# 18 at 280 ns
%% Log    INFO      in transmitter_1,   Axi Stream Send.  TData: 00000013  TStrb: 1111  TKeep: 1111  TID: 00  TDest: 1  TUser: 2  TLast: 0  Operation# 19 at 290 ns
%% Log    INFO      in transmitter_1,   Axi Stream Send.  TData: 00000014  TStrb: 1111  TKeep: 1111  TID: 00  TDest: 1  TUser: 2  TLast: 0  Operation# 20 at 300 ns
%% Log    INFO      in transmitter_1,   Axi Stream Send.  TData: 00000015  TStrb: 1111  TKeep: 1111  TID: 00  TDest: 1  TUser: 2  TLast: 0  Operation# 21 at 310 ns
%% Log    INFO      in transmitter_1,   Axi Stream Send.  TData: 00000016  TStrb: 1111  TKeep: 1111  TID: 00  TDest: 1  TUser: 2  TLast: 0  Operation# 22 at 320 ns
%% Log    INFO      in transmitter_1,   Axi Stream Send.  TData: 00000017  TStrb: 1111  TKeep: 1111  TID: 00  TDest: 1  TUser: 2  TLast: 0  Operation# 23 at 330 ns
%% Log    INFO      in transmitter_1,   Axi Stream Send.  TData: 00000018  TStrb: 1111  TKeep: 1111  TID: 00  TDest: 1  TUser: 2  TLast: 0  Operation# 24 at 340 ns
%% Log    INFO      in transmitter_1,   Axi Stream Send.  TData: 00000019  TStrb: 1111  TKeep: 1111  TID: 00  TDest: 1  TUser: 2  TLast: 0  Operation# 25 at 350 ns
%% Log    INFO      in transmitter_1,   Axi Stream Send.  TData: 0000001A  TStrb: 1111  TKeep: 1111  TID: 00  TDest: 1  TUser: 2  TLast: 0  Operation# 26 at 360 ns
%% Log    INFO      in transmitter_1,   Axi Stream Send.  TData: 0000001B  TStrb: 1111  TKeep: 1111  TID: 00  TDest: 1  TUser: 2  TLast: 0  Operation# 27 at 370 ns
%% Log    INFO      in transmitter_1,   Axi Stream Send.  TData: 0000001C  TStrb: 1111  TKeep: 1111  TID: 00  TDest: 1  TUser: 2  TLast: 0  Operation# 28 at 380 ns
%% Log    INFO      in transmitter_1,   Axi Stream Send.  TData: 0000001D  TStrb: 1111  TKeep: 1111  TID: 00  TDest: 1  TUser: 2  TLast: 0  Operation# 29 at 390 ns
%% Log    INFO      in transmitter_1,   Axi Stream Send.  TData: 0000001E  TStrb: 1111  TKeep: 1111  TID: 00  TDest: 1  TUser: 2  TLast: 0  Operation# 30 at 400 ns
%% Log    INFO      in transmitter_1,   Axi Stream Send.  TData: 0000001F  TStrb: 1111  TKeep: 1111  TID: 00  TDest: 1  TUser: 2  TLast: 0  Operation# 31 at 410 ns
%% Log    INFO      in transmitter_1,   Axi Stream Send.  TData: 00000020  TStrb: 1111  TKeep: 1111  TID: 00  TDest: 1  TUser: 2  TLast: 0  Operation# 32 at 420 ns
%% Log    INFO      in transmitter_1,   Axi Stream Send.  TData: 00000021  TStrb: 1111  TKeep: 1111  TID: 00  TDest: 1  TUser: 2  TLast: 0  Operation# 33 at 430 ns
%% Log    INFO      in transmitter_1,   Axi Stream Send.  TData: 00000022  TStrb: 1111  TKeep: 1111  TID: 00  TDest: 1  TUser: 2  TLast: 0  Operation# 34 at 440 ns
%% Log    INFO      in transmitter_1,   Axi Stream Send.  TData: 00000023  TStrb: 1111  TKeep: 1111  TID: 00  TDest: 1  TUser: 2  TLast: 0  Operation# 35 at 450 ns
%% Log    INFO      in transmitter_1,   Axi Stream Send.  TData: 00000024  TStrb: 1111  TKeep: 1111  TID: 00  TDest: 1  TUser: 2  TLast: 0  Operation# 36 at 460 ns
%% Log    INFO      in transmitter_1,   Axi Stream Send.  TData: 00000025  TStrb: 1111  TKeep: 1111  TID: 00  TDest: 1  TUser: 2  TLast: 0  Operation# 37 at 470 ns
%% Log    INFO      in transmitter_1,   Axi Stream Send.  TData: 00000026  TStrb: 1111  TKeep: 1111  TID: 00  TDest: 1  TUser: 2  TLast: 0  Operation# 38 at 480 ns
%% Log    INFO      in transmitter_1,   Axi Stream Send.  TData: 00000027  TStrb: 1111  TKeep: 1111  TID: 00  TDest: 1  TUser: 2  TLast: 0  Operation# 39 at 490 ns
%% Log    INFO      in transmitter_1,   Axi Stream Send.  TData: 00000028  TStrb: 1111  TKeep: 1111  TID: 00  TDest: 1  TUser: 2  TLast: 0  Operation# 40 at 500 ns
%% Log    INFO      in transmitter_1,   Axi Stream Send.  TData: 00000029  TStrb: 1111  TKeep: 1111  TID: 00  TDest: 1  TUser: 2  TLast: 0  Operation# 41 at 510 ns
%% Log    INFO      in transmitter_1,   Axi Stream Send.  TData: 0000002A  TStrb: 1111  TKeep: 1111  TID: 00  TDest: 1  TUser: 2  TLast: 0  Operation# 42 at 520 ns
%% Log    INFO      in transmitter_1,   Axi Stream Send.  TData: 0000002B  TStrb: 1111  TKeep: 1111  TID: 00  TDest: 1  TUser: 2  TLast: 0  Operation# 43 at 530 ns
%% Log    INFO      in transmitter_1,   Axi Stream Send.  TData: 0000002C  TStrb: 1111  TKeep: 1111  TID: 00  TDest: 1  TUser: 2  TLast: 0  Operation# 44 at 540 ns
%% Log    INFO      in transmitter_1,   Axi Stream Send.  TData: 0000002D  TStrb: 1111  TKeep: 1111  TID: 00  TDest: 1  TUser: 2  TLast: 0  Operation# 45 at 550 ns
%% Log    INFO      in transmitter_1,   Axi Stream Send.  TData: 0000002E  TStrb: 1111  TKeep: 1111  TID: 00  TDest: 1  TUser: 2  TLast: 0  Operation# 46 at 560 ns
%% Log    INFO      in transmitter_1,   Axi Stream Send.  TData: 0000002F  TStrb: 1111  TKeep: 1111  TID: 00  TDest: 1  TUser: 2  TLast: 0  Operation# 47 at 570 ns
%% Log    INFO      in transmitter_1,   Axi Stream Send.  TData: 00000030  TStrb: 1111  TKeep: 1111  TID: 00  TDest: 1  TUser: 2  TLast: 0  Operation# 48 at 580 ns
%% Log    INFO      in transmitter_1,   Axi Stream Send.  TData: 00000031  TStrb: 1111  TKeep: 1111  TID: 00  TDest: 1  TUser: 2  TLast: 0  Operation# 49 at 590 ns
%% Log    INFO      in transmitter_1,   Axi Stream Send.  TData: 00000032  TStrb: 1111  TKeep: 1111  TID: 00  TDest: 1  TUser: 2  TLast: 0  Operation# 50 at 600 ns
%% Log    INFO      in transmitter_1,   Axi Stream Send.  TData: 00000033  TStrb: 1111  TKeep: 1111  TID: 00  TDest: 1  TUser: 2  TLast: 0  Operation# 51 at 610 ns
%% Log    INFO      in transmitter_1,   Axi Stream Send.  TData: 00000034  TStrb: 1111  TKeep: 1111  TID: 00  TDest: 1  TUser: 2  TLast: 0  Operation# 52 at 620 ns
%% Log    INFO      in transmitter_1,   Axi Stream Send.  TData: 00000035  TStrb: 1111  TKeep: 1111  TID: 00  TDest: 1  TUser: 2  TLast: 0  Operation# 53 at 630 ns
%% Log    INFO      in transmitter_1,   Axi Stream Send.  TData: 00000036  TStrb: 1111  TKeep: 1111  TID: 00  TDest: 1  TUser: 2  TLast: 0  Operation# 54 at 640 ns
%% Log    INFO      in transmitter_1,   Axi Stream Send.  TData: 00000037  TStrb: 1111  TKeep: 1111  TID: 00  TDest: 1  TUser: 2  TLast: 0  Operation# 55 at 650 ns
%% Log    INFO      in transmitter_1,   Axi Stream Send.  TData: 00000038  TStrb: 1111  TKeep: 1111  TID: 00  TDest: 1  TUser: 2  TLast: 0  Operation# 56 at 660 ns
%% Log    INFO      in transmitter_1,   Axi Stream Send.  TData: 00000039  TStrb: 1111  TKeep: 1111  TID: 00  TDest: 1  TUser: 2  TLast: 0  Operation# 57 at 670 ns
%% Log    INFO      in transmitter_1,   Axi Stream Send.  TData: 0000003A  TStrb: 1111  TKeep: 1111  TID: 00  TDest: 1  TUser: 2  TLast: 0  Operation# 58 at 680 ns
%% Log    INFO      in transmitter_1,   Axi Stream Send.  TData: 0000003B  TStrb: 1111  TKeep: 1111  TID: 00  TDest: 1  TUser: 2  TLast: 0  Operation# 59 at 690 ns
%% Log    INFO      in transmitter_1,   Axi Stream Send.  TData: 0000003C  TStrb: 1111  TKeep: 1111  TID: 00  TDest: 1  TUser: 2  TLast: 0  Operation# 60 at 700 ns
%% Log    INFO      in transmitter_1,   Axi Stream Send.  TData: 0000003D  TStrb: 1111  TKeep: 1111  TID: 00  TDest: 1  TUser: 2  TLast: 0  Operation# 61 at 710 ns
%% Log    INFO      in transmitter_1,   Axi Stream Send.  TData: 0000003E  TStrb: 1111  TKeep: 1111  TID: 00  TDest: 1  TUser: 2  TLast: 0  Operation# 62 at 720 ns
%% Log    INFO      in transmitter_1,   Axi Stream Send.  TData: 0000003F  TStrb: 1111  TKeep: 1111  TID: 00  TDest: 1  TUser: 2  TLast: 0  Operation# 63 at 730 ns
%% Log    INFO      in transmitter_1,   Axi Stream Send.  TData: 00000040  TStrb: 1111  TKeep: 1111  TID: 00  TDest: 1  TUser: 2  TLast: 1  Operation# 64 at 740 ns
%% Log    INFO      in receiver_1,   Burst Receive.  Operation# 1  Last Data: 00000040  TID: 00  TDest: 1  TUser: 2  TLast: 1 at 750 ns
%% Log    PASSED    in Default,   Receiver: NumBytes Received Received : 256 at 750 ns
%% Log    PASSED    in Default,   Receiver, ID:  Received : 00 at 750 ns
%% Log    PASSED    in Default,   Receiver, Dest:  Received : 1 at 750 ns
%% Log    PASSED    in Default,   Receiver, User:  Received : 2 at 750 ns
%% Log    PASSED    in Default,   Receiver:  Received : 00000001 at 750 ns
%% Log    PASSED    in Default,   Receiver:  Received : 00000002 at 750 ns
%% Log    PASSED    in Default,   Receiver:  Received : 00000003 at 750 ns
%% Log    PASSED    in Default,   Receiver:  Received : 00000004 at 750 ns
%% Log    PASSED    in Default,   Receiver:  Received : 00000005 at 750 ns
%% Log    PASSED    in Default,   Receiver:  Received : 00000006 at 750 ns
%% Log    PASSED    in Default,   Receiver:  Received : 00000007 at 750 ns
%% Log    PASSED    in Default,   Receiver:  Received : 00000008 at 750 ns
%% Log    PASSED    in Default,   Receiver:  Received : 00000009 at 750 ns
%% Log    PASSED    in Default,   Receiver:  Received : 0000000A at 750 ns
%% Log    PASSED    in Default,   Receiver:  Received : 0000000B at 750 ns
%% Log    PASSED    in Default,   Receiver:  Received : 0000000C at 750 ns
%% Log    PASSED    in Default,   Receiver:  Received : 0000000D at 750 ns
%% Log    PASSED    in Default,   Receiver:  Received : 0000000E at 750 ns
%% Log    PASSED    in Default,   Receiver:  Received : 0000000F at 750 ns
%% Log    PASSED    in Default,   Receiver:  Received : 00000010 at 750 ns
%% Log    PASSED    in Default,   Receiver:  Received : 00000011 at 750 ns
%% Log    PASSED    in Default,   Receiver:  Received : 00000012 at 750 ns
%% Log    PASSED    in Default,   Receiver:  Received : 00000013 at 750 ns
%% Log    PASSED    in Default,   Receiver:  Received : 00000014 at 750 ns
%% Log    PASSED    in Default,   Receiver:  Received : 00000015 at 750 ns
%% Log    PASSED    in Default,   Receiver:  Received : 00000016 at 750 ns
%% Log    PASSED    in Default,   Receiver:  Received : 00000017 at 750 ns
%% Log    PASSED    in Default,   Receiver:  Received : 00000018 at 750 ns
%% Log    PASSED    in Default,   Receiver:  Received : 00000019 at 750 ns
%% Log    PASSED    in Default,   Receiver:  Received : 0000001A at 750 ns
%% Log    PASSED    in Default,   Receiver:  Received : 0000001B at 750 ns
%% Log    PASSED    in Default,   Receiver:  Received : 0000001C at 750 ns
%% Log    PASSED    in Default,   Receiver:  Received : 0000001D at 750 ns
%% Log    PASSED    in Default,   Receiver:  Received : 0000001E at 750 ns
%% Log    PASSED    in Default,   Receiver:  Received : 0000001F at 750 ns
%% Log    PASSED    in Default,   Receiver:  Received : 00000020 at 750 ns
%% Log    PASSED    in Default,   Receiver:  Received : 00000021 at 750 ns
%% Log    PASSED    in Default,   Receiver:  Received : 00000022 at 750 ns
%% Log    PASSED    in Default,   Receiver:  Received : 00000023 at 750 ns
%% Log    PASSED    in Default,   Receiver:  Received : 00000024 at 750 ns
%% Log    PASSED    in Default,   Receiver:  Received : 00000025 at 750 ns
%% Log    PASSED    in Default,   Receiver:  Received : 00000026 at 750 ns
%% Log    PASSED    in Default,   Receiver:  Received : 00000027 at 750 ns
%% Log    PASSED    in Default,   Receiver:  Received : 00000028 at 750 ns
%% Log    PASSED    in Default,   Receiver:  Received : 00000029 at 750 ns
%% Log    PASSED    in Default,   Receiver:  Received : 0000002A at 750 ns
%% Log    PASSED    in Default,   Receiver:  Received : 0000002B at 750 ns
%% Log    PASSED    in Default,   Receiver:  Received : 0000002C at 750 ns
%% Log    PASSED    in Default,   Receiver:  Received : 0000002D at 750 ns
%% Log    PASSED    in Default,   Receiver:  Received : 0000002E at 750 ns
%% Log    PASSED    in Default,   Receiver:  Received : 0000002F at 750 ns
%% Log    PASSED    in Default,   Receiver:  Received : 00000030 at 750 ns
%% Log    PASSED    in Default,   Receiver:  Received : 00000031 at 750 ns
%% Log    PASSED    in Default,   Receiver:  Received : 00000032 at 750 ns
%% Log    PASSED    in Default,   Receiver:  Received : 00000033 at 750 ns
%% Log    PASSED    in Default,   Receiver:  Received : 00000034 at 750 ns
%% Log    PASSED    in Default,   Receiver:  Received : 00000035 at 750 ns
%% Log    PASSED    in Default,   Receiver:  Received : 00000036 at 750 ns
%% Log    PASSED    in Default,   Receiver:  Received : 00000037 at 750 ns
%% Log    PASSED    in Default,   Receiver:  Received : 00000038 at 750 ns
%% Log    PASSED    in Default,   Receiver:  Received : 00000039 at 750 ns
%% Log    PASSED    in Default,   Receiver:  Received : 0000003A at 750 ns
%% Log    PASSED    in Default,   Receiver:  Received : 0000003B at 750 ns
%% Log    PASSED    in Default,   Receiver:  Received : 0000003C at 750 ns
%% Log    PASSED    in Default,   Receiver:  Received : 0000003D at 750 ns
%% Log    PASSED    in Default,   Receiver:  Received : 0000003E at 750 ns
%% Log    PASSED    in Default,   Receiver:  Received : 0000003F at 750 ns
%% Log    PASSED    in Default,   Receiver:  Received : 00000040 at 750 ns
%% Log    INFO      in transmitter_1,   Axi Stream Send.  TData: 00000041  TStrb: 1111  TKeep: 1111  TID: 00  TDest: 1  TUser: 2  TLast: 0  Operation# 65 at 750 ns
%% Log    INFO      in transmitter_1,   Axi Stream Send.  TData: 00000042  TStrb: 1111  TKeep: 1111  TID: 00  TDest: 1  TUser: 2  TLast: 0  Operation# 66 at 760 ns
%% Log    INFO      in transmitter_1,   Axi Stream Send.  TData: 00000043  TStrb: 1111  TKeep: 1111  TID: 00  TDest: 1  TUser: 2  TLast: 0  Operation# 67 at 770 ns
%% Log    INFO      in transmitter_1,   Axi Stream Send.  TData: 00000044  TStrb: 1111  TKeep: 1111  TID: 00  TDest: 1  TUser: 2  TLast: 0  Operation# 68 at 780 ns
%% Log    INFO      in transmitter_1,   Axi Stream Send.  TData: 00000045  TStrb: 1111  TKeep: 1111  TID: 00  TDest: 1  TUser: 2  TLast: 0  Operation# 69 at 790 ns
%% Log    INFO      in transmitter_1,   Axi Stream Send.  TData: 00000046  TStrb: 1111  TKeep: 1111  TID: 00  TDest: 1  TUser: 2  TLast: 0  Operation# 70 at 800 ns
%% Log    INFO      in transmitter_1,   Axi Stream Send.  TData: 00000047  TStrb: 1111  TKeep: 1111  TID: 00  TDest: 1  TUser: 2  TLast: 0  Operation# 71 at 810 ns
%% Log    INFO      in transmitter_1,   Axi Stream Send.  TData: 00000048  TStrb: 1111  TKeep: 1111  TID: 00  TDest: 1  TUser: 2  TLast: 0  Operation# 72 at 820 ns
%% Log    INFO      in transmitter_1,   Axi Stream Send.  TData: 00000049  TStrb: 1111  TKeep: 1111  TID: 00  TDest: 1  TUser: 2  TLast: 0  Operation# 73 at 830 ns
%% Log    INFO      in transmitter_1,   Axi Stream Send.  TData: 0000004A  TStrb: 1111  TKeep: 1111  TID: 00  TDest: 1  TUser: 2  TLast: 0  Operation# 74 at 840 ns
%% Log    INFO      in transmitter_1,   Axi Stream Send.  TData: 0000004B  TStrb: 1111  TKeep: 1111  TID: 00  TDest: 1  TUser: 2  TLast: 0  Operation# 75 at 850 ns
%% Log    INFO      in transmitter_1,   Axi Stream Send.  TData: 0000004C  TStrb: 1111  TKeep: 1111  TID: 00  TDest: 1  TUser: 2  TLast: 0  Operation# 76 at 860 ns
%% Log    INFO      in transmitter_1,   Axi Stream Send.  TData: 0000004D  TStrb: 1111  TKeep: 1111  TID: 00  TDest: 1  TUser: 2  TLast: 0  Operation# 77 at 870 ns
%% Log    INFO      in transmitter_1,   Axi Stream Send.  TData: 0000004E  TStrb: 1111  TKeep: 1111  TID: 00  TDest: 1  TUser: 2  TLast: 0  Operation# 78 at 880 ns
%% Log    INFO      in transmitter_1,   Axi Stream Send.  TData: 0000004F  TStrb: 1111  TKeep: 1111  TID: 00  TDest: 1  TUser: 2  TLast: 0  Operation# 79 at 890 ns
%% Log    INFO      in transmitter_1,   Axi Stream Send.  TData: 00000050  TStrb: 1111  TKeep: 1111  TID: 00  TDest: 1  TUser: 2  TLast: 0  Operation# 80 at 900 ns
%% Log    INFO      in transmitter_1,   Axi Stream Send.  TData: 00000051  TStrb: 1111  TKeep: 1111  TID: 00  TDest: 1  TUser: 2  TLast: 0  Operation# 81 at 910 ns
%% Log    INFO      in transmitter_1,   Axi Stream Send.  TData: 00000052  TStrb: 1111  TKeep: 1111  TID: 00  TDest: 1  TUser: 2  TLast: 0  Operation# 82 at 920 ns
%% Log    INFO      in transmitter_1,   Axi Stream Send.  TData: 00000053  TStrb: 1111  TKeep: 1111  TID: 00  TDest: 1  TUser: 2  TLast: 0  Operation# 83 at 930 ns
%% Log    INFO      in transmitter_1,   Axi Stream Send.  TData: 00000054  TStrb: 1111  TKeep: 1111  TID: 00  TDest: 1  TUser: 2  TLast: 0  Operation# 84 at 940 ns
%% Log    INFO      in transmitter_1,   Axi Stream Send.  TData: 00000055  TStrb: 1111  TKeep: 1111  TID: 00  TDest: 1  TUser: 2  TLast: 0  Operation# 85 at 950 ns
%% Log    INFO      in transmitter_1,   Axi Stream Send.  TData: 00000056  TStrb: 1111  TKeep: 1111  TID: 00  TDest: 1  TUser: 2  TLast: 0  Operation# 86 at 960 ns
%% Log    INFO      in transmitter_1,   Axi Stream Send.  TData: 00000057  TStrb: 1111  TKeep: 1111  TID: 00  TDest: 1  TUser: 2  TLast: 0  Operation# 87 at 970 ns
%% Log    INFO      in transmitter_1,   Axi Stream Send.  TData: 00000058  TStrb: 1111  TKeep: 1111  TID: 00  TDest: 1  TUser: 2  TLast: 0  Operation# 88 at 980 ns
%% Log    INFO      in transmitter_1,   Axi Stream Send.  TData: 00000059  TStrb: 1111  TKeep: 1111  TID: 00  TDest: 1  TUser: 2  TLast: 0  Operation# 89 at 990 ns
%% Log    INFO      in transmitter_1,   Axi Stream Send.  TData: 0000005A  TStrb: 1111  TKeep: 1111  TID: 00  TDest: 1  TUser: 2  TLast: 0  Operation# 90 at 1000 ns
%% Log    INFO      in transmitter_1,   Axi Stream Send.  TData: 0000005B  TStrb: 1111  TKeep: 1111  TID: 00  TDest: 1  TUser: 2  TLast: 0  Operation# 91 at 1010 ns
%% Log    INFO      in transmitter_1,   Axi Stream Send.  TData: 0000005C  TStrb: 1111  TKeep: 1111  TID: 00  TDest: 1  TUser: 2  TLast: 0  Operation# 92 at 1020 ns
%% Log    INFO      in transmitter_1,   Axi Stream Send.  TData: 0000005D  TStrb: 1111  TKeep: 1111  TID: 00  TDest: 1  TUser: 2  TLast: 0  Operation# 93 at 1030 ns
%% Log    INFO      in transmitter_1,   Axi Stream Send.  TData: 0000005E  TStrb: 1111  TKeep: 1111  TID: 00  TDest: 1  TUser: 2  TLast: 0  Operation# 94 at 1040 ns
%% Log    INFO      in transmitter_1,   Axi Stream Send.  TData: 0000005F  TStrb: 1111  TKeep: 1111  TID: 00  TDest: 1  TUser: 2  TLast: 0  Operation# 95 at 1050 ns
%% Log    INFO      in transmitter_1,   Axi Stream Send.  TData: 00000060  TStrb: 1111  TKeep: 1111  TID: 00  TDest: 1  TUser: 2  TLast: 0  Operation# 96 at 1060 ns
%% Log    INFO      in transmitter_1,   Axi Stream Send.  TData: 00000061  TStrb: 1111  TKeep: 1111  TID: 00  TDest: 1  TUser: 2  TLast: 0  Operation# 97 at 1070 ns
%% Log    INFO      in transmitter_1,   Axi Stream Send.  TData: 00000062  TStrb: 1111  TKeep: 1111  TID: 00  TDest: 1  TUser: 2  TLast: 0  Operation# 98 at 1080 ns
%% Log    INFO      in transmitter_1,   Axi Stream Send.  TData: 00000063  TStrb: 1111  TKeep: 1111  TID: 00  TDest: 1  TUser: 2  TLast: 0  Operation# 99 at 1090 ns
%% Log    INFO      in transmitter_1,   Axi Stream Send.  TData: 00000064  TStrb: 1111  TKeep: 1111  TID: 00  TDest: 1  TUser: 2  TLast: 0  Operation# 100 at 1100 ns
%% Log    INFO      in transmitter_1,   Axi Stream Send.  TData: 00000065  TStrb: 1111  TKeep: 1111  TID: 00  TDest: 1  TUser: 2  TLast: 0  Operation# 101 at 1110 ns
%% Log    INFO      in transmitter_1,   Axi Stream Send.  TData: 00000066  TStrb: 1111  TKeep: 1111  TID: 00  TDest: 1  TUser: 2  TLast: 0  Operation# 102 at 1120 ns
%% Log    INFO      in transmitter_1,   Axi Stream Send.  TData: 00000067  TStrb: 1111  TKeep: 1111  TID: 00  TDest: 1  TUser: 2  TLast: 0  Operation# 103 at 1130 ns
%% Log    INFO      in transmitter_1,   Axi Stream Send.  TData: 00000068  TStrb: 1111  TKeep: 1111  TID: 00  TDest: 1  TUser: 2  TLast: 0  Operation# 104 at 1140 ns
%% Log    INFO      in transmitter_1,   Axi Stream Send.  TData: 00000069  TStrb: 1111  TKeep: 1111  TID: 00  TDest: 1  TUser: 2  TLast: 0  Operation# 105 at 1150 ns
%% Log    INFO      in transmitter_1,   Axi Stream Send.  TData: 0000006A  TStrb: 1111  TKeep: 1111  TID: 00  TDest: 1  TUser: 2  TLast: 0  Operation# 106 at 1160 ns
%% Log    INFO      in transmitter_1,   Axi Stream Send.  TData: 0000006B  TStrb: 1111  TKeep: 1111  TID: 00  TDest: 1  TUser: 2  TLast: 0  Operation# 107 at 1170 ns
%% Log    INFO      in transmitter_1,   Axi Stream Send.  TData: 0000006C  TStrb: 1111  TKeep: 1111  TID: 00  TDest: 1  TUser: 2  TLast: 0  Operation# 108 at 1180 ns
%% Log    INFO      in transmitter_1,   Axi Stream Send.  TData: 0000006D  TStrb: 1111  TKeep: 1111  TID: 00  TDest: 1  TUser: 2  TLast: 0  Operation# 109 at 1190 ns
%% Log    INFO      in transmitter_1,   Axi Stream Send.  TData: 0000006E  TStrb: 1111  TKeep: 1111  TID: 00  TDest: 1  TUser: 2  TLast: 0  Operation# 110 at 1200 ns
%% Log    INFO      in transmitter_1,   Axi Stream Send.  TData: 0000006F  TStrb: 1111  TKeep: 1111  TID: 00  TDest: 1  TUser: 2  TLast: 0  Operation# 111 at 1210 ns
%% Log    INFO      in transmitter_1,   Axi Stream Send.  TData: 00000070  TStrb: 1111  TKeep: 1111  TID: 00  TDest: 1  TUser: 2  TLast: 0  Operation# 112 at 1220 ns
%% Log    INFO      in transmitter_1,   Axi Stream Send.  TData: 00000071  TStrb: 1111  TKeep: 1111  TID: 00  TDest: 1  TUser: 2  TLast: 0  Operation# 113 at 1230 ns
%% Log    INFO      in transmitter_1,   Axi Stream Send.  TData: 00000072  TStrb: 1111  TKeep: 1111  TID: 00  TDest: 1  TUser: 2  TLast: 0  Operation# 114 at 1240 ns
%% Log    INFO      in transmitter_1,   Axi Stream Send.  TData: 00000073  TStrb: 1111  TKeep: 1111  TID: 00  TDest: 1  TUser: 2  TLast: 0  Operation# 115 at 1250 ns
%% Log    INFO      in transmitter_1,   Axi Stream Send.  TData: 00000074  TStrb: 1111  TKeep: 1111  TID: 00  TDest: 1  TUser: 2  TLast: 0  Operation# 116 at 1260 ns
%% Log    INFO      in transmitter_1,   Axi Stream Send.  TData: 00000075  TStrb: 1111  TKeep: 1111  TID: 00  TDest: 1  TUser: 2  TLast: 0  Operation# 117 at 1270 ns
%% Log    INFO      in transmitter_1,   Axi Stream Send.  TData: 00000076  TStrb: 1111  TKeep: 1111  TID: 00  TDest: 1  TUser: 2  TLast: 0  Operation# 118 at 1280 ns
%% Log    INFO      in transmitter_1,   Axi Stream Send.  TData: 00000077  TStrb: 1111  TKeep: 1111  TID: 00  TDest: 1  TUser: 2  TLast: 0  Operation# 119 at 1290 ns
%% Log    INFO      in transmitter_1,   Axi Stream Send.  TData: 00000078  TStrb: 1111  TKeep: 1111  TID: 00  TDest: 1  TUser: 2  TLast: 0  Operation# 120 at 1300 ns
%% Log    INFO      in transmitter_1,   Axi Stream Send.  TData: 00000079  TStrb: 1111  TKeep: 1111  TID: 00  TDest: 1  TUser: 2  TLast: 0  Operation# 121 at 1310 ns
%% Log    INFO      in transmitter_1,   Axi Stream Send.  TData: 0000007A  TStrb: 1111  TKeep: 1111  TID: 00  TDest: 1  TUser: 2  TLast: 0  Operation# 122 at 1320 ns
%% Log    INFO      in transmitter_1,   Axi Stream Send.  TData: 0000007B  TStrb: 1111  TKeep: 1111  TID: 00  TDest: 1  TUser: 2  TLast: 0  Operation# 123 at 1330 ns
%% Log    INFO      in transmitter_1,   Axi Stream Send.  TData: 0000007C  TStrb: 1111  TKeep: 1111  TID: 00  TDest: 1  TUser: 2  TLast: 0  Operation# 124 at 1340 ns
%% Log    INFO      in transmitter_1,   Axi Stream Send.  TData: 0000007D  TStrb: 1111  TKeep: 1111  TID: 00  TDest: 1  TUser: 2  TLast: 0  Operation# 125 at 1350 ns
%% Log    INFO      in transmitter_1,   Axi Stream Send.  TData: 0000007E  TStrb: 1111  TKeep: 1111  TID: 00  TDest: 1  TUser: 2  TLast: 0  Operation# 126 at 1360 ns
%% Log    INFO      in transmitter_1,   Axi Stream Send.  TData: 0000007F  TStrb: 1111  TKeep: 1111  TID: 00  TDest: 1  TUser: 2  TLast: 0  Operation# 127 at 1370 ns
%% Log    INFO      in transmitter_1,   Axi Stream Send.  TData: 00000080  TStrb: 1111  TKeep: 1111  TID: 00  TDest: 1  TUser: 2  TLast: 0  Operation# 128 at 1380 ns
%% Log    INFO      in transmitter_1,   Axi Stream Send.  TData: 00000081  TStrb: 1111  TKeep: 1111  TID: 00  TDest: 1  TUser: 2  TLast: 1  Operation# 129 at 1390 ns
%% Log    INFO      in transmitter_1,   Axi Stream Send.  TData: 00000082  TStrb: 1111  TKeep: 1111  TID: 01  TDest: 2  TUser: 3  TLast: 0  Operation# 130 at 1400 ns
%% Log    INFO      in receiver_1,   Burst Receive.  Operation# 2  Last Data: 00000081  TID: 00  TDest: 1  TUser: 2  TLast: 1 at 1400 ns
%% Log    PASSED    in Default,   Receiver: NumBytes Received Received : 260 at 1400 ns
%% Log    PASSED    in Default,   Receiver, ID:  Received : 00 at 1400 ns
%% Log    PASSED    in Default,   Receiver, Dest:  Received : 1 at 1400 ns
%% Log    PASSED    in Default,   Receiver, User:  Received : 2 at 1400 ns
%% Log    PASSED    in Default,   Receiver:  Received : 00000041 at 1400 ns
%% Log    PASSED    in Default,   Receiver:  Received : 00000042 at 1400 ns
%% Log    PASSED    in Default,   Receiver:  Received : 00000043 at 1400 ns
%% Log    PASSED    in Default,   Receiver:  Received : 00000044 at 1400 ns
%% Log    PASSED    in Default,   Receiver:  Received : 00000045 at 1400 ns
%% Log    PASSED    in Default,   Receiver:  Received : 00000046 at 1400 ns
%% Log    PASSED    in Default,   Receiver:  Received : 00000047 at 1400 ns
%% Log    PASSED    in Default,   Receiver:  Received : 00000048 at 1400 ns
%% Log    PASSED    in Default,   Receiver:  Received : 00000049 at 1400 ns
%% Log    PASSED    in Default,   Receiver:  Received : 0000004A at 1400 ns
%% Log    PASSED    in Default,   Receiver:  Received : 0000004B at 1400 ns
%% Log    PASSED    in Default,   Receiver:  Received : 0000004C at 1400 ns
%% Log    PASSED    in Default,   Receiver:  Received : 0000004D at 1400 ns
%% Log    PASSED    in Default,   Receiver:  Received : 0000004E at 1400 ns
%% Log    PASSED    in Default,   Receiver:  Received : 0000004F at 1400 ns
%% Log    PASSED    in Default,   Receiver:  Received : 00000050 at 1400 ns
%% Log    PASSED    in Default,   Receiver:  Received : 00000051 at 1400 ns
%% Log    PASSED    in Default,   Receiver:  Received : 00000052 at 1400 ns
%% Log    PASSED    in Default,   Receiver:  Received : 00000053 at 1400 ns
%% Log    PASSED    in Default,   Receiver:  Received : 00000054 at 1400 ns
%% Log    PASSED    in Default,   Receiver:  Received : 00000055 at 1400 ns
%% Log    PASSED    in Default,   Receiver:  Received : 00000056 at 1400 ns
%% Log    PASSED    in Default,   Receiver:  Received : 00000057 at 1400 ns
%% Log    PASSED    in Default,   Receiver:  Received : 00000058 at 1400 ns
%% Log    PASSED    in Default,   Receiver:  Received : 00000059 at 1400 ns
%% Log    PASSED    in Default,   Receiver:  Received : 0000005A at 1400 ns
%% Log    PASSED    in Default,   Receiver:  Received : 0000005B at 1400 ns
%% Log    PASSED    in Default,   Receiver:  Received : 0000005C at 1400 ns
%% Log    PASSED    in Default,   Receiver:  Received : 0000005D at 1400 ns
%% Log    PASSED    in Default,   Receiver:  Received : 0000005E at 1400 ns
%% Log    PASSED    in Default,   Receiver:  Received : 0000005F at 1400 ns
%% Log    PASSED    in Default,   Receiver:  Received : 00000060 at 1400 ns
%% Log    PASSED    in Default,   Receiver:  Received : 00000061 at 1400 ns
%% Log    PASSED    in Default,   Receiver:  Received : 00000062 at 1400 ns
%% Log    PASSED    in Default,   Receiver:  Received : 00000063 at 1400 ns
%% Log    PASSED    in Default,   Receiver:  Received : 00000064 at 1400 ns
%% Log    PASSED    in Default,   Receiver:  Received : 00000065 at 1400 ns
%% Log    PASSED    in Default,   Receiver:  Received : 00000066 at 1400 ns
%% Log    PASSED    in Default,   Receiver:  Received : 00000067 at 1400 ns
%% Log    PASSED    in Default,   Receiver:  Received : 00000068 at 1400 ns
%% Log    PASSED    in Default,   Receiver:  Received : 00000069 at 1400 ns
%% Log    PASSED    in Default,   Receiver:  Received : 0000006A at 1400 ns
%% Log    PASSED    in Default,   Receiver:  Received : 0000006B at 1400 ns
%% Log    PASSED    in Default,   Receiver:  Received : 0000006C at 1400 ns
%% Log    PASSED    in Default,   Receiver:  Received : 0000006D at 1400 ns
%% Log    PASSED    in Default,   Receiver:  Received : 0000006E at 1400 ns
%% Log    PASSED    in Default,   Receiver:  Received : 0000006F at 1400 ns
%% Log    PASSED    in Default,   Receiver:  Received : 00000070 at 1400 ns
%% Log    PASSED    in Default,   Receiver:  Received : 00000071 at 1400 ns
%% Log    PASSED    in Default,   Receiver:  Received : 00000072 at 1400 ns
%% Log    PASSED    in Default,   Receiver:  Received : 00000073 at 1400 ns
%% Log    PASSED    in Default,   Receiver:  Received : 00000074 at 1400 ns
%% Log    PASSED    in Default,   Receiver:  Received : 00000075 at 1400 ns
%% Log    PASSED    in Default,   Receiver:  Received : 00000076 at 1400 ns
%% Log    PASSED    in Default,   Receiver:  Received : 00000077 at 1400 ns
%% Log    PASSED    in Default,   Receiver:  Received : 00000078 at 1400 ns
%% Log    PASSED    in Default,   Receiver:  Received : 00000079 at 1400 ns
%% Log    PASSED    in Default,   Receiver:  Received : 0000007A at 1400 ns
%% Log    PASSED    in Default,   Receiver:  Received : 0000007B at 1400 ns
%% Log    PASSED    in Default,   Receiver:  Received : 0000007C at 1400 ns
%% Log    PASSED    in Default,   Receiver:  Received : 0000007D at 1400 ns
%% Log    PASSED    in Default,   Receiver:  Received : 0000007E at 1400 ns
%% Log    PASSED    in Default,   Receiver:  Received : 0000007F at 1400 ns
%% Log    PASSED    in Default,   Receiver:  Received : 00000080 at 1400 ns
%% Log    PASSED    in Default,   Receiver:  Received : 00000081 at 1400 ns
%% Log    INFO      in transmitter_1,   Axi Stream Send.  TData: 00000083  TStrb: 1111  TKeep: 1111  TID: 01  TDest: 2  TUser: 3  TLast: 0  Operation# 131 at 1410 ns
%% Log    INFO      in transmitter_1,   Axi Stream Send.  TData: 00000084  TStrb: 1111  TKeep: 1111  TID: 01  TDest: 2  TUser: 3  TLast: 0  Operation# 132 at 1420 ns
%% Log    INFO      in transmitter_1,   Axi Stream Send.  TData: 00000085  TStrb: 1111  TKeep: 1111  TID: 01  TDest: 2  TUser: 3  TLast: 0  Operation# 133 at 1430 ns
%% Log    INFO      in transmitter_1,   Axi Stream Send.  TData: 00000086  TStrb: 1111  TKeep: 1111  TID: 01  TDest: 2  TUser: 3  TLast: 0  Operation# 134 at 1440 ns
%% Log    INFO      in transmitter_1,   Axi Stream Send.  TData: 00000087  TStrb: 1111  TKeep: 1111  TID: 01  TDest: 2  TUser: 3  TLast: 0  Operation# 135 at 1450 ns
%% Log    INFO      in transmitter_1,   Axi Stream Send.  TData: 00000088  TStrb: 1111  TKeep: 1111  TID: 01  TDest: 2  TUser: 3  TLast: 0  Operation# 136 at 1460 ns
%% Log    INFO      in transmitter_1,   Axi Stream Send.  TData: 00000089  TStrb: 1111  TKeep: 1111  TID: 01  TDest: 2  TUser: 3  TLast: 0  Operation# 137 at 1470 ns
%% Log    INFO      in transmitter_1,   Axi Stream Send.  TData: 0000008A  TStrb: 1111  TKeep: 1111  TID: 01  TDest: 2  TUser: 3  TLast: 0  Operation# 138 at 1480 ns
%% Log    INFO      in transmitter_1,   Axi Stream Send.  TData: 0000008B  TStrb: 1111  TKeep: 1111  TID: 01  TDest: 2  TUser: 3  TLast: 0  Operation# 139 at 1490 ns
%% Log    INFO      in transmitter_1,   Axi Stream Send.  TData: 0000008C  TStrb: 1111  TKeep: 1111  TID: 01  TDest: 2  TUser: 3  TLast: 0  Operation# 140 at 1500 ns
%% Log    INFO      in transmitter_1,   Axi Stream Send.  TData: 0000008D  TStrb: 1111  TKeep: 1111  TID: 01  TDest: 2  TUser: 3  TLast: 0  Operation# 141 at 1510 ns
%% Log    INFO      in transmitter_1,   Axi Stream Send.  TData: 0000008E  TStrb: 1111  TKeep: 1111  TID: 01  TDest: 2  TUser: 3  TLast: 0  Operation# 142 at 1520 ns
%% Log    INFO      in transmitter_1,   Axi Stream Send.  TData: 0000008F  TStrb: 1111  TKeep: 1111  TID: 01  TDest: 2  TUser: 3  TLast: 0  Operation# 143 at 1530 ns
%% Log    INFO      in transmitter_1,   Axi Stream Send.  TData: 00000090  TStrb: 1111  TKeep: 1111  TID: 01  TDest: 2  TUser: 3  TLast: 0  Operation# 144 at 1540 ns
%% Log    INFO      in transmitter_1,   Axi Stream Send.  TData: 00000091  TStrb: 1111  TKeep: 1111  TID: 01  TDest: 2  TUser: 3  TLast: 0  Operation# 145 at 1550 ns
%% Log    INFO      in transmitter_1,   Axi Stream Send.  TData: 00000092  TStrb: 1111  TKeep: 1111  TID: 01  TDest: 2  TUser: 3  TLast: 0  Operation# 146 at 1560 ns
%% Log    INFO      in transmitter_1,   Axi Stream Send.  TData: 00000093  TStrb: 1111  TKeep: 1111  TID: 01  TDest: 2  TUser: 3  TLast: 0  Operation# 147 at 1570 ns
%% Log    INFO      in transmitter_1,   Axi Stream Send.  TData: 00000094  TStrb: 1111  TKeep: 1111  TID: 01  TDest: 2  TUser: 3  TLast: 0  Operation# 148 at 1580 ns
%% Log    INFO      in transmitter_1,   Axi Stream Send.  TData: 00000095  TStrb: 1111  TKeep: 1111  TID: 01  TDest: 2  TUser: 3  TLast: 0  Operation# 149 at 1590 ns
%% Log    INFO      in transmitter_1,   Axi Stream Send.  TData: 00000096  TStrb: 1111  TKeep: 1111  TID: 01  TDest: 2  TUser: 3  TLast: 0  Operation# 150 at 1600 ns
%% Log    INFO      in transmitter_1,   Axi Stream Send.  TData: 00000097  TStrb: 1111  TKeep: 1111  TID: 01  TDest: 2  TUser: 3  TLast: 0  Operation# 151 at 1610 ns
%% Log    INFO      in transmitter_1,   Axi Stream Send.  TData: 00000098  TStrb: 1111  TKeep: 1111  TID: 01  TDest: 2  TUser: 3  TLast: 0  Operation# 152 at 1620 ns
%% Log    INFO      in transmitter_1,   Axi Stream Send.  TData: 00000099  TStrb: 1111  TKeep: 1111  TID: 01  TDest: 2  TUser: 3  TLast: 0  Operation# 153 at 1630 ns
%% Log    INFO      in transmitter_1,   Axi Stream Send.  TData: 0000009A  TStrb: 1111  TKeep: 1111  TID: 01  TDest: 2  TUser: 3  TLast: 0  Operation# 154 at 1640 ns
%% Log    INFO      in transmitter_1,   Axi Stream Send.  TData: 0000009B  TStrb: 1111  TKeep: 1111  TID: 01  TDest: 2  TUser: 3  TLast: 0  Operation# 155 at 1650 ns
%% Log    INFO      in transmitter_1,   Axi Stream Send.  TData: 0000009C  TStrb: 1111  TKeep: 1111  TID: 01  TDest: 2  TUser: 3  TLast: 0  Operation# 156 at 1660 ns
%% Log    INFO      in transmitter_1,   Axi Stream Send.  TData: 0000009D  TStrb: 1111  TKeep: 1111  TID: 01  TDest: 2  TUser: 3  TLast: 0  Operation# 157 at 1670 ns
%% Log    INFO      in transmitter_1,   Axi Stream Send.  TData: 0000009E  TStrb: 1111  TKeep: 1111  TID: 01  TDest: 2  TUser: 3  TLast: 0  Operation# 158 at 1680 ns
%% Log    INFO      in transmitter_1,   Axi Stream Send.  TData: 0000009F  TStrb: 1111  TKeep: 1111  TID: 01  TDest: 2  TUser: 3  TLast: 0  Operation# 159 at 1690 ns
%% Log    INFO      in transmitter_1,   Axi Stream Send.  TData: 000000A0  TStrb: 1111  TKeep: 1111  TID: 01  TDest: 2  TUser: 3  TLast: 0  Operation# 160 at 1700 ns
%% Log    INFO      in transmitter_1,   Axi Stream Send.  TData: 000000A1  TStrb: 1111  TKeep: 1111  TID: 01  TDest: 2  TUser: 3  TLast: 0  Operation# 161 at 1710 ns
%% Log    INFO      in transmitter_1,   Axi Stream Send.  TData: 000000A2  TStrb: 1111  TKeep: 1111  TID: 01  TDest: 2  TUser: 3  TLast: 0  Operation# 162 at 1720 ns
%% Log    INFO      in transmitter_1,   Axi Stream Send.  TData: 000000A3  TStrb: 1111  TKeep: 1111  TID: 01  TDest: 2  TUser: 3  TLast: 0  Operation# 163 at 1730 ns
%% Log    INFO      in transmitter_1,   Axi Stream Send.  TData: 000000A4  TStrb: 1111  TKeep: 1111  TID: 01  TDest: 2  TUser: 3  TLast: 0  Operation# 164 at 1740 ns
%% Log    INFO      in transmitter_1,   Axi Stream Send.  TData: 000000A5  TStrb: 1111  TKeep: 1111  TID: 01  TDest: 2  TUser: 3  TLast: 0  Operation# 165 at 1750 ns
%% Log    INFO      in transmitter_1,   Axi Stream Send.  TData: 000000A6  TStrb: 1111  TKeep: 1111  TID: 01  TDest: 2  TUser: 3  TLast: 0  Operation# 166 at 1760 ns
%% Log    INFO      in transmitter_1,   Axi Stream Send.  TData: 000000A7  TStrb: 1111  TKeep: 1111  TID: 01  TDest: 2  TUser: 3  TLast: 0  Operation# 167 at 1770 ns
%% Log    INFO      in transmitter_1,   Axi Stream Send.  TData: 000000A8  TStrb: 1111  TKeep: 1111  TID: 01  TDest: 2  TUser: 3  TLast: 0  Operation# 168 at 1780 ns
%% Log    INFO      in transmitter_1,   Axi Stream Send.  TData: 000000A9  TStrb: 1111  TKeep: 1111  TID: 01  TDest: 2  TUser: 3  TLast: 0  Operation# 169 at 1790 ns
%% Log    INFO      in transmitter_1,   Axi Stream Send.  TData: 000000AA  TStrb: 1111  TKeep: 1111  TID: 01  TDest: 2  TUser: 3  TLast: 0  Operation# 170 at 1800 ns
%% Log    INFO      in transmitter_1,   Axi Stream Send.  TData: 000000AB  TStrb: 1111  TKeep: 1111  TID: 01  TDest: 2  TUser: 3  TLast: 0  Operation# 171 at 1810 ns
%% Log    INFO      in transmitter_1,   Axi Stream Send.  TData: 000000AC  TStrb: 1111  TKeep: 1111  TID: 01  TDest: 2  TUser: 3  TLast: 0  Operation# 172 at 1820 ns
%% Log    INFO      in transmitter_1,   Axi Stream Send.  TData: 000000AD  TStrb: 1111  TKeep: 1111  TID: 01  TDest: 2  TUser: 3  TLast: 0  Operation# 173 at 1830 ns
%% Log    INFO      in transmitter_1,   Axi Stream Send.  TData: 000000AE  TStrb: 1111  TKeep: 1111  TID: 01  TDest: 2  TUser: 3  TLast: 0  Operation# 174 at 1840 ns
%% Log    INFO      in transmitter_1,   Axi Stream Send.  TData: 000000AF  TStrb: 1111  TKeep: 1111  TID: 01  TDest: 2  TUser: 3  TLast: 0  Operation# 175 at 1850 ns
%% Log    INFO      in transmitter_1,   Axi Stream Send.  TData: 000000B0  TStrb: 1111  TKeep: 1111  TID: 01  TDest: 2  TUser: 3  TLast: 0  Operation# 176 at 1860 ns
%% Log    INFO      in transmitter_1,   Axi Stream Send.  TData: 000000B1  TStrb: 1111  TKeep: 1111  TID: 01  TDest: 2  TUser: 3  TLast: 0  Operation# 177 at 1870 ns
%% Log    INFO      in transmitter_1,   Axi Stream Send.  TData: 000000B2  TStrb: 1111  TKeep: 1111  TID: 01  TDest: 2  TUser: 3  TLast: 0  Operation# 178 at 1880 ns
%% Log    INFO      in transmitter_1,   Axi Stream Send.  TData: 000000B3  TStrb: 1111  TKeep: 1111  TID: 01  TDest: 2  TUser: 3  TLast: 0  Operation# 179 at 1890 ns
%% Log    INFO      in transmitter_1,   Axi Stream Send.  TData: 000000B4  TStrb: 1111  TKeep: 1111  TID: 01  TDest: 2  TUser: 3  TLast: 0  Operation# 180 at 1900 ns
%% Log    INFO      in transmitter_1,   Axi Stream Send.  TData: 000000B5  TStrb: 1111  TKeep: 1111  TID: 01  TDest: 2  TUser: 3  TLast: 0  Operation# 181 at 1910 ns
%% Log    INFO      in transmitter_1,   Axi Stream Send.  TData: 000000B6  TStrb: 1111  TKeep: 1111  TID: 01  TDest: 2  TUser: 3  TLast: 0  Operation# 182 at 1920 ns
%% Log    INFO      in transmitter_1,   Axi Stream Send.  TData: 000000B7  TStrb: 1111  TKeep: 1111  TID: 01  TDest: 2  TUser: 3  TLast: 0  Operation# 183 at 1930 ns
%% Log    INFO      in transmitter_1,   Axi Stream Send.  TData: 000000B8  TStrb: 1111  TKeep: 1111  TID: 01  TDest: 2  TUser: 3  TLast: 0  Operation# 184 at 1940 ns
%% Log    INFO      in transmitter_1,   Axi Stream Send.  TData: 000000B9  TStrb: 1111  TKeep: 1111  TID: 01  TDest: 2  TUser: 3  TLast: 0  Operation# 185 at 1950 ns
%% Log    INFO      in transmitter_1,   Axi Stream Send.  TData: 000000BA  TStrb: 1111  TKeep: 1111  TID: 01  TDest: 2  TUser: 3  TLast: 0  Operation# 186 at 1960 ns
%% Log    INFO      in transmitter_1,   Axi Stream Send.  TData: 000000BB  TStrb: 1111  TKeep: 1111  TID: 01  TDest: 2  TUser: 3  TLast: 0  Operation# 187 at 1970 ns
%% Log    INFO      in transmitter_1,   Axi Stream Send.  TData: 000000BC  TStrb: 1111  TKeep: 1111  TID: 01  TDest: 2  TUser: 3  TLast: 0  Operation# 188 at 1980 ns
%% Log    INFO      in transmitter_1,   Axi Stream Send.  TData: 000000BD  TStrb: 1111  TKeep: 1111  TID: 01  TDest: 2  TUser: 3  TLast: 0  Operation# 189 at 1990 ns
%% Log    INFO      in transmitter_1,   Axi Stream Send.  TData: 000000BE  TStrb: 1111  TKeep: 1111  TID: 01  TDest: 2  TUser: 3  TLast: 0  Operation# 190 at 2000 ns
%% Log    INFO      in transmitter_1,   Axi Stream Send.  TData: 000000BF  TStrb: 1111  TKeep: 1111  TID: 01  TDest: 2  TUser: 3  TLast: 0  Operation# 191 at 2010 ns
%% Log    INFO      in transmitter_1,   Axi Stream Send.  TData: 000000C0  TStrb: 1111  TKeep: 1111  TID: 01  TDest: 2  TUser: 3  TLast: 0  Operation# 192 at 2020 ns
%% Log    INFO      in transmitter_1,   Axi Stream Send.  TData: 000000C1  TStrb: 1111  TKeep: 1111  TID: 01  TDest: 2  TUser: 3  TLast: 0  Operation# 193 at 2030 ns
%% Log    INFO      in transmitter_1,   Axi Stream Send.  TData: 000000C2  TStrb: 1111  TKeep: 1111  TID: 01  TDest: 2  TUser: 3  TLast: 0  Operation# 194 at 2040 ns
%% Log    INFO      in transmitter_1,   Axi Stream Send.  TData: 000000C3  TStrb: 1111  TKeep: 1111  TID: 01  TDest: 2  TUser: 3  TLast: 1  Operation# 195 at 2050 ns
%% Log    INFO      in transmitter_1,   Axi Stream Send.  TData: 000000C4  TStrb: 1111  TKeep: 1111  TID: 01  TDest: 2  TUser: 3  TLast: 0  Operation# 196 at 2060 ns
%% Log    INFO      in receiver_1,   Burst Receive.  Operation# 3  Last Data: 000000C3  TID: 01  TDest: 2  TUser: 3  TLast: 1 at 2060 ns
%% Log    PASSED    in Default,   Receiver: NumBytes Received Received : 264 at 2060 ns
%% Log    PASSED    in Default,   Receiver, ID:  Received : 01 at 2060 ns
%% Log    PASSED    in Default,   Receiver, Dest:  Received : 2 at 2060 ns
%% Log    PASSED    in Default,   Receiver, User:  Received : 3 at 2060 ns
%% Log    PASSED    in Default,   Receiver:  Received : 00000082 at 2060 ns
%% Log    PASSED    in Default,   Receiver:  Received : 00000083 at 2060 ns
%% Log    PASSED    in Default,   Receiver:  Received : 00000084 at 2060 ns
%% Log    PASSED    in Default,   Receiver:  Received : 00000085 at 2060 ns
%% Log    PASSED    in Default,   Receiver:  Received : 00000086 at 2060 ns
%% Log    PASSED    in Default,   Receiver:  Received : 00000087 at 2060 ns
%% Log    PASSED    in Default,   Receiver:  Received : 00000088 at 2060 ns
%% Log    PASSED    in Default,   Receiver:  Received : 00000089 at 2060 ns
%% Log    PASSED    in Default,   Receiver:  Received : 0000008A at 2060 ns
%% Log    PASSED    in Default,   Receiver:  Received : 0000008B at 2060 ns
%% Log    PASSED    in Default,   Receiver:  Received : 0000008C at 2060 ns
%% Log    PASSED    in Default,   Receiver:  Received : 0000008D at 2060 ns
%% Log    PASSED    in Default,   Receiver:  Received : 0000008E at 2060 ns
%% Log    PASSED    in Default,   Receiver:  Received : 0000008F at 2060 ns
%% Log    PASSED    in Default,   Receiver:  Received : 00000090 at 2060 ns
%% Log    PASSED    in Default,   Receiver:  Received : 00000091 at 2060 ns
%% Log    PASSED    in Default,   Receiver:  Received : 00000092 at 2060 ns
%% Log    PASSED    in Default,   Receiver:  Received : 00000093 at 2060 ns
%% Log    PASSED    in Default,   Receiver:  Received : 00000094 at 2060 ns
%% Log    PASSED    in Default,   Receiver:  Received : 00000095 at 2060 ns
%% Log    PASSED    in Default,   Receiver:  Received : 00000096 at 2060 ns
%% Log    PASSED    in Default,   Receiver:  Received : 00000097 at 2060 ns
%% Log    PASSED    in Default,   Receiver:  Received : 00000098 at 2060 ns
%% Log    PASSED    in Default,   Receiver:  Received : 00000099 at 2060 ns
%% Log    PASSED    in Default,   Receiver:  Received : 0000009A at 2060 ns
%% Log    PASSED    in Default,   Receiver:  Received : 0000009B at 2060 ns
%% Log    PASSED    in Default,   Receiver:  Received : 0000009C at 2060 ns
%% Log    PASSED    in Default,   Receiver:  Received : 0000009D at 2060 ns
%% Log    PASSED    in Default,   Receiver:  Received : 0000009E at 2060 ns
%% Log    PASSED    in Default,   Receiver:  Received : 0000009F at 2060 ns
%% Log    PASSED    in Default,   Receiver:  Received : 000000A0 at 2060 ns
%% Log    PASSED    in Default,   Receiver:  Received : 000000A1 at 2060 ns
%% Log    PASSED    in Default,   Receiver:  Received : 000000A2 at 2060 ns
%% Log    PASSED    in Default,   Receiver:  Received : 000000A3 at 2060 ns
%% Log    PASSED    in Default,   Receiver:  Received : 000000A4 at 2060 ns
%% Log    PASSED    in Default,   Receiver:  Received : 000000A5 at 2060 ns
%% Log    PASSED    in Default,   Receiver:  Received : 000000A6 at 2060 ns
%% Log    PASSED    in Default,   Receiver:  Received : 000000A7 at 2060 ns
%% Log    PASSED    in Default,   Receiver:  Received : 000000A8 at 2060 ns
%% Log    PASSED    in Default,   Receiver:  Received : 000000A9 at 2060 ns
%% Log    PASSED    in Default,   Receiver:  Received : 000000AA at 2060 ns
%% Log    PASSED    in Default,   Receiver:  Received : 000000AB at 2060 ns
%% Log    PASSED    in Default,   Receiver:  Received : 000000AC at 2060 ns
%% Log    PASSED    in Default,   Receiver:  Received : 000000AD at 2060 ns
%% Log    PASSED    in Default,   Receiver:  Received : 000000AE at 2060 ns
%% Log    PASSED    in Default,   Receiver:  Received : 000000AF at 2060 ns
%% Log    PASSED    in Default,   Receiver:  Received : 000000B0 at 2060 ns
%% Log    PASSED    in Default,   Receiver:  Received : 000000B1 at 2060 ns
%% Log    PASSED    in Default,   Receiver:  Received : 000000B2 at 2060 ns
%% Log    PASSED    in Default,   Receiver:  Received : 000000B3 at 2060 ns
%% Log    PASSED    in Default,   Receiver:  Received : 000000B4 at 2060 ns
%% Log    PASSED    in Default,   Receiver:  Received : 000000B5 at 2060 ns
%% Log    PASSED    in Default,   Receiver:  Received : 000000B6 at 2060 ns
%% Log    PASSED    in Default,   Receiver:  Received : 000000B7 at 2060 ns
%% Log    PASSED    in Default,   Receiver:  Received : 000000B8 at 2060 ns
%% Log    PASSED    in Default,   Receiver:  Received : 000000B9 at 2060 ns
%% Log    PASSED    in Default,   Receiver:  Received : 000000BA at 2060 ns
%% Log    PASSED    in Default,   Receiver:  Received : 000000BB at 2060 ns
%% Log    PASSED    in Default,   Receiver:  Received : 000000BC at 2060 ns
%% Log    PASSED    in Default,   Receiver:  Received : 000000BD at 2060 ns
%% Log    PASSED    in Default,   Receiver:  Received : 000000BE at 2060 ns
%% Log    PASSED    in Default,   Receiver:  Received : 000000BF at 2060 ns
%% Log    PASSED    in Default,   Receiver:  Received : 000000C0 at 2060 ns
%% Log    PASSED    in Default,   Receiver:  Received : 000000C1 at 2060 ns
%% Log    PASSED    in Default,   Receiver:  Received : 000000C2 at 2060 ns
%% Log    PASSED    in Default,   Receiver:  Received : 000000C3 at 2060 ns
%% Log    INFO      in transmitter_1,   Axi Stream Send.  TData: 000000C5  TStrb: 1111  TKeep: 1111  TID: 01  TDest: 2  TUser: 3  TLast: 0  Operation# 197 at 2070 ns
%% Log    INFO      in transmitter_1,   Axi Stream Send.  TData: 000000C6  TStrb: 1111  TKeep: 1111  TID: 01  TDest: 2  TUser: 3  TLast: 0  Operation# 198 at 2080 ns
%% Log    INFO      in transmitter_1,   Axi Stream Send.  TData: 000000C7  TStrb: 1111  TKeep: 1111  TID: 01  TDest: 2  TUser: 3  TLast: 0  Operation# 199 at 2090 ns
%% Log    INFO      in transmitter_1,   Axi Stream Send.  TData: 000000C8  TStrb: 1111  TKeep: 1111  TID: 01  TDest: 2  TUser: 3  TLast: 0  Operation# 200 at 2100 ns
%% Log    INFO      in transmitter_1,   Axi Stream Send.  TData: 000000C9  TStrb: 1111  TKeep: 1111  TID: 01  TDest: 2  TUser: 3  TLast: 0  Operation# 201 at 2110 ns
%% Log    INFO      in transmitter_1,   Axi Stream Send.  TData: 000000CA  TStrb: 1111  TKeep: 1111  TID: 01  TDest: 2  TUser: 3  TLast: 0  Operation# 202 at 2120 ns
%% Log    INFO      in transmitter_1,   Axi Stream Send.  TData: 000000CB  TStrb: 1111  TKeep: 1111  TID: 01  TDest: 2  TUser: 3  TLast: 0  Operation# 203 at 2130 ns
%% Log    INFO      in transmitter_1,   Axi Stream Send.  TData: 000000CC  TStrb: 1111  TKeep: 1111  TID: 01  TDest: 2  TUser: 3  TLast: 0  Operation# 204 at 2140 ns
%% Log    INFO      in transmitter_1,   Axi Stream Send.  TData: 000000CD  TStrb: 1111  TKeep: 1111  TID: 01  TDest: 2  TUser: 3  TLast: 0  Operation# 205 at 2150 ns
%% Log    INFO      in transmitter_1,   Axi Stream Send.  TData: 000000CE  TStrb: 1111  TKeep: 1111  TID: 01  TDest: 2  TUser: 3  TLast: 0  Operation# 206 at 2160 ns
%% Log    INFO      in transmitter_1,   Axi Stream Send.  TData: 000000CF  TStrb: 1111  TKeep: 1111  TID: 01  TDest: 2  TUser: 3  TLast: 0  Operation# 207 at 2170 ns
%% Log    INFO      in transmitter_1,   Axi Stream Send.  TData: 000000D0  TStrb: 1111  TKeep: 1111  TID: 01  TDest: 2  TUser: 3  TLast: 0  Operation# 208 at 2180 ns
%% Log    INFO      in transmitter_1,   Axi Stream Send.  TData: 000000D1  TStrb: 1111  TKeep: 1111  TID: 01  TDest: 2  TUser: 3  TLast: 0  Operation# 209 at 2190 ns
%% Log    INFO      in transmitter_1,   Axi Stream Send.  TData: 000000D2  TStrb: 1111  TKeep: 1111  TID: 01  TDest: 2  TUser: 3  TLast: 0  Operation# 210 at 2200 ns
%% Log    INFO      in transmitter_1,   Axi Stream Send.  TData: 000000D3  TStrb: 1111  TKeep: 1111  TID: 01  TDest: 2  TUser: 3  TLast: 0  Operation# 211 at 2210 ns
%% Log    INFO      in transmitter_1,   Axi Stream Send.  TData: 000000D4  TStrb: 1111  TKeep: 1111  TID: 01  TDest: 2  TUser: 3  TLast: 0  Operation# 212 at 2220 ns
%% Log    INFO      in transmitter_1,   Axi Stream Send.  TData: 000000D5  TStrb: 1111  TKeep: 1111  TID: 01  TDest: 2  TUser: 3  TLast: 0  Operation# 213 at 2230 ns
%% Log    INFO      in transmitter_1,   Axi Stream Send.  TData: 000000D6  TStrb: 1111  TKeep: 1111  TID: 01  TDest: 2  TUser: 3  TLast: 0  Operation# 214 at 2240 ns
%% Log    INFO      in transmitter_1,   Axi Stream Send.  TData: 000000D7  TStrb: 1111  TKeep: 1111  TID: 01  TDest: 2  TUser: 3  TLast: 0  Operation# 215 at 2250 ns
%% Log    INFO      in transmitter_1,   Axi Stream Send.  TData: 000000D8  TStrb: 1111  TKeep: 1111  TID: 01  TDest: 2  TUser: 3  TLast: 0  Operation# 216 at 2260 ns
%% Log    INFO      in transmitter_1,   Axi Stream Send.  TData: 000000D9  TStrb: 1111  TKeep: 1111  TID: 01  TDest: 2  TUser: 3  TLast: 0  Operation# 217 at 2270 ns
%% Log    INFO      in transmitter_1,   Axi Stream Send.  TData: 000000DA  TStrb: 1111  TKeep: 1111  TID: 01  TDest: 2  TUser: 3  TLast: 0  Operation# 218 at 2280 ns
%% Log    INFO      in transmitter_1,   Axi Stream Send.  TData: 000000DB  TStrb: 1111  TKeep: 1111  TID: 01  TDest: 2  TUser: 3  TLast: 0  Operation# 219 at 2290 ns
%% Log    INFO      in transmitter_1,   Axi Stream Send.  TData: 000000DC  TStrb: 1111  TKeep: 1111  TID: 01  TDest: 2  TUser: 3  TLast: 0  Operation# 220 at 2300 ns
%% Log    INFO      in transmitter_1,   Axi Stream Send.  TData: 000000DD  TStrb: 1111  TKeep: 1111  TID: 01  TDest: 2  TUser: 3  TLast: 0  Operation# 221 at 2310 ns
%% Log    INFO      in transmitter_1,   Axi Stream Send.  TData: 000000DE  TStrb: 1111  TKeep: 1111  TID: 01  TDest: 2  TUser: 3  TLast: 0  Operation# 222 at 2320 ns
%% Log    INFO      in transmitter_1,   Axi Stream Send.  TData: 000000DF  TStrb: 1111  TKeep: 1111  TID: 01  TDest: 2  TUser: 3  TLast: 0  Operation# 223 at 2330 ns
%% Log    INFO      in transmitter_1,   Axi Stream Send.  TData: 000000E0  TStrb: 1111  TKeep: 1111  TID: 01  TDest: 2  TUser: 3  TLast: 0  Operation# 224 at 2340 ns
%% Log    INFO      in transmitter_1,   Axi Stream Send.  TData: 000000E1  TStrb: 1111  TKeep: 1111  TID: 01  TDest: 2  TUser: 3  TLast: 0  Operation# 225 at 2350 ns
%% Log    INFO      in transmitter_1,   Axi Stream Send.  TData: 000000E2  TStrb: 1111  TKeep: 1111  TID: 01  TDest: 2  TUser: 3  TLast: 0  Operation# 226 at 2360 ns
%% Log    INFO      in transmitter_1,   Axi Stream Send.  TData: 000000E3  TStrb: 1111  TKeep: 1111  TID: 01  TDest: 2  TUser: 3  TLast: 0  Operation# 227 at 2370 ns
%% Log    INFO      in transmitter_1,   Axi Stream Send.  TData: 000000E4  TStrb: 1111  TKeep: 1111  TID: 01  TDest: 2  TUser: 3  TLast: 0  Operation# 228 at 2380 ns
%% Log    INFO      in transmitter_1,   Axi Stream Send.  TData: 000000E5  TStrb: 1111  TKeep: 1111  TID: 01  TDest: 2  TUser: 3  TLast: 0  Operation# 229 at 2390 ns
%% Log    INFO      in transmitter_1,   Axi Stream Send.  TData: 000000E6  TStrb: 1111  TKeep: 1111  TID: 01  TDest: 2  TUser: 3  TLast: 0  Operation# 230 at 2400 ns
%% Log    INFO      in transmitter_1,   Axi Stream Send.  TData: 000000E7  TStrb: 1111  TKeep: 1111  TID: 01  TDest: 2  TUser: 3  TLast: 0  Operation# 231 at 2410 ns
%% Log    INFO      in transmitter_1,   Axi Stream Send.  TData: 000000E8  TStrb: 1111  TKeep: 1111  TID: 01  TDest: 2  TUser: 3  TLast: 0  Operation# 232 at 2420 ns
%% Log    INFO      in transmitter_1,   Axi Stream Send.  TData: 000000E9  TStrb: 1111  TKeep: 1111  TID: 01  TDest: 2  TUser: 3  TLast: 0  Operation# 233 at 2430 ns
%% Log    INFO      in transmitter_1,   Axi Stream Send.  TData: 000000EA  TStrb: 1111  TKeep: 1111  TID: 01  TDest: 2  TUser: 3  TLast: 0  Operation# 234 at 2440 ns
%% Log    INFO      in transmitter_1,   Axi Stream Send.  TData: 000000EB  TStrb: 1111  TKeep: 1111  TID: 01  TDest: 2  TUser: 3  TLast: 0  Operation# 235 at 2450 ns
%% Log    INFO      in transmitter_1,   Axi Stream Send.  TData: 000000EC  TStrb: 1111  TKeep: 1111  TID: 01  TDest: 2  TUser: 3  TLast: 0  Operation# 236 at 2460 ns
%% Log    INFO      in transmitter_1,   Axi Stream Send.  TData: 000000ED  TStrb: 1111  TKeep: 1111  TID: 01  TDest: 2  TUser: 3  TLast: 0  Operation# 237 at 2470 ns
%% Log    INFO      in transmitter_1,   Axi Stream Send.  TData: 000000EE  TStrb: 1111  TKeep: 1111  TID: 01  TDest: 2  TUser: 3  TLast: 0  Operation# 238 at 2480 ns
%% Log    INFO      in transmitter_1,   Axi Stream Send.  TData: 000000EF  TStrb: 1111  TKeep: 1111  TID: 01  TDest: 2  TUser: 3  TLast: 0  Operation# 239 at 2490 ns
%% Log    INFO      in transmitter_1,   Axi Stream Send.  TData: 000000F0  TStrb: 1111  TKeep: 1111  TID: 01  TDest: 2  TUser: 3  TLast: 0  Operation# 240 at 2500 ns
%% Log    INFO      in transmitter_1,   Axi Stream Send.  TData: 000000F1  TStrb: 1111  TKeep: 1111  TID: 01  TDest: 2  TUser: 3  TLast: 0  Operation# 241 at 2510 ns
%% Log    INFO      in transmitter_1,   Axi Stream Send.  TData: 000000F2  TStrb: 1111  TKeep: 1111  TID: 01  TDest: 2  TUser: 3  TLast: 0  Operation# 242 at 2520 ns
%% Log    INFO      in transmitter_1,   Axi Stream Send.  TData: 000000F3  TStrb: 1111  TKeep: 1111  TID: 01  TDest: 2  TUser: 3  TLast: 0  Operation# 243 at 2530 ns
%% Log    INFO      in transmitter_1,   Axi Stream Send.  TData: 000000F4  TStrb: 1111  TKeep: 1111  TID: 01  TDest: 2  TUser: 3  TLast: 0  Operation# 244 at 2540 ns
%% Log    INFO      in transmitter_1,   Axi Stream Send.  TData: 000000F5  TStrb: 1111  TKeep: 1111  TID: 01  TDest: 2  TUser: 3  TLast: 0  Operation# 245 at 2550 ns
%% Log    INFO      in transmitter_1,   Axi Stream Send.  TData: 000000F6  TStrb: 1111  TKeep: 1111  TID: 01  TDest: 2  TUser: 3  TLast: 0  Operation# 246 at 2560 ns
%% Log    INFO      in transmitter_1,   Axi Stream Send.  TData: 000000F7  TStrb: 1111  TKeep: 1111  TID: 01  TDest: 2  TUser: 3  TLast: 0  Operation# 247 at 2570 ns
%% Log    INFO      in transmitter_1,   Axi Stream Send.  TData: 000000F8  TStrb: 1111  TKeep: 1111  TID: 01  TDest: 2  TUser: 3  TLast: 0  Operation# 248 at 2580 ns
%% Log    INFO      in transmitter_1,   Axi Stream Send.  TData: 000000F9  TStrb: 1111  TKeep: 1111  TID: 01  TDest: 2  TUser: 3  TLast: 0  Operation# 249 at 2590 ns
%% Log    INFO      in transmitter_1,   Axi Stream Send.  TData: 000000FA  TStrb: 1111  TKeep: 1111  TID: 01  TDest: 2  TUser: 3  TLast: 0  Operation# 250 at 2600 ns
%% Log    INFO      in transmitter_1,   Axi Stream Send.  TData: 000000FB  TStrb: 1111  TKeep: 1111  TID: 01  TDest: 2  TUser: 3  TLast: 0  Operation# 251 at 2610 ns
%% Log    INFO      in transmitter_1,   Axi Stream Send.  TData: 000000FC  TStrb: 1111  TKeep: 1111  TID: 01  TDest: 2  TUser: 3  TLast: 0  Operation# 252 at 2620 ns
%% Log    INFO      in transmitter_1,   Axi Stream Send.  TData: 000000FD  TStrb: 1111  TKeep: 1111  TID: 01  TDest: 2  TUser: 3  TLast: 0  Operation# 253 at 2630 ns
%% Log    INFO      in transmitter_1,   Axi Stream Send.  TData: 000000FE  TStrb: 1111  TKeep: 1111  TID: 01  TDest: 2  TUser: 3  TLast: 0  Operation# 254 at 2640 ns
%% Log    INFO      in transmitter_1,   Axi Stream Send.  TData: 000000FF  TStrb: 1111  TKeep: 1111  TID: 01  TDest: 2  TUser: 3  TLast: 0  Operation# 255 at 2650 ns
%% Log    INFO      in transmitter_1,   Axi Stream Send.  TData: 00000100  TStrb: 1111  TKeep: 1111  TID: 01  TDest: 2  TUser: 3  TLast: 0  Operation# 256 at 2660 ns
%% Log    INFO      in transmitter_1,   Axi Stream Send.  TData: 00000101  TStrb: 1111  TKeep: 1111  TID: 01  TDest: 2  TUser: 3  TLast: 0  Operation# 257 at 2670 ns
%% Log    INFO      in transmitter_1,   Axi Stream Send.  TData: 00000102  TStrb: 1111  TKeep: 1111  TID: 01  TDest: 2  TUser: 3  TLast: 0  Operation# 258 at 2680 ns
%% Log    INFO      in transmitter_1,   Axi Stream Send.  TData: 00000103  TStrb: 1111  TKeep: 1111  TID: 01  TDest: 2  TUser: 3  TLast: 0  Operation# 259 at 2690 ns
%% Log    INFO      in transmitter_1,   Axi Stream Send.  TData: 00000104  TStrb: 1111  TKeep: 1111  TID: 01  TDest: 2  TUser: 3  TLast: 0  Operation# 260 at 2700 ns
%% Log    INFO      in transmitter_1,   Axi Stream Send.  TData: 00000105  TStrb: 1111  TKeep: 1111  TID: 01  TDest: 2  TUser: 3  TLast: 0  Operation# 261 at 2710 ns
%% Log    INFO      in transmitter_1,   Axi Stream Send.  TData: 00000106  TStrb: 1111  TKeep: 1111  TID: 01  TDest: 2  TUser: 3  TLast: 1  Operation# 262 at 2720 ns
%% Log    INFO      in transmitter_1,   Axi Stream Send.  TData: 00000107  TStrb: 1111  TKeep: 1111  TID: 02  TDest: 3  TUser: 4  TLast: 0  Operation# 263 at 2730 ns
%% Log    INFO      in receiver_1,   Burst Receive.  Operation# 4  Last Data: 00000106  TID: 01  TDest: 2  TUser: 3  TLast: 1 at 2730 ns
%% Log    PASSED    in Default,   Receiver: NumBytes Received Received : 268 at 2730 ns
%% Log    PASSED    in Default,   Receiver, ID:  Received : 01 at 2730 ns
%% Log    PASSED    in Default,   Receiver, Dest:  Received : 2 at 2730 ns
%% Log    PASSED    in Default,   Receiver, User:  Received : 3 at 2730 ns
%% Log    PASSED    in Default,   Receiver:  Received : 000000C4 at 2730 ns
%% Log    PASSED    in Default,   Receiver:  Received : 000000C5 at 2730 ns
%% Log    PASSED    in Default,   Receiver:  Received : 000000C6 at 2730 ns
%% Log    PASSED    in Default,   Receiver:  Received : 000000C7 at 2730 ns
%% Log    PASSED    in Default,   Receiver:  Received : 000000C8 at 2730 ns
%% Log    PASSED    in Default,   Receiver:  Received : 000000C9 at 2730 ns
%% Log    PASSED    in Default,   Receiver:  Received : 000000CA at 2730 ns
%% Log    PASSED    in Default,   Receiver:  Received : 000000CB at 2730 ns
%% Log    PASSED    in Default,   Receiver:  Received : 000000CC at 2730 ns
%% Log    PASSED    in Default,   Receiver:  Received : 000000CD at 2730 ns
%% Log    PASSED    in Default,   Receiver:  Received : 000000CE at 2730 ns
%% Log    PASSED    in Default,   Receiver:  Received : 000000CF at 2730 ns
%% Log    PASSED    in Default,   Receiver:  Received : 000000D0 at 2730 ns
%% Log    PASSED    in Default,   Receiver:  Received : 000000D1 at 2730 ns
%% Log    PASSED    in Default,   Receiver:  Received : 000000D2 at 2730 ns
%% Log    PASSED    in Default,   Receiver:  Received : 000000D3 at 2730 ns
%% Log    PASSED    in Default,   Receiver:  Received : 000000D4 at 2730 ns
%% Log    PASSED    in Default,   Receiver:  Received : 000000D5 at 2730 ns
%% Log    PASSED    in Default,   Receiver:  Received : 000000D6 at 2730 ns
%% Log    PASSED    in Default,   Receiver:  Received : 000000D7 at 2730 ns
%% Log    PASSED    in Default,   Receiver:  Received : 000000D8 at 2730 ns
%% Log    PASSED    in Default,   Receiver:  Received : 000000D9 at 2730 ns
%% Log    PASSED    in Default,   Receiver:  Received : 000000DA at 2730 ns
%% Log    PASSED    in Default,   Receiver:  Received : 000000DB at 2730 ns
%% Log    PASSED    in Default,   Receiver:  Received : 000000DC at 2730 ns
%% Log    PASSED    in Default,   Receiver:  Received : 000000DD at 2730 ns
%% Log    PASSED    in Default,   Receiver:  Received : 000000DE at 2730 ns
%% Log    PASSED    in Default,   Receiver:  Received : 000000DF at 2730 ns
%% Log    PASSED    in Default,   Receiver:  Received : 000000E0 at 2730 ns
%% Log    PASSED    in Default,   Receiver:  Received : 000000E1 at 2730 ns
%% Log    PASSED    in Default,   Receiver:  Received : 000000E2 at 2730 ns
%% Log    PASSED    in Default,   Receiver:  Received : 000000E3 at 2730 ns
%% Log    PASSED    in Default,   Receiver:  Received : 000000E4 at 2730 ns
%% Log    PASSED    in Default,   Receiver:  Received : 000000E5 at 2730 ns
%% Log    PASSED    in Default,   Receiver:  Received : 000000E6 at 2730 ns
%% Log    PASSED    in Default,   Receiver:  Received : 000000E7 at 2730 ns
%% Log    PASSED    in Default,   Receiver:  Received : 000000E8 at 2730 ns
%% Log    PASSED    in Default,   Receiver:  Received : 000000E9 at 2730 ns
%% Log    PASSED    in Default,   Receiver:  Received : 000000EA at 2730 ns
%% Log    PASSED    in Default,   Receiver:  Received : 000000EB at 2730 ns
%% Log    PASSED    in Default,   Receiver:  Received : 000000EC at 2730 ns
%% Log    PASSED    in Default,   Receiver:  Received : 000000ED at 2730 ns
%% Log    PASSED    in Default,   Receiver:  Received : 000000EE at 2730 ns
%% Log    PASSED    in Default,   Receiver:  Received : 000000EF at 2730 ns
%% Log    PASSED    in Default,   Receiver:  Received : 000000F0 at 2730 ns
%% Log    PASSED    in Default,   Receiver:  Received : 000000F1 at 2730 ns
%% Log    PASSED    in Default,   Receiver:  Received : 000000F2 at 2730 ns
%% Log    PASSED    in Default,   Receiver:  Received : 000000F3 at 2730 ns
%% Log    PASSED    in Default,   Receiver:  Received : 000000F4 at 2730 ns
%% Log    PASSED    in Default,   Receiver:  Received : 000000F5 at 2730 ns
%% Log    PASSED    in Default,   Receiver:  Received : 000000F6 at 2730 ns
%% Log    PASSED    in Default,   Receiver:  Received : 000000F7 at 2730 ns
%% Log    PASSED    in Default,   Receiver:  Received : 000000F8 at 2730 ns
%% Log    PASSED    in Default,   Receiver:  Received : 000000F9 at 2730 ns
%% Log    PASSED    in Default,   Receiver:  Received : 000000FA at 2730 ns
%% Log    PASSED    in Default,   Receiver:  Received : 000000FB at 2730 ns
%% Log    PASSED    in Default,   Receiver:  Received : 000000FC at 2730 ns
%% Log    PASSED    in Default,   Receiver:  Received : 000000FD at 2730 ns
%% Log    PASSED    in Default,   Receiver:  Received : 000000FE at 2730 ns
%% Log    PASSED    in Default,   Receiver:  Received : 000000FF at 2730 ns
%% Log    PASSED    in Default,   Receiver:  Received : 00000100 at 2730 ns
%% Log    PASSED    in Default,   Receiver:  Received : 00000101 at 2730 ns
%% Log    PASSED    in Default,   Receiver:  Received : 00000102 at 2730 ns
%% Log    PASSED    in Default,   Receiver:  Received : 00000103 at 2730 ns
%% Log    PASSED    in Default,   Receiver:  Received : 00000104 at 2730 ns
%% Log    PASSED    in Default,   Receiver:  Received : 00000105 at 2730 ns
%% Log    PASSED    in Default,   Receiver:  Received : 00000106 at 2730 ns
%% Log    INFO      in transmitter_1,   Axi Stream Send.  TData: 00000108  TStrb: 1111  TKeep: 1111  TID: 02  TDest: 3  TUser: 4  TLast: 0  Operation# 264 at 2740 ns
%% Log    INFO      in transmitter_1,   Axi Stream Send.  TData: 00000109  TStrb: 1111  TKeep: 1111  TID: 02  TDest: 3  TUser: 4  TLast: 0  Operation# 265 at 2750 ns
%% Log    INFO      in transmitter_1,   Axi Stream Send.  TData: 0000010A  TStrb: 1111  TKeep: 1111  TID: 02  TDest: 3  TUser: 4  TLast: 0  Operation# 266 at 2760 ns
%% Log    INFO      in transmitter_1,   Axi Stream Send.  TData: 0000010B  TStrb: 1111  TKeep: 1111  TID: 02  TDest: 3  TUser: 4  TLast: 0  Operation# 267 at 2770 ns
%% Log    INFO      in transmitter_1,   Axi Stream Send.  TData: 0000010C  TStrb: 1111  TKeep: 1111  TID: 02  TDest: 3  TUser: 4  TLast: 0  Operation# 268 at 2780 ns
%% Log    INFO      in transmitter_1,   Axi Stream Send.  TData: 0000010D  TStrb: 1111  TKeep: 1111  TID: 02  TDest: 3  TUser: 4  TLast: 0  Operation# 269 at 2790 ns
%% Log    INFO      in transmitter_1,   Axi Stream Send.  TData: 0000010E  TStrb: 1111  TKeep: 1111  TID: 02  TDest: 3  TUser: 4  TLast: 0  Operation# 270 at 2800 ns
%% Log    INFO      in transmitter_1,   Axi Stream Send.  TData: 0000010F  TStrb: 1111  TKeep: 1111  TID: 02  TDest: 3  TUser: 4  TLast: 0  Operation# 271 at 2810 ns
%% Log    INFO      in transmitter_1,   Axi Stream Send.  TData: 00000110  TStrb: 1111  TKeep: 1111  TID: 02  TDest: 3  TUser: 4  TLast: 0  Operation# 272 at 2820 ns
%% Log    INFO      in transmitter_1,   Axi Stream Send.  TData: 00000111  TStrb: 1111  TKeep: 1111  TID: 02  TDest: 3  TUser: 4  TLast: 0  Operation# 273 at 2830 ns
%% Log    INFO      in transmitter_1,   Axi Stream Send.  TData: 00000112  TStrb: 1111  TKeep: 1111  TID: 02  TDest: 3  TUser: 4  TLast: 0  Operation# 274 at 2840 ns
%% Log    INFO      in transmitter_1,   Axi Stream Send.  TData: 00000113  TStrb: 1111  TKeep: 1111  TID: 02  TDest: 3  TUser: 4  TLast: 0  Operation# 275 at 2850 ns
%% Log    INFO      in transmitter_1,   Axi Stream Send.  TData: 00000114  TStrb: 1111  TKeep: 1111  TID: 02  TDest: 3  TUser: 4  TLast: 0  Operation# 276 at 2860 ns
%% Log    INFO      in transmitter_1,   Axi Stream Send.  TData: 00000115  TStrb: 1111  TKeep: 1111  TID: 02  TDest: 3  TUser: 4  TLast: 0  Operation# 277 at 2870 ns
%% Log    INFO      in transmitter_1,   Axi Stream Send.  TData: 00000116  TStrb: 1111  TKeep: 1111  TID: 02  TDest: 3  TUser: 4  TLast: 0  Operation# 278 at 2880 ns
%% Log    INFO      in transmitter_1,   Axi Stream Send.  TData: 00000117  TStrb: 1111  TKeep: 1111  TID: 02  TDest: 3  TUser: 4  TLast: 0  Operation# 279 at 2890 ns
%% Log    INFO      in transmitter_1,   Axi Stream Send.  TData: 00000118  TStrb: 1111  TKeep: 1111  TID: 02  TDest: 3  TUser: 4  TLast: 0  Operation# 280 at 2900 ns
%% Log    INFO      in transmitter_1,   Axi Stream Send.  TData: 00000119  TStrb: 1111  TKeep: 1111  TID: 02  TDest: 3  TUser: 4  TLast: 0  Operation# 281 at 2910 ns
%% Log    INFO      in transmitter_1,   Axi Stream Send.  TData: 0000011A  TStrb: 1111  TKeep: 1111  TID: 02  TDest: 3  TUser: 4  TLast: 0  Operation# 282 at 2920 ns
%% Log    INFO      in transmitter_1,   Axi Stream Send.  TData: 0000011B  TStrb: 1111  TKeep: 1111  TID: 02  TDest: 3  TUser: 4  TLast: 0  Operation# 283 at 2930 ns
%% Log    INFO      in transmitter_1,   Axi Stream Send.  TData: 0000011C  TStrb: 1111  TKeep: 1111  TID: 02  TDest: 3  TUser: 4  TLast: 0  Operation# 284 at 2940 ns
%% Log    INFO      in transmitter_1,   Axi Stream Send.  TData: 0000011D  TStrb: 1111  TKeep: 1111  TID: 02  TDest: 3  TUser: 4  TLast: 0  Operation# 285 at 2950 ns
%% Log    INFO      in transmitter_1,   Axi Stream Send.  TData: 0000011E  TStrb: 1111  TKeep: 1111  TID: 02  TDest: 3  TUser: 4  TLast: 0  Operation# 286 at 2960 ns
%% Log    INFO      in transmitter_1,   Axi Stream Send.  TData: 0000011F  TStrb: 1111  TKeep: 1111  TID: 02  TDest: 3  TUser: 4  TLast: 0  Operation# 287 at 2970 ns
%% Log    INFO      in transmitter_1,   Axi Stream Send.  TData: 00000120  TStrb: 1111  TKeep: 1111  TID: 02  TDest: 3  TUser: 4  TLast: 0  Operation# 288 at 2980 ns
%% Log    INFO      in transmitter_1,   Axi Stream Send.  TData: 00000121  TStrb: 1111  TKeep: 1111  TID: 02  TDest: 3  TUser: 4  TLast: 0  Operation# 289 at 2990 ns
%% Log    INFO      in transmitter_1,   Axi Stream Send.  TData: 00000122  TStrb: 1111  TKeep: 1111  TID: 02  TDest: 3  TUser: 4  TLast: 0  Operation# 290 at 3000 ns
%% Log    INFO      in transmitter_1,   Axi Stream Send.  TData: 00000123  TStrb: 1111  TKeep: 1111  TID: 02  TDest: 3  TUser: 4  TLast: 0  Operation# 291 at 3010 ns
%% Log    INFO      in transmitter_1,   Axi Stream Send.  TData: 00000124  TStrb: 1111  TKeep: 1111  TID: 02  TDest: 3  TUser: 4  TLast: 0  Operation# 292 at 3020 ns
%% Log    INFO      in transmitter_1,   Axi Stream Send.  TData: 00000125  TStrb: 1111  TKeep: 1111  TID: 02  TDest: 3  TUser: 4  TLast: 0  Operation# 293 at 3030 ns
%% Log    INFO      in transmitter_1,   Axi Stream Send.  TData: 00000126  TStrb: 1111  TKeep: 1111  TID: 02  TDest: 3  TUser: 4  TLast: 0  Operation# 294 at 3040 ns
%% Log    INFO      in transmitter_1,   Axi Stream Send.  TData: 00000127  TStrb: 1111  TKeep: 1111  TID: 02  TDest: 3  TUser: 4  TLast: 0  Operation# 295 at 3050 ns
%% Log    INFO      in transmitter_1,   Axi Stream Send.  TData: 00000128  TStrb: 1111  TKeep: 1111  TID: 02  TDest: 3  TUser: 4  TLast: 0  Operation# 296 at 3060 ns
%% Log    INFO      in transmitter_1,   Axi Stream Send.  TData: 00000129  TStrb: 1111  TKeep: 1111  TID: 02  TDest: 3  TUser: 4  TLast: 0  Operation# 297 at 3070 ns
%% Log    INFO      in transmitter_1,   Axi Stream Send.  TData: 0000012A  TStrb: 1111  TKeep: 1111  TID: 02  TDest: 3  TUser: 4  TLast: 0  Operation# 298 at 3080 ns
%% Log    INFO      in transmitter_1,   Axi Stream Send.  TData: 0000012B  TStrb: 1111  TKeep: 1111  TID: 02  TDest: 3  TUser: 4  TLast: 0  Operation# 299 at 3090 ns
%% Log    INFO      in transmitter_1,   Axi Stream Send.  TData: 0000012C  TStrb: 1111  TKeep: 1111  TID: 02  TDest: 3  TUser: 4  TLast: 0  Operation# 300 at 3100 ns
%% Log    INFO      in transmitter_1,   Axi Stream Send.  TData: 0000012D  TStrb: 1111  TKeep: 1111  TID: 02  TDest: 3  TUser: 4  TLast: 0  Operation# 301 at 3110 ns
%% Log    INFO      in transmitter_1,   Axi Stream Send.  TData: 0000012E  TStrb: 1111  TKeep: 1111  TID: 02  TDest: 3  TUser: 4  TLast: 0  Operation# 302 at 3120 ns
%% Log    INFO      in transmitter_1,   Axi Stream Send.  TData: 0000012F  TStrb: 1111  TKeep: 1111  TID: 02  TDest: 3  TUser: 4  TLast: 0  Operation# 303 at 3130 ns
%% Log    INFO      in transmitter_1,   Axi Stream Send.  TData: 00000130  TStrb: 1111  TKeep: 1111  TID: 02  TDest: 3  TUser: 4  TLast: 0  Operation# 304 at 3140 ns
%% Log    INFO      in transmitter_1,   Axi Stream Send.  TData: 00000131  TStrb: 1111  TKeep: 1111  TID: 02  TDest: 3  TUser: 4  TLast: 0  Operation# 305 at 3150 ns
%% Log    INFO      in transmitter_1,   Axi Stream Send.  TData: 00000132  TStrb: 1111  TKeep: 1111  TID: 02  TDest: 3  TUser: 4  TLast: 0  Operation# 306 at 3160 ns
%% Log    INFO      in transmitter_1,   Axi Stream Send.  TData: 00000133  TStrb: 1111  TKeep: 1111  TID: 02  TDest: 3  TUser: 4  TLast: 0  Operation# 307 at 3170 ns
%% Log    INFO      in transmitter_1,   Axi Stream Send.  TData: 00000134  TStrb: 1111  TKeep: 1111  TID: 02  TDest: 3  TUser: 4  TLast: 0  Operation# 308 at 3180 ns
%% Log    INFO      in transmitter_1,   Axi Stream Send.  TData: 00000135  TStrb: 1111  TKeep: 1111  TID: 02  TDest: 3  TUser: 4  TLast: 0  Operation# 309 at 3190 ns
%% Log    INFO      in transmitter_1,   Axi Stream Send.  TData: 00000136  TStrb: 1111  TKeep: 1111  TID: 02  TDest: 3  TUser: 4  TLast: 0  Operation# 310 at 3200 ns
%% Log    INFO      in transmitter_1,   Axi Stream Send.  TData: 00000137  TStrb: 1111  TKeep: 1111  TID: 02  TDest: 3  TUser: 4  TLast: 0  Operation# 311 at 3210 ns
%% Log    INFO      in transmitter_1,   Axi Stream Send.  TData: 00000138  TStrb: 1111  TKeep: 1111  TID: 02  TDest: 3  TUser: 4  TLast: 0  Operation# 312 at 3220 ns
%% Log    INFO      in transmitter_1,   Axi Stream Send.  TData: 00000139  TStrb: 1111  TKeep: 1111  TID: 02  TDest: 3  TUser: 4  TLast: 0  Operation# 313 at 3230 ns
%% Log    INFO      in transmitter_1,   Axi Stream Send.  TData: 0000013A  TStrb: 1111  TKeep: 1111  TID: 02  TDest: 3  TUser: 4  TLast: 0  Operation# 314 at 3240 ns
%% Log    INFO      in transmitter_1,   Axi Stream Send.  TData: 0000013B  TStrb: 1111  TKeep: 1111  TID: 02  TDest: 3  TUser: 4  TLast: 0  Operation# 315 at 3250 ns
%% Log    INFO      in transmitter_1,   Axi Stream Send.  TData: 0000013C  TStrb: 1111  TKeep: 1111  TID: 02  TDest: 3  TUser: 4  TLast: 0  Operation# 316 at 3260 ns
%% Log    INFO      in transmitter_1,   Axi Stream Send.  TData: 0000013D  TStrb: 1111  TKeep: 1111  TID: 02  TDest: 3  TUser: 4  TLast: 0  Operation# 317 at 3270 ns
%% Log    INFO      in transmitter_1,   Axi Stream Send.  TData: 0000013E  TStrb: 1111  TKeep: 1111  TID: 02  TDest: 3  TUser: 4  TLast: 0  Operation# 318 at 3280 ns
%% Log    INFO      in transmitter_1,   Axi Stream Send.  TData: 0000013F  TStrb: 1111  TKeep: 1111  TID: 02  TDest: 3  TUser: 4  TLast: 0  Operation# 319 at 3290 ns
%% Log    INFO      in transmitter_1,   Axi Stream Send.  TData: 00000140  TStrb: 1111  TKeep: 1111  TID: 02  TDest: 3  TUser: 4  TLast: 0  Operation# 320 at 3300 ns
%% Log    INFO      in transmitter_1,   Axi Stream Send.  TData: 00000141  TStrb: 1111  TKeep: 1111  TID: 02  TDest: 3  TUser: 4  TLast: 0  Operation# 321 at 3310 ns
%% Log    INFO      in transmitter_1,   Axi Stream Send.  TData: 00000142  TStrb: 1111  TKeep: 1111  TID: 02  TDest: 3  TUser: 4  TLast: 0  Operation# 322 at 3320 ns
%% Log    INFO      in transmitter_1,   Axi Stream Send.  TData: 00000143  TStrb: 1111  TKeep: 1111  TID: 02  TDest: 3  TUser: 4  TLast: 0  Operation# 323 at 3330 ns
%% Log    INFO      in transmitter_1,   Axi Stream Send.  TData: 00000144  TStrb: 1111  TKeep: 1111  TID: 02  TDest: 3  TUser: 4  TLast: 0  Operation# 324 at 3340 ns
%% Log    INFO      in transmitter_1,   Axi Stream Send.  TData: 00000145  TStrb: 1111  TKeep: 1111  TID: 02  TDest: 3  TUser: 4  TLast: 0  Operation# 325 at 3350 ns
%% Log    INFO      in transmitter_1,   Axi Stream Send.  TData: 00000146  TStrb: 1111  TKeep: 1111  TID: 02  TDest: 3  TUser: 4  TLast: 0  Operation# 326 at 3360 ns
%% Log    INFO      in transmitter_1,   Axi Stream Send.  TData: 00000147  TStrb: 1111  TKeep: 1111  TID: 02  TDest: 3  TUser: 4  TLast: 0  Operation# 327 at 3370 ns
%% Log    INFO      in transmitter_1,   Axi Stream Send.  TData: 00000148  TStrb: 1111  TKeep: 1111  TID: 02  TDest: 3  TUser: 4  TLast: 0  Operation# 328 at 3380 ns
%% Log    INFO      in transmitter_1,   Axi Stream Send.  TData: 00000149  TStrb: 1111  TKeep: 1111  TID: 02  TDest: 3  TUser: 4  TLast: 0  Operation# 329 at 3390 ns
%% Log    INFO      in transmitter_1,   Axi Stream Send.  TData: 0000014A  TStrb: 1111  TKeep: 1111  TID: 02  TDest: 3  TUser: 4  TLast: 1  Operation# 330 at 3400 ns
%% Log    INFO      in receiver_1,   Burst Receive.  Operation# 5  Last Data: 0000014A  TID: 02  TDest: 3  TUser: 4  TLast: 1 at 3410 ns
%% Log    PASSED    in Default,   Receiver: NumBytes Received Received : 272 at 3410 ns
%% Log    PASSED    in Default,   Receiver, ID:  Received : 02 at 3410 ns
%% Log    PASSED    in Default,   Receiver, Dest:  Received : 3 at 3410 ns
%% Log    PASSED    in Default,   Receiver, User:  Received : 4 at 3410 ns
%% Log    PASSED    in Default,   Receiver:  Received : 00000107 at 3410 ns
%% Log    PASSED    in Default,   Receiver:  Received : 00000108 at 3410 ns
%% Log    PASSED    in Default,   Receiver:  Received : 00000109 at 3410 ns
%% Log    PASSED    in Default,   Receiver:  Received : 0000010A at 3410 ns
%% Log    PASSED    in Default,   Receiver:  Received : 0000010B at 3410 ns
%% Log    PASSED    in Default,   Receiver:  Received : 0000010C at 3410 ns
%% Log    PASSED    in Default,   Receiver:  Received : 0000010D at 3410 ns
%% Log    PASSED    in Default,   Receiver:  Received : 0000010E at 3410 ns
%% Log    PASSED    in Default,   Receiver:  Received : 0000010F at 3410 ns
%% Log    PASSED    in Default,   Receiver:  Received : 00000110 at 3410 ns
%% Log    PASSED    in Default,   Receiver:  Received : 00000111 at 3410 ns
%% Log    PASSED    in Default,   Receiver:  Received : 00000112 at 3410 ns
%% Log    PASSED    in Default,   Receiver:  Received : 00000113 at 3410 ns
%% Log    PASSED    in Default,   Receiver:  Received : 00000114 at 3410 ns
%% Log    PASSED    in Default,   Receiver:  Received : 00000115 at 3410 ns
%% Log    PASSED    in Default,   Receiver:  Received : 00000116 at 3410 ns
%% Log    PASSED    in Default,   Receiver:  Received : 00000117 at 3410 ns
%% Log    PASSED    in Default,   Receiver:  Received : 00000118 at 3410 ns
%% Log    PASSED    in Default,   Receiver:  Received : 00000119 at 3410 ns
%% Log    PASSED    in Default,   Receiver:  Received : 0000011A at 3410 ns
%% Log    PASSED    in Default,   Receiver:  Received : 0000011B at 3410 ns
%% Log    PASSED    in Default,   Receiver:  Received : 0000011C at 3410 ns
%% Log    PASSED    in Default,   Receiver:  Received : 0000011D at 3410 ns
%% Log    PASSED    in Default,   Receiver:  Received : 0000011E at 3410 ns
%% Log    PASSED    in Default,   Receiver:  Received : 0000011F at 3410 ns
%% Log    PASSED    in Default,   Receiver:  Received : 00000120 at 3410 ns
%% Log    PASSED    in Default,   Receiver:  Received : 00000121 at 3410 ns
%% Log    PASSED    in Default,   Receiver:  Received : 00000122 at 3410 ns
%% Log    PASSED    in Default,   Receiver:  Received : 00000123 at 3410 ns
%% Log    PASSED    in Default,   Receiver:  Received : 00000124 at 3410 ns
%% Log    PASSED    in Default,   Receiver:  Received : 00000125 at 3410 ns
%% Log    PASSED    in Default,   Receiver:  Received : 00000126 at 3410 ns
%% Log    PASSED    in Default,   Receiver:  Received : 00000127 at 3410 ns
%% Log    PASSED    in Default,   Receiver:  Received : 00000128 at 3410 ns
%% Log    PASSED    in Default,   Receiver:  Received : 00000129 at 3410 ns
%% Log    PASSED    in Default,   Receiver:  Received : 0000012A at 3410 ns
%% Log    PASSED    in Default,   Receiver:  Received : 0000012B at 3410 ns
%% Log    PASSED    in Default,   Receiver:  Received : 0000012C at 3410 ns
%% Log    PASSED    in Default,   Receiver:  Received : 0000012D at 3410 ns
%% Log    PASSED    in Default,   Receiver:  Received : 0000012E at 3410 ns
%% Log    PASSED    in Default,   Receiver:  Received : 0000012F at 3410 ns
%% Log    PASSED    in Default,   Receiver:  Received : 00000130 at 3410 ns
%% Log    PASSED    in Default,   Receiver:  Received : 00000131 at 3410 ns
%% Log    PASSED    in Default,   Receiver:  Received : 00000132 at 3410 ns
%% Log    PASSED    in Default,   Receiver:  Received : 00000133 at 3410 ns
%% Log    PASSED    in Default,   Receiver:  Received : 00000134 at 3410 ns
%% Log    PASSED    in Default,   Receiver:  Received : 00000135 at 3410 ns
%% Log    PASSED    in Default,   Receiver:  Received : 00000136 at 3410 ns
%% Log    PASSED    in Default,   Receiver:  Received : 00000137 at 3410 ns
%% Log    PASSED    in Default,   Receiver:  Received : 00000138 at 3410 ns
%% Log    PASSED    in Default,   Receiver:  Received : 00000139 at 3410 ns
%% Log    PASSED    in Default,   Receiver:  Received : 0000013A at 3410 ns
%% Log    PASSED    in Default,   Receiver:  Received : 0000013B at 3410 ns
%% Log    PASSED    in Default,   Receiver:  Received : 0000013C at 3410 ns
%% Log    PASSED    in Default,   Receiver:  Received : 0000013D at 3410 ns
%% Log    PASSED    in Default,   Receiver:  Received : 0000013E at 3410 ns
%% Log    PASSED    in Default,   Receiver:  Received : 0000013F at 3410 ns
%% Log    PASSED    in Default,   Receiver:  Received : 00000140 at 3410 ns
%% Log    PASSED    in Default,   Receiver:  Received : 00000141 at 3410 ns
%% Log    PASSED    in Default,   Receiver:  Received : 00000142 at 3410 ns
%% Log    PASSED    in Default,   Receiver:  Received : 00000143 at 3410 ns
%% Log    PASSED    in Default,   Receiver:  Received : 00000144 at 3410 ns
%% Log    PASSED    in Default,   Receiver:  Received : 00000145 at 3410 ns
%% Log    PASSED    in Default,   Receiver:  Received : 00000146 at 3410 ns
%% Log    PASSED    in Default,   Receiver:  Received : 00000147 at 3410 ns
%% Log    PASSED    in Default,   Receiver:  Received : 00000148 at 3410 ns
%% Log    PASSED    in Default,   Receiver:  Received : 00000149 at 3410 ns
%% Log    PASSED    in Default,   Receiver:  Received : 0000014A at 3410 ns
%% Log    INFO      in transmitter_1,   Axi Stream Send.  TData: 0000014B  TStrb: 1111  TKeep: 1111  TID: 02  TDest: 3  TUser: 4  TLast: 0  Operation# 331 at 3410 ns
%% Log    INFO      in transmitter_1,   Axi Stream Send.  TData: 0000014C  TStrb: 1111  TKeep: 1111  TID: 02  TDest: 3  TUser: 4  TLast: 0  Operation# 332 at 3420 ns
%% Log    INFO      in transmitter_1,   Axi Stream Send.  TData: 0000014D  TStrb: 1111  TKeep: 1111  TID: 02  TDest: 3  TUser: 4  TLast: 0  Operation# 333 at 3430 ns
%% Log    INFO      in transmitter_1,   Axi Stream Send.  TData: 0000014E  TStrb: 1111  TKeep: 1111  TID: 02  TDest: 3  TUser: 4  TLast: 0  Operation# 334 at 3440 ns
%% Log    INFO      in transmitter_1,   Axi Stream Send.  TData: 0000014F  TStrb: 1111  TKeep: 1111  TID: 02  TDest: 3  TUser: 4  TLast: 0  Operation# 335 at 3450 ns
%% Log    INFO      in transmitter_1,   Axi Stream Send.  TData: 00000150  TStrb: 1111  TKeep: 1111  TID: 02  TDest: 3  TUser: 4  TLast: 0  Operation# 336 at 3460 ns
%% Log    INFO      in transmitter_1,   Axi Stream Send.  TData: 00000151  TStrb: 1111  TKeep: 1111  TID: 02  TDest: 3  TUser: 4  TLast: 0  Operation# 337 at 3470 ns
%% Log    INFO      in transmitter_1,   Axi Stream Send.  TData: 00000152  TStrb: 1111  TKeep: 1111  TID: 02  TDest: 3  TUser: 4  TLast: 0  Operation# 338 at 3480 ns
%% Log    INFO      in transmitter_1,   Axi Stream Send.  TData: 00000153  TStrb: 1111  TKeep: 1111  TID: 02  TDest: 3  TUser: 4  TLast: 0  Operation# 339 at 3490 ns
%% Log    INFO      in transmitter_1,   Axi Stream Send.  TData: 00000154  TStrb: 1111  TKeep: 1111  TID: 02  TDest: 3  TUser: 4  TLast: 0  Operation# 340 at 3500 ns
%% Log    INFO      in transmitter_1,   Axi Stream Send.  TData: 00000155  TStrb: 1111  TKeep: 1111  TID: 02  TDest: 3  TUser: 4  TLast: 0  Operation# 341 at 3510 ns
%% Log    INFO      in transmitter_1,   Axi Stream Send.  TData: 00000156  TStrb: 1111  TKeep: 1111  TID: 02  TDest: 3  TUser: 4  TLast: 0  Operation# 342 at 3520 ns
%% Log    INFO      in transmitter_1,   Axi Stream Send.  TData: 00000157  TStrb: 1111  TKeep: 1111  TID: 02  TDest: 3  TUser: 4  TLast: 0  Operation# 343 at 3530 ns
%% Log    INFO      in transmitter_1,   Axi Stream Send.  TData: 00000158  TStrb: 1111  TKeep: 1111  TID: 02  TDest: 3  TUser: 4  TLast: 0  Operation# 344 at 3540 ns
%% Log    INFO      in transmitter_1,   Axi Stream Send.  TData: 00000159  TStrb: 1111  TKeep: 1111  TID: 02  TDest: 3  TUser: 4  TLast: 0  Operation# 345 at 3550 ns
%% Log    INFO      in transmitter_1,   Axi Stream Send.  TData: 0000015A  TStrb: 1111  TKeep: 1111  TID: 02  TDest: 3  TUser: 4  TLast: 0  Operation# 346 at 3560 ns
%% Log    INFO      in transmitter_1,   Axi Stream Send.  TData: 0000015B  TStrb: 1111  TKeep: 1111  TID: 02  TDest: 3  TUser: 4  TLast: 0  Operation# 347 at 3570 ns
%% Log    INFO      in transmitter_1,   Axi Stream Send.  TData: 0000015C  TStrb: 1111  TKeep: 1111  TID: 02  TDest: 3  TUser: 4  TLast: 0  Operation# 348 at 3580 ns
%% Log    INFO      in transmitter_1,   Axi Stream Send.  TData: 0000015D  TStrb: 1111  TKeep: 1111  TID: 02  TDest: 3  TUser: 4  TLast: 0  Operation# 349 at 3590 ns
%% Log    INFO      in transmitter_1,   Axi Stream Send.  TData: 0000015E  TStrb: 1111  TKeep: 1111  TID: 02  TDest: 3  TUser: 4  TLast: 0  Operation# 350 at 3600 ns
%% Log    INFO      in transmitter_1,   Axi Stream Send.  TData: 0000015F  TStrb: 1111  TKeep: 1111  TID: 02  TDest: 3  TUser: 4  TLast: 0  Operation# 351 at 3610 ns
%% Log    INFO      in transmitter_1,   Axi Stream Send.  TData: 00000160  TStrb: 1111  TKeep: 1111  TID: 02  TDest: 3  TUser: 4  TLast: 0  Operation# 352 at 3620 ns
%% Log    INFO      in transmitter_1,   Axi Stream Send.  TData: 00000161  TStrb: 1111  TKeep: 1111  TID: 02  TDest: 3  TUser: 4  TLast: 0  Operation# 353 at 3630 ns
%% Log    INFO      in transmitter_1,   Axi Stream Send.  TData: 00000162  TStrb: 1111  TKeep: 1111  TID: 02  TDest: 3  TUser: 4  TLast: 0  Operation# 354 at 3640 ns
%% Log    INFO      in transmitter_1,   Axi Stream Send.  TData: 00000163  TStrb: 1111  TKeep: 1111  TID: 02  TDest: 3  TUser: 4  TLast: 0  Operation# 355 at 3650 ns
%% Log    INFO      in transmitter_1,   Axi Stream Send.  TData: 00000164  TStrb: 1111  TKeep: 1111  TID: 02  TDest: 3  TUser: 4  TLast: 0  Operation# 356 at 3660 ns
%% Log    INFO      in transmitter_1,   Axi Stream Send.  TData: 00000165  TStrb: 1111  TKeep: 1111  TID: 02  TDest: 3  TUser: 4  TLast: 0  Operation# 357 at 3670 ns
%% Log    INFO      in transmitter_1,   Axi Stream Send.  TData: 00000166  TStrb: 1111  TKeep: 1111  TID: 02  TDest: 3  TUser: 4  TLast: 0  Operation# 358 at 3680 ns
%% Log    INFO      in transmitter_1,   Axi Stream Send.  TData: 00000167  TStrb: 1111  TKeep: 1111  TID: 02  TDest: 3  TUser: 4  TLast: 0  Operation# 359 at 3690 ns
%% Log    INFO      in transmitter_1,   Axi Stream Send.  TData: 00000168  TStrb: 1111  TKeep: 1111  TID: 02  TDest: 3  TUser: 4  TLast: 0  Operation# 360 at 3700 ns
%% Log    INFO      in transmitter_1,   Axi Stream Send.  TData: 00000169  TStrb: 1111  TKeep: 1111  TID: 02  TDest: 3  TUser: 4  TLast: 0  Operation# 361 at 3710 ns
%% Log    INFO      in transmitter_1,   Axi Stream Send.  TData: 0000016A  TStrb: 1111  TKeep: 1111  TID: 02  TDest: 3  TUser: 4  TLast: 0  Operation# 362 at 3720 ns
%% Log    INFO      in transmitter_1,   Axi Stream Send.  TData: 0000016B  TStrb: 1111  TKeep: 1111  TID: 02  TDest: 3  TUser: 4  TLast: 0  Operation# 363 at 3730 ns
%% Log    INFO      in transmitter_1,   Axi Stream Send.  TData: 0000016C  TStrb: 1111  TKeep: 1111  TID: 02  TDest: 3  TUser: 4  TLast: 0  Operation# 364 at 3740 ns
%% Log    INFO      in transmitter_1,   Axi Stream Send.  TData: 0000016D  TStrb: 1111  TKeep: 1111  TID: 02  TDest: 3  TUser: 4  TLast: 0  Operation# 365 at 3750 ns
%% Log    INFO      in transmitter_1,   Axi Stream Send.  TData: 0000016E  TStrb: 1111  TKeep: 1111  TID: 02  TDest: 3  TUser: 4  TLast: 0  Operation# 366 at 3760 ns
%% Log    INFO      in transmitter_1,   Axi Stream Send.  TData: 0000016F  TStrb: 1111  TKeep: 1111  TID: 02  TDest: 3  TUser: 4  TLast: 0  Operation# 367 at 3770 ns
%% Log    INFO      in transmitter_1,   Axi Stream Send.  TData: 00000170  TStrb: 1111  TKeep: 1111  TID: 02  TDest: 3  TUser: 4  TLast: 0  Operation# 368 at 3780 ns
%% Log    INFO      in transmitter_1,   Axi Stream Send.  TData: 00000171  TStrb: 1111  TKeep: 1111  TID: 02  TDest: 3  TUser: 4  TLast: 0  Operation# 369 at 3790 ns
%% Log    INFO      in transmitter_1,   Axi Stream Send.  TData: 00000172  TStrb: 1111  TKeep: 1111  TID: 02  TDest: 3  TUser: 4  TLast: 0  Operation# 370 at 3800 ns
%% Log    INFO      in transmitter_1,   Axi Stream Send.  TData: 00000173  TStrb: 1111  TKeep: 1111  TID: 02  TDest: 3  TUser: 4  TLast: 0  Operation# 371 at 3810 ns
%% Log    INFO      in transmitter_1,   Axi Stream Send.  TData: 00000174  TStrb: 1111  TKeep: 1111  TID: 02  TDest: 3  TUser: 4  TLast: 0  Operation# 372 at 3820 ns
%% Log    INFO      in transmitter_1,   Axi Stream Send.  TData: 00000175  TStrb: 1111  TKeep: 1111  TID: 02  TDest: 3  TUser: 4  TLast: 0  Operation# 373 at 3830 ns
%% Log    INFO      in transmitter_1,   Axi Stream Send.  TData: 00000176  TStrb: 1111  TKeep: 1111  TID: 02  TDest: 3  TUser: 4  TLast: 0  Operation# 374 at 3840 ns
%% Log    INFO      in transmitter_1,   Axi Stream Send.  TData: 00000177  TStrb: 1111  TKeep: 1111  TID: 02  TDest: 3  TUser: 4  TLast: 0  Operation# 375 at 3850 ns
%% Log    INFO      in transmitter_1,   Axi Stream Send.  TData: 00000178  TStrb: 1111  TKeep: 1111  TID: 02  TDest: 3  TUser: 4  TLast: 0  Operation# 376 at 3860 ns
%% Log    INFO      in transmitter_1,   Axi Stream Send.  TData: 00000179  TStrb: 1111  TKeep: 1111  TID: 02  TDest: 3  TUser: 4  TLast: 0  Operation# 377 at 3870 ns
%% Log    INFO      in transmitter_1,   Axi Stream Send.  TData: 0000017A  TStrb: 1111  TKeep: 1111  TID: 02  TDest: 3  TUser: 4  TLast: 0  Operation# 378 at 3880 ns
%% Log    INFO      in transmitter_1,   Axi Stream Send.  TData: 0000017B  TStrb: 1111  TKeep: 1111  TID: 02  TDest: 3  TUser: 4  TLast: 0  Operation# 379 at 3890 ns
%% Log    INFO      in transmitter_1,   Axi Stream Send.  TData: 0000017C  TStrb: 1111  TKeep: 1111  TID: 02  TDest: 3  TUser: 4  TLast: 0  Operation# 380 at 3900 ns
%% Log    INFO      in transmitter_1,   Axi Stream Send.  TData: 0000017D  TStrb: 1111  TKeep: 1111  TID: 02  TDest: 3  TUser: 4  TLast: 0  Operation# 381 at 3910 ns
%% Log    INFO      in transmitter_1,   Axi Stream Send.  TData: 0000017E  TStrb: 1111  TKeep: 1111  TID: 02  TDest: 3  TUser: 4  TLast: 0  Operation# 382 at 3920 ns
%% Log    INFO      in transmitter_1,   Axi Stream Send.  TData: 0000017F  TStrb: 1111  TKeep: 1111  TID: 02  TDest: 3  TUser: 4  TLast: 0  Operation# 383 at 3930 ns
%% Log    INFO      in transmitter_1,   Axi Stream Send.  TData: 00000180  TStrb: 1111  TKeep: 1111  TID: 02  TDest: 3  TUser: 4  TLast: 0  Operation# 384 at 3940 ns
%% Log    INFO      in transmitter_1,   Axi Stream Send.  TData: 00000181  TStrb: 1111  TKeep: 1111  TID: 02  TDest: 3  TUser: 4  TLast: 0  Operation# 385 at 3950 ns
%% Log    INFO      in transmitter_1,   Axi Stream Send.  TData: 00000182  TStrb: 1111  TKeep: 1111  TID: 02  TDest: 3  TUser: 4  TLast: 0  Operation# 386 at 3960 ns
%% Log    INFO      in transmitter_1,   Axi Stream Send.  TData: 00000183  TStrb: 1111  TKeep: 1111  TID: 02  TDest: 3  TUser: 4  TLast: 0  Operation# 387 at 3970 ns
%% Log    INFO      in transmitter_1,   Axi Stream Send.  TData: 00000184  TStrb: 1111  TKeep: 1111  TID: 02  TDest: 3  TUser: 4  TLast: 0  Operation# 388 at 3980 ns
%% Log    INFO      in transmitter_1,   Axi Stream Send.  TData: 00000185  TStrb: 1111  TKeep: 1111  TID: 02  TDest: 3  TUser: 4  TLast: 0  Operation# 389 at 3990 ns
%% Log    INFO      in transmitter_1,   Axi Stream Send.  TData: 00000186  TStrb: 1111  TKeep: 1111  TID: 02  TDest: 3  TUser: 4  TLast: 0  Operation# 390 at 4000 ns
%% Log    INFO      in transmitter_1,   Axi Stream Send.  TData: 00000187  TStrb: 1111  TKeep: 1111  TID: 02  TDest: 3  TUser: 4  TLast: 0  Operation# 391 at 4010 ns
%% Log    INFO      in transmitter_1,   Axi Stream Send.  TData: 00000188  TStrb: 1111  TKeep: 1111  TID: 02  TDest: 3  TUser: 4  TLast: 0  Operation# 392 at 4020 ns
%% Log    INFO      in transmitter_1,   Axi Stream Send.  TData: 00000189  TStrb: 1111  TKeep: 1111  TID: 02  TDest: 3  TUser: 4  TLast: 0  Operation# 393 at 4030 ns
%% Log    INFO      in transmitter_1,   Axi Stream Send.  TData: 0000018A  TStrb: 1111  TKeep: 1111  TID: 02  TDest: 3  TUser: 4  TLast: 0  Operation# 394 at 4040 ns
%% Log    INFO      in transmitter_1,   Axi Stream Send.  TData: 0000018B  TStrb: 1111  TKeep: 1111  TID: 02  TDest: 3  TUser: 4  TLast: 0  Operation# 395 at 4050 ns
%% Log    INFO      in transmitter_1,   Axi Stream Send.  TData: 0000018C  TStrb: 1111  TKeep: 1111  TID: 02  TDest: 3  TUser: 4  TLast: 0  Operation# 396 at 4060 ns
%% Log    INFO      in transmitter_1,   Axi Stream Send.  TData: 0000018D  TStrb: 1111  TKeep: 1111  TID: 02  TDest: 3  TUser: 4  TLast: 0  Operation# 397 at 4070 ns
%% Log    INFO      in transmitter_1,   Axi Stream Send.  TData: 0000018E  TStrb: 1111  TKeep: 1111  TID: 02  TDest: 3  TUser: 4  TLast: 0  Operation# 398 at 4080 ns
%% Log    INFO      in transmitter_1,   Axi Stream Send.  TData: 0000018F  TStrb: 1111  TKeep: 1111  TID: 02  TDest: 3  TUser: 4  TLast: 1  Operation# 399 at 4090 ns
%% Log    INFO      in transmitter_1,   Axi Stream Send.  TData: 00000190  TStrb: 1111  TKeep: 1111  TID: 03  TDest: 4  TUser: 5  TLast: 0  Operation# 400 at 4100 ns
%% Log    INFO      in receiver_1,   Burst Receive.  Operation# 6  Last Data: 0000018F  TID: 02  TDest: 3  TUser: 4  TLast: 1 at 4100 ns
%% Log    PASSED    in Default,   Receiver: NumBytes Received Received : 276 at 4100 ns
%% Log    PASSED    in Default,   Receiver, ID:  Received : 02 at 4100 ns
%% Log    PASSED    in Default,   Receiver, Dest:  Received : 3 at 4100 ns
%% Log    PASSED    in Default,   Receiver, User:  Received : 4 at 4100 ns
%% Log    PASSED    in Default,   Receiver:  Received : 0000014B at 4100 ns
%% Log    PASSED    in Default,   Receiver:  Received : 0000014C at 4100 ns
%% Log    PASSED    in Default,   Receiver:  Received : 0000014D at 4100 ns
%% Log    PASSED    in Default,   Receiver:  Received : 0000014E at 4100 ns
%% Log    PASSED    in Default,   Receiver:  Received : 0000014F at 4100 ns
%% Log    PASSED    in Default,   Receiver:  Received : 00000150 at 4100 ns
%% Log    PASSED    in Default,   Receiver:  Received : 00000151 at 4100 ns
%% Log    PASSED    in Default,   Receiver:  Received : 00000152 at 4100 ns
%% Log    PASSED    in Default,   Receiver:  Received : 00000153 at 4100 ns
%% Log    PASSED    in Default,   Receiver:  Received : 00000154 at 4100 ns
%% Log    PASSED    in Default,   Receiver:  Received : 00000155 at 4100 ns
%% Log    PASSED    in Default,   Receiver:  Received : 00000156 at 4100 ns
%% Log    PASSED    in Default,   Receiver:  Received : 00000157 at 4100 ns
%% Log    PASSED    in Default,   Receiver:  Received : 00000158 at 4100 ns
%% Log    PASSED    in Default,   Receiver:  Received : 00000159 at 4100 ns
%% Log    PASSED    in Default,   Receiver:  Received : 0000015A at 4100 ns
%% Log    PASSED    in Default,   Receiver:  Received : 0000015B at 4100 ns
%% Log    PASSED    in Default,   Receiver:  Received : 0000015C at 4100 ns
%% Log    PASSED    in Default,   Receiver:  Received : 0000015D at 4100 ns
%% Log    PASSED    in Default,   Receiver:  Received : 0000015E at 4100 ns
%% Log    PASSED    in Default,   Receiver:  Received : 0000015F at 4100 ns
%% Log    PASSED    in Default,   Receiver:  Received : 00000160 at 4100 ns
%% Log    PASSED    in Default,   Receiver:  Received : 00000161 at 4100 ns
%% Log    PASSED    in Default,   Receiver:  Received : 00000162 at 4100 ns
%% Log    PASSED    in Default,   Receiver:  Received : 00000163 at 4100 ns
%% Log    PASSED    in Default,   Receiver:  Received : 00000164 at 4100 ns
%% Log    PASSED    in Default,   Receiver:  Received : 00000165 at 4100 ns
%% Log    PASSED    in Default,   Receiver:  Received : 00000166 at 4100 ns
%% Log    PASSED    in Default,   Receiver:  Received : 00000167 at 4100 ns
%% Log    PASSED    in Default,   Receiver:  Received : 00000168 at 4100 ns
%% Log    PASSED    in Default,   Receiver:  Received : 00000169 at 4100 ns
%% Log    PASSED    in Default,   Receiver:  Received : 0000016A at 4100 ns
%% Log    PASSED    in Default,   Receiver:  Received : 0000016B at 4100 ns
%% Log    PASSED    in Default,   Receiver:  Received : 0000016C at 4100 ns
%% Log    PASSED    in Default,   Receiver:  Received : 0000016D at 4100 ns
%% Log    PASSED    in Default,   Receiver:  Received : 0000016E at 4100 ns
%% Log    PASSED    in Default,   Receiver:  Received : 0000016F at 4100 ns
%% Log    PASSED    in Default,   Receiver:  Received : 00000170 at 4100 ns
%% Log    PASSED    in Default,   Receiver:  Received : 00000171 at 4100 ns
%% Log    PASSED    in Default,   Receiver:  Received : 00000172 at 4100 ns
%% Log    PASSED    in Default,   Receiver:  Received : 00000173 at 4100 ns
%% Log    PASSED    in Default,   Receiver:  Received : 00000174 at 4100 ns
%% Log    PASSED    in Default,   Receiver:  Received : 00000175 at 4100 ns
%% Log    PASSED    in Default,   Receiver:  Received : 00000176 at 4100 ns
%% Log    PASSED    in Default,   Receiver:  Received : 00000177 at 4100 ns
%% Log    PASSED    in Default,   Receiver:  Received : 00000178 at 4100 ns
%% Log    PASSED    in Default,   Receiver:  Received : 00000179 at 4100 ns
%% Log    PASSED    in Default,   Receiver:  Received : 0000017A at 4100 ns
%% Log    PASSED    in Default,   Receiver:  Received : 0000017B at 4100 ns
%% Log    PASSED    in Default,   Receiver:  Received : 0000017C at 4100 ns
%% Log    PASSED    in Default,   Receiver:  Received : 0000017D at 4100 ns
%% Log    PASSED    in Default,   Receiver:  Received : 0000017E at 4100 ns
%% Log    PASSED    in Default,   Receiver:  Received : 0000017F at 4100 ns
%% Log    PASSED    in Default,   Receiver:  Received : 00000180 at 4100 ns
%% Log    PASSED    in Default,   Receiver:  Received : 00000181 at 4100 ns
%% Log    PASSED    in Default,   Receiver:  Received : 00000182 at 4100 ns
%% Log    PASSED    in Default,   Receiver:  Received : 00000183 at 4100 ns
%% Log    PASSED    in Default,   Receiver:  Received : 00000184 at 4100 ns
%% Log    PASSED    in Default,   Receiver:  Received : 00000185 at 4100 ns
%% Log    PASSED    in Default,   Receiver:  Received : 00000186 at 4100 ns
%% Log    PASSED    in Default,   Receiver:  Received : 00000187 at 4100 ns
%% Log    PASSED    in Default,   Receiver:  Received : 00000188 at 4100 ns
%% Log    PASSED    in Default,   Receiver:  Received : 00000189 at 4100 ns
%% Log    PASSED    in Default,   Receiver:  Received : 0000018A at 4100 ns
%% Log    PASSED    in Default,   Receiver:  Received : 0000018B at 4100 ns
%% Log    PASSED    in Default,   Receiver:  Received : 0000018C at 4100 ns
%% Log    PASSED    in Default,   Receiver:  Received : 0000018D at 4100 ns
%% Log    PASSED    in Default,   Receiver:  Received : 0000018E at 4100 ns
%% Log    PASSED    in Default,   Receiver:  Received : 0000018F at 4100 ns
%% Log    INFO      in transmitter_1,   Axi Stream Send.  TData: 00000191  TStrb: 1111  TKeep: 1111  TID: 03  TDest: 4  TUser: 5  TLast: 0  Operation# 401 at 4110 ns
%% Log    INFO      in transmitter_1,   Axi Stream Send.  TData: 00000192  TStrb: 1111  TKeep: 1111  TID: 03  TDest: 4  TUser: 5  TLast: 0  Operation# 402 at 4120 ns
%% Log    INFO      in transmitter_1,   Axi Stream Send.  TData: 00000193  TStrb: 1111  TKeep: 1111  TID: 03  TDest: 4  TUser: 5  TLast: 0  Operation# 403 at 4130 ns
%% Log    INFO      in transmitter_1,   Axi Stream Send.  TData: 00000194  TStrb: 1111  TKeep: 1111  TID: 03  TDest: 4  TUser: 5  TLast: 0  Operation# 404 at 4140 ns
%% Log    INFO      in transmitter_1,   Axi Stream Send.  TData: 00000195  TStrb: 1111  TKeep: 1111  TID: 03  TDest: 4  TUser: 5  TLast: 0  Operation# 405 at 4150 ns
