%%   110 ns    Log    INFO      in transmitter_1,                Axi Stream Send.  TData: 00000001  TStrb: 1111  TKeep: 1111  TID: 00  TDest: 0  TUser: 0  TLast: 0  Operation# 1
%%   120 ns    Log    INFO      in transmitter_1,                Axi Stream Send.  TData: XXXXXX01  TStrb: 0001  TKeep: 1111  TID: 00  TDest: 0  TUser: 0  TLast: 0  Operation# 2
%%   130 ns    Log    INFO      in transmitter_1,                Axi Stream Send.  TData: 00000002  TStrb: 1111  TKeep: 1111  TID: 00  TDest: 0  TUser: 0  TLast: 0  Operation# 3
%%   140 ns    Log    INFO      in transmitter_1,                Axi Stream Send.  TData: XXXX01XX  TStrb: 0010  TKeep: 1111  TID: 00  TDest: 0  TUser: 0  TLast: 0  Operation# 4
%%   150 ns    Log    INFO      in transmitter_1,                Axi Stream Send.  TData: 00000003  TStrb: 1111  TKeep: 1111  TID: 00  TDest: 0  TUser: 0  TLast: 0  Operation# 5
%%   160 ns    Log    INFO      in transmitter_1,                Axi Stream Send.  TData: XX01XXXX  TStrb: 0100  TKeep: 1111  TID: 00  TDest: 0  TUser: 0  TLast: 0  Operation# 6
%%   170 ns    Log    INFO      in transmitter_1,                Axi Stream Send.  TData: 00000004  TStrb: 1111  TKeep: 1111  TID: 00  TDest: 0  TUser: 0  TLast: 0  Operation# 7
%%   180 ns    Log    INFO      in transmitter_1,                Axi Stream Send.  TData: 01XXXXXX  TStrb: 1000  TKeep: 1111  TID: 00  TDest: 0  TUser: 0  TLast: 0  Operation# 8
%%   190 ns    Log    INFO      in transmitter_1,                Axi Stream Send.  TData: 00000005  TStrb: 1111  TKeep: 1111  TID: 00  TDest: 0  TUser: 0  TLast: 0  Operation# 9
%%   200 ns    Log    INFO      in transmitter_1,                Axi Stream Send.  TData: XXXX0302  TStrb: 0011  TKeep: 1111  TID: 00  TDest: 0  TUser: 0  TLast: 0  Operation# 10
%%   210 ns    Log    INFO      in transmitter_1,                Axi Stream Send.  TData: 00000006  TStrb: 1111  TKeep: 1111  TID: 00  TDest: 0  TUser: 0  TLast: 0  Operation# 11
%%   220 ns    Log    INFO      in transmitter_1,                Axi Stream Send.  TData: XX0302XX  TStrb: 0110  TKeep: 1111  TID: 00  TDest: 0  TUser: 0  TLast: 0  Operation# 12
%%   230 ns    Log    INFO      in transmitter_1,                Axi Stream Send.  TData: 00000007  TStrb: 1111  TKeep: 1111  TID: 00  TDest: 0  TUser: 0  TLast: 0  Operation# 13
%%   240 ns    Log    INFO      in transmitter_1,                Axi Stream Send.  TData: 0302XXXX  TStrb: 1100  TKeep: 1111  TID: 00  TDest: 0  TUser: 0  TLast: 0  Operation# 14
%%   250 ns    Log    INFO      in transmitter_1,                Axi Stream Send.  TData: 00000008  TStrb: 1111  TKeep: 1111  TID: 00  TDest: 0  TUser: 0  TLast: 0  Operation# 15
%%   260 ns    Log    INFO      in transmitter_1,                Axi Stream Send.  TData: XX060504  TStrb: 0111  TKeep: 1111  TID: 00  TDest: 0  TUser: 0  TLast: 0  Operation# 16
%%   270 ns    Log    INFO      in transmitter_1,                Axi Stream Send.  TData: 00000009  TStrb: 1111  TKeep: 1111  TID: 00  TDest: 0  TUser: 0  TLast: 0  Operation# 17
%%   280 ns    Log    INFO      in transmitter_1,                Axi Stream Send.  TData: 060504XX  TStrb: 1110  TKeep: 1111  TID: 00  TDest: 0  TUser: 0  TLast: 1  Operation# 18
%%   290 ns    Log    INFO      in transmitter_1,                Axi Stream Send.  TData: 0000000A  TStrb: 1111  TKeep: 1111  TID: 00  TDest: 0  TUser: 0  TLast: 0  Operation# 19
%%   290 ns    Log    INFO      in receiver_1,                   Burst Receive.  Operation# 1  Last Data: 060504WW  TID: 00  TDest: 0  TUser: 0  TLast: 1
%%   290 ns    Log    PASSED    in Default,                      TryCount 26
%%   290 ns    Log    PASSED    in Default,                      GetBurst:  Received : 00000001
%%   290 ns    Log    PASSED    in Default,                      GetBurst:  Received : WWWWWW01
%%   290 ns    Log    PASSED    in Default,                      GetBurst:  Received : 00000002
%%   290 ns    Log    PASSED    in Default,                      GetBurst:  Received : WWWW01WW
%%   290 ns    Log    PASSED    in Default,                      GetBurst:  Received : 00000003
%%   290 ns    Log    PASSED    in Default,                      GetBurst:  Received : WW01WWWW
%%   290 ns    Log    PASSED    in Default,                      GetBurst:  Received : 00000004
%%   290 ns    Log    PASSED    in Default,                      GetBurst:  Received : 01WWWWWW
%%   290 ns    Log    PASSED    in Default,                      GetBurst:  Received : 00000005
%%   290 ns    Log    PASSED    in Default,                      GetBurst:  Received : WWWW0302
%%   290 ns    Log    PASSED    in Default,                      GetBurst:  Received : 00000006
%%   290 ns    Log    PASSED    in Default,                      GetBurst:  Received : WW0302WW
%%   290 ns    Log    PASSED    in Default,                      GetBurst:  Received : 00000007
%%   290 ns    Log    PASSED    in Default,                      GetBurst:  Received : 0302WWWW
%%   290 ns    Log    PASSED    in Default,                      GetBurst:  Received : 00000008
%%   290 ns    Log    PASSED    in Default,                      GetBurst:  Received : WW060504
%%   290 ns    Log    PASSED    in Default,                      GetBurst:  Received : 00000009
%%   290 ns    Log    PASSED    in Default,                      GetBurst:  Received : 060504WW
%%   300 ns    Log    INFO      in transmitter_1,                Axi Stream Send.  TData: XXXXXX01  TStrb: 0001  TKeep: 0001  TID: 00  TDest: 0  TUser: 0  TLast: 0  Operation# 20
%%   310 ns    Log    INFO      in transmitter_1,                Axi Stream Send.  TData: 0000000B  TStrb: 1111  TKeep: 1111  TID: 00  TDest: 0  TUser: 0  TLast: 0  Operation# 21
%%   320 ns    Log    INFO      in transmitter_1,                Axi Stream Send.  TData: XXXX01XX  TStrb: 0010  TKeep: 0010  TID: 00  TDest: 0  TUser: 0  TLast: 0  Operation# 22
%%   330 ns    Log    INFO      in transmitter_1,                Axi Stream Send.  TData: 0000000C  TStrb: 1111  TKeep: 1111  TID: 00  TDest: 0  TUser: 0  TLast: 0  Operation# 23
%%   340 ns    Log    INFO      in transmitter_1,                Axi Stream Send.  TData: XX01XXXX  TStrb: 0100  TKeep: 0100  TID: 00  TDest: 0  TUser: 0  TLast: 0  Operation# 24
%%   350 ns    Log    INFO      in transmitter_1,                Axi Stream Send.  TData: 0000000D  TStrb: 1111  TKeep: 1111  TID: 00  TDest: 0  TUser: 0  TLast: 0  Operation# 25
%%   360 ns    Log    INFO      in transmitter_1,                Axi Stream Send.  TData: 01XXXXXX  TStrb: 1000  TKeep: 1000  TID: 00  TDest: 0  TUser: 0  TLast: 0  Operation# 26
%%   370 ns    Log    INFO      in transmitter_1,                Axi Stream Send.  TData: 0000000E  TStrb: 1111  TKeep: 1111  TID: 00  TDest: 0  TUser: 0  TLast: 0  Operation# 27
%%   380 ns    Log    INFO      in transmitter_1,                Axi Stream Send.  TData: XXXX0302  TStrb: 0011  TKeep: 0011  TID: 00  TDest: 0  TUser: 0  TLast: 0  Operation# 28
%%   390 ns    Log    INFO      in transmitter_1,                Axi Stream Send.  TData: 0000000F  TStrb: 1111  TKeep: 1111  TID: 00  TDest: 0  TUser: 0  TLast: 0  Operation# 29
%%   400 ns    Log    INFO      in transmitter_1,                Axi Stream Send.  TData: XX0302XX  TStrb: 0110  TKeep: 0110  TID: 00  TDest: 0  TUser: 0  TLast: 0  Operation# 30
%%   410 ns    Log    INFO      in transmitter_1,                Axi Stream Send.  TData: 00000010  TStrb: 1111  TKeep: 1111  TID: 00  TDest: 0  TUser: 0  TLast: 0  Operation# 31
%%   420 ns    Log    INFO      in transmitter_1,                Axi Stream Send.  TData: 0302XXXX  TStrb: 1100  TKeep: 1100  TID: 00  TDest: 0  TUser: 0  TLast: 0  Operation# 32
%%   430 ns    Log    INFO      in transmitter_1,                Axi Stream Send.  TData: 00000011  TStrb: 1111  TKeep: 1111  TID: 00  TDest: 0  TUser: 0  TLast: 0  Operation# 33
%%   440 ns    Log    INFO      in transmitter_1,                Axi Stream Send.  TData: XX060504  TStrb: 0111  TKeep: 0111  TID: 00  TDest: 0  TUser: 0  TLast: 0  Operation# 34
%%   450 ns    Log    INFO      in transmitter_1,                Axi Stream Send.  TData: 00000012  TStrb: 1111  TKeep: 1111  TID: 00  TDest: 0  TUser: 0  TLast: 0  Operation# 35
%%   460 ns    Log    INFO      in transmitter_1,                Axi Stream Send.  TData: 060504XX  TStrb: 1110  TKeep: 1110  TID: 00  TDest: 0  TUser: 0  TLast: 1  Operation# 36
%%   470 ns    Log    INFO      in receiver_1,                   Burst Receive.  Operation# 2  Last Data: 060504UU  TID: 00  TDest: 0  TUser: 0  TLast: 1
%%   470 ns    Log    PASSED    in Default,                      TryCount 18
%%   470 ns    Log    PASSED    in Default,                      GetBurst:  Received : 0000000A
%%   470 ns    Log    PASSED    in Default,                      GetBurst:  Received : UUUUUU01
%%   470 ns    Log    PASSED    in Default,                      GetBurst:  Received : 0000000B
%%   470 ns    Log    PASSED    in Default,                      GetBurst:  Received : UUUU01UU
%%   470 ns    Log    PASSED    in Default,                      GetBurst:  Received : 0000000C
%%   470 ns    Log    PASSED    in Default,                      GetBurst:  Received : UU01UUUU
%%   470 ns    Log    PASSED    in Default,                      GetBurst:  Received : 0000000D
%%   470 ns    Log    PASSED    in Default,                      GetBurst:  Received : 01UUUUUU
%%   470 ns    Log    PASSED    in Default,                      GetBurst:  Received : 0000000E
%%   470 ns    Log    PASSED    in Default,                      GetBurst:  Received : UUUU0302
%%   470 ns    Log    PASSED    in Default,                      GetBurst:  Received : 0000000F
%%   470 ns    Log    PASSED    in Default,                      GetBurst:  Received : UU0302UU
%%   470 ns    Log    PASSED    in Default,                      GetBurst:  Received : 00000010
%%   470 ns    Log    PASSED    in Default,                      GetBurst:  Received : 0302UUUU
%%   470 ns    Log    PASSED    in Default,                      GetBurst:  Received : 00000011
%%   470 ns    Log    PASSED    in Default,                      GetBurst:  Received : UU060504
%%   470 ns    Log    PASSED    in Default,                      GetBurst:  Received : 00000012
%%   470 ns    Log    PASSED    in Default,                      GetBurst:  Received : 060504UU
