%%         110.0 ns  Log    ALWAYS  in Default,                      Transmit 32 Bytes -- word aligned
%%         110.0 ns  Log    INFO    in transmitter_1,                Axi Stream Send.  TData: 06050403  TStrb: 1111  TKeep: 1111  TID: 00  TDest: 0  TUser: 0  TLast: 0  Operation# 1
%%         120.0 ns  Log    INFO    in transmitter_1,                Axi Stream Send.  TData: 0A090807  TStrb: 1111  TKeep: 1111  TID: 00  TDest: 0  TUser: 0  TLast: 0  Operation# 2
%%         130.0 ns  Log    INFO    in transmitter_1,                Axi Stream Send.  TData: 0E0D0C0B  TStrb: 1111  TKeep: 1111  TID: 00  TDest: 0  TUser: 0  TLast: 0  Operation# 3
%%         140.0 ns  Log    INFO    in transmitter_1,                Axi Stream Send.  TData: 1211100F  TStrb: 1111  TKeep: 1111  TID: 00  TDest: 0  TUser: 0  TLast: 0  Operation# 4
%%         150.0 ns  Log    INFO    in transmitter_1,                Axi Stream Send.  TData: 16151413  TStrb: 1111  TKeep: 1111  TID: 00  TDest: 0  TUser: 0  TLast: 0  Operation# 5
%%         150.0 ns  Log    ALWAYS  in Default,                      Transmit 30 Bytes -- unaligned
%%         160.0 ns  Log    INFO    in transmitter_1,                Axi Stream Send.  TData: 1A191817  TStrb: 1111  TKeep: 1111  TID: 00  TDest: 0  TUser: 0  TLast: 0  Operation# 6
%%         170.0 ns  Log    INFO    in transmitter_1,                Axi Stream Send.  TData: 1E1D1C1B  TStrb: 1111  TKeep: 1111  TID: 00  TDest: 0  TUser: 0  TLast: 0  Operation# 7
%%         180.0 ns  Log    INFO    in transmitter_1,                Axi Stream Send.  TData: 2221201F  TStrb: 1111  TKeep: 1111  TID: 00  TDest: 0  TUser: 0  TLast: 1  Operation# 8
%%         190.0 ns  Log    INFO    in transmitter_1,                Axi Stream Send.  TData: 07050301  TStrb: 1111  TKeep: 1111  TID: 00  TDest: 0  TUser: 0  TLast: 0  Operation# 9
%%         190.0 ns  Log    ALWAYS  in Default,                      Transmit 34 Bytes -- unaligned
%%         190.0 ns  Log    INFO    in receiver_1,                   Burst Receive.  Operation# 1  Last Data: 2221201F  TID: 00  TDest: 0  TUser: 0  TLast: 1
%%         190.0 ns  Log    ALWAYS  in Default,                      Transmit 32 Bytes. Starting with 0
%%         190.0 ns  Log    PASSED  in Default,                      TryCount 16
%%         190.0 ns  Log    PASSED  in Default,                      Receiver: NumBytes Received Received : 32
%%         190.0 ns  Log    PASSED  in receiver_1: RxBurstFifo,      Received: 03   Item Number: 1
%%         190.0 ns  Log    PASSED  in receiver_1: RxBurstFifo,      Received: 04   Item Number: 2
%%         190.0 ns  Log    PASSED  in receiver_1: RxBurstFifo,      Received: 05   Item Number: 3
%%         190.0 ns  Log    PASSED  in receiver_1: RxBurstFifo,      Received: 06   Item Number: 4
%%         190.0 ns  Log    PASSED  in receiver_1: RxBurstFifo,      Received: 07   Item Number: 5
%%         190.0 ns  Log    PASSED  in receiver_1: RxBurstFifo,      Received: 08   Item Number: 6
%%         190.0 ns  Log    PASSED  in receiver_1: RxBurstFifo,      Received: 09   Item Number: 7
%%         190.0 ns  Log    PASSED  in receiver_1: RxBurstFifo,      Received: 0A   Item Number: 8
%%         190.0 ns  Log    PASSED  in receiver_1: RxBurstFifo,      Received: 0B   Item Number: 9
%%         190.0 ns  Log    PASSED  in receiver_1: RxBurstFifo,      Received: 0C   Item Number: 10
%%         190.0 ns  Log    PASSED  in receiver_1: RxBurstFifo,      Received: 0D   Item Number: 11
%%         190.0 ns  Log    PASSED  in receiver_1: RxBurstFifo,      Received: 0E   Item Number: 12
%%         190.0 ns  Log    PASSED  in receiver_1: RxBurstFifo,      Received: 0F   Item Number: 13
%%         190.0 ns  Log    PASSED  in receiver_1: RxBurstFifo,      Received: 10   Item Number: 14
%%         190.0 ns  Log    PASSED  in receiver_1: RxBurstFifo,      Received: 11   Item Number: 15
%%         190.0 ns  Log    PASSED  in receiver_1: RxBurstFifo,      Received: 12   Item Number: 16
%%         190.0 ns  Log    PASSED  in receiver_1: RxBurstFifo,      Received: 13   Item Number: 17
%%         190.0 ns  Log    PASSED  in receiver_1: RxBurstFifo,      Received: 14   Item Number: 18
%%         190.0 ns  Log    PASSED  in receiver_1: RxBurstFifo,      Received: 15   Item Number: 19
%%         190.0 ns  Log    PASSED  in receiver_1: RxBurstFifo,      Received: 16   Item Number: 20
%%         190.0 ns  Log    PASSED  in receiver_1: RxBurstFifo,      Received: 17   Item Number: 21
%%         190.0 ns  Log    PASSED  in receiver_1: RxBurstFifo,      Received: 18   Item Number: 22
%%         190.0 ns  Log    PASSED  in receiver_1: RxBurstFifo,      Received: 19   Item Number: 23
%%         190.0 ns  Log    PASSED  in receiver_1: RxBurstFifo,      Received: 1A   Item Number: 24
%%         190.0 ns  Log    PASSED  in receiver_1: RxBurstFifo,      Received: 1B   Item Number: 25
%%         190.0 ns  Log    PASSED  in receiver_1: RxBurstFifo,      Received: 1C   Item Number: 26
%%         190.0 ns  Log    PASSED  in receiver_1: RxBurstFifo,      Received: 1D   Item Number: 27
%%         190.0 ns  Log    PASSED  in receiver_1: RxBurstFifo,      Received: 1E   Item Number: 28
%%         190.0 ns  Log    PASSED  in receiver_1: RxBurstFifo,      Received: 1F   Item Number: 29
%%         190.0 ns  Log    PASSED  in receiver_1: RxBurstFifo,      Received: 20   Item Number: 30
%%         190.0 ns  Log    PASSED  in receiver_1: RxBurstFifo,      Received: 21   Item Number: 31
%%         190.0 ns  Log    PASSED  in receiver_1: RxBurstFifo,      Received: 22   Item Number: 32
%%         190.0 ns  Log    ALWAYS  in Default,                      Transmit 37 Bytes. Starting with 32
%%         190.0 ns  Log    ALWAYS  in Default,                      Transmit 42 Bytes. Starting with 64
%%         190.0 ns  Log    ALWAYS  in Default,                      Transmit 47 Bytes. Starting with 96
%%         190.0 ns  Log    ALWAYS  in Default,                      Transmit 52 Bytes. Starting with 128
%%         190.0 ns  Log    ALWAYS  in Default,                      Transmit 57 Bytes. Starting with 160
%%         190.0 ns  Log    ALWAYS  in Default,                      Transmit 62 Bytes. Starting with 192
%%         200.0 ns  Log    INFO    in transmitter_1,                Axi Stream Send.  TData: 0F0D0B09  TStrb: 1111  TKeep: 1111  TID: 00  TDest: 0  TUser: 0  TLast: 0  Operation# 10
%%         210.0 ns  Log    INFO    in transmitter_1,                Axi Stream Send.  TData: 17151311  TStrb: 1111  TKeep: 1111  TID: 00  TDest: 0  TUser: 0  TLast: 0  Operation# 11
%%         220.0 ns  Log    INFO    in transmitter_1,                Axi Stream Send.  TData: 1F1D1B19  TStrb: 1111  TKeep: 1111  TID: 00  TDest: 0  TUser: 0  TLast: 0  Operation# 12
%%         230.0 ns  Log    INFO    in transmitter_1,                Axi Stream Send.  TData: 27252321  TStrb: 1111  TKeep: 1111  TID: 00  TDest: 0  TUser: 0  TLast: 0  Operation# 13
%%         240.0 ns  Log    INFO    in transmitter_1,                Axi Stream Send.  TData: 2F2D2B29  TStrb: 1111  TKeep: 1111  TID: 00  TDest: 0  TUser: 0  TLast: 0  Operation# 14
%%         250.0 ns  Log    INFO    in transmitter_1,                Axi Stream Send.  TData: 37353331  TStrb: 1111  TKeep: 1111  TID: 00  TDest: 0  TUser: 0  TLast: 0  Operation# 15
%%         260.0 ns  Log    INFO    in transmitter_1,                Axi Stream Send.  TData: XXXX3B39  TStrb: 0011  TKeep: 0011  TID: 00  TDest: 0  TUser: 0  TLast: 1  Operation# 16
%%         270.0 ns  Log    INFO    in transmitter_1,                Axi Stream Send.  TData: 57BDD207  TStrb: 1111  TKeep: 1111  TID: 00  TDest: 0  TUser: 0  TLast: 0  Operation# 17
%%         270.0 ns  Log    INFO    in receiver_1,                   Burst Receive.  Operation# 2  Last Data: ----3B39  TID: 00  TDest: 0  TUser: 0  TLast: 1
%%         270.0 ns  Log    PASSED  in Default,                      TryCount 8
%%         270.0 ns  Log    PASSED  in Default,                      Receiver: NumBytes Received Received : 30
%%         270.0 ns  Log    PASSED  in receiver_1: RxBurstFifo,      Received: 01   Item Number: 33
%%         270.0 ns  Log    PASSED  in receiver_1: RxBurstFifo,      Received: 03   Item Number: 34
%%         270.0 ns  Log    PASSED  in receiver_1: RxBurstFifo,      Received: 05   Item Number: 35
%%         270.0 ns  Log    PASSED  in receiver_1: RxBurstFifo,      Received: 07   Item Number: 36
%%         270.0 ns  Log    PASSED  in receiver_1: RxBurstFifo,      Received: 09   Item Number: 37
%%         270.0 ns  Log    PASSED  in receiver_1: RxBurstFifo,      Received: 0B   Item Number: 38
%%         270.0 ns  Log    PASSED  in receiver_1: RxBurstFifo,      Received: 0D   Item Number: 39
%%         270.0 ns  Log    PASSED  in receiver_1: RxBurstFifo,      Received: 0F   Item Number: 40
%%         270.0 ns  Log    PASSED  in receiver_1: RxBurstFifo,      Received: 11   Item Number: 41
%%         270.0 ns  Log    PASSED  in receiver_1: RxBurstFifo,      Received: 13   Item Number: 42
%%         270.0 ns  Log    PASSED  in receiver_1: RxBurstFifo,      Received: 15   Item Number: 43
%%         270.0 ns  Log    PASSED  in receiver_1: RxBurstFifo,      Received: 17   Item Number: 44
%%         270.0 ns  Log    PASSED  in receiver_1: RxBurstFifo,      Received: 19   Item Number: 45
%%         270.0 ns  Log    PASSED  in receiver_1: RxBurstFifo,      Received: 1B   Item Number: 46
%%         270.0 ns  Log    PASSED  in receiver_1: RxBurstFifo,      Received: 1D   Item Number: 47
%%         270.0 ns  Log    PASSED  in receiver_1: RxBurstFifo,      Received: 1F   Item Number: 48
%%         270.0 ns  Log    PASSED  in receiver_1: RxBurstFifo,      Received: 21   Item Number: 49
%%         270.0 ns  Log    PASSED  in receiver_1: RxBurstFifo,      Received: 23   Item Number: 50
%%         270.0 ns  Log    PASSED  in receiver_1: RxBurstFifo,      Received: 25   Item Number: 51
%%         270.0 ns  Log    PASSED  in receiver_1: RxBurstFifo,      Received: 27   Item Number: 52
%%         270.0 ns  Log    PASSED  in receiver_1: RxBurstFifo,      Received: 29   Item Number: 53
%%         270.0 ns  Log    PASSED  in receiver_1: RxBurstFifo,      Received: 2B   Item Number: 54
%%         270.0 ns  Log    PASSED  in receiver_1: RxBurstFifo,      Received: 2D   Item Number: 55
%%         270.0 ns  Log    PASSED  in receiver_1: RxBurstFifo,      Received: 2F   Item Number: 56
%%         270.0 ns  Log    PASSED  in receiver_1: RxBurstFifo,      Received: 31   Item Number: 57
%%         270.0 ns  Log    PASSED  in receiver_1: RxBurstFifo,      Received: 33   Item Number: 58
%%         270.0 ns  Log    PASSED  in receiver_1: RxBurstFifo,      Received: 35   Item Number: 59
%%         270.0 ns  Log    PASSED  in receiver_1: RxBurstFifo,      Received: 37   Item Number: 60
%%         270.0 ns  Log    PASSED  in receiver_1: RxBurstFifo,      Received: 39   Item Number: 61
%%         270.0 ns  Log    PASSED  in receiver_1: RxBurstFifo,      Received: 3B   Item Number: 62
%%         280.0 ns  Log    INFO    in transmitter_1,                Axi Stream Send.  TData: 5B6D6975  TStrb: 1111  TKeep: 1111  TID: 00  TDest: 0  TUser: 0  TLast: 0  Operation# 18
%%         290.0 ns  Log    INFO    in transmitter_1,                Axi Stream Send.  TData: 6E1B638E  TStrb: 1111  TKeep: 1111  TID: 00  TDest: 0  TUser: 0  TLast: 0  Operation# 19
%%         300.0 ns  Log    INFO    in transmitter_1,                Axi Stream Send.  TData: 2CA095D2  TStrb: 1111  TKeep: 1111  TID: 00  TDest: 0  TUser: 0  TLast: 0  Operation# 20
%%         310.0 ns  Log    INFO    in transmitter_1,                Axi Stream Send.  TData: EDF859E6  TStrb: 1111  TKeep: 1111  TID: 00  TDest: 0  TUser: 0  TLast: 0  Operation# 21
%%         320.0 ns  Log    INFO    in transmitter_1,                Axi Stream Send.  TData: DCAC003D  TStrb: 1111  TKeep: 1111  TID: 00  TDest: 0  TUser: 0  TLast: 0  Operation# 22
%%         330.0 ns  Log    INFO    in transmitter_1,                Axi Stream Send.  TData: 9ADE4F00  TStrb: 1111  TKeep: 1111  TID: 00  TDest: 0  TUser: 0  TLast: 0  Operation# 23
%%         340.0 ns  Log    INFO    in transmitter_1,                Axi Stream Send.  TData: 6BE49940  TStrb: 1111  TKeep: 1111  TID: 00  TDest: 0  TUser: 0  TLast: 0  Operation# 24
%%         350.0 ns  Log    INFO    in transmitter_1,                Axi Stream Send.  TData: XXXXC990  TStrb: 0011  TKeep: 0011  TID: 00  TDest: 0  TUser: 0  TLast: 1  Operation# 25
%%         360.0 ns  Log    INFO    in transmitter_1,                Axi Stream Send.  TData: 03020100  TStrb: 1111  TKeep: 1111  TID: 00  TDest: 0  TUser: 0  TLast: 0  Operation# 26
%%         360.0 ns  Log    INFO    in receiver_1,                   Burst Receive.  Operation# 3  Last Data: ----C990  TID: 00  TDest: 0  TUser: 0  TLast: 1
%%         360.0 ns  Log    PASSED  in Default,                      TryCount 9
%%         360.0 ns  Log    PASSED  in Default,                      Receiver: NumBytes Received Received : 34
%%         360.0 ns  Log    PASSED  in receiver_1: RxBurstFifo,      Received: 07   Item Number: 63
%%         360.0 ns  Log    PASSED  in receiver_1: RxBurstFifo,      Received: D2   Item Number: 64
%%         360.0 ns  Log    PASSED  in receiver_1: RxBurstFifo,      Received: BD   Item Number: 65
%%         360.0 ns  Log    PASSED  in receiver_1: RxBurstFifo,      Received: 57   Item Number: 66
%%         360.0 ns  Log    PASSED  in receiver_1: RxBurstFifo,      Received: 75   Item Number: 67
%%         360.0 ns  Log    PASSED  in receiver_1: RxBurstFifo,      Received: 69   Item Number: 68
%%         360.0 ns  Log    PASSED  in receiver_1: RxBurstFifo,      Received: 6D   Item Number: 69
%%         360.0 ns  Log    PASSED  in receiver_1: RxBurstFifo,      Received: 5B   Item Number: 70
%%         360.0 ns  Log    PASSED  in receiver_1: RxBurstFifo,      Received: 8E   Item Number: 71
%%         360.0 ns  Log    PASSED  in receiver_1: RxBurstFifo,      Received: 63   Item Number: 72
%%         360.0 ns  Log    PASSED  in receiver_1: RxBurstFifo,      Received: 1B   Item Number: 73
%%         360.0 ns  Log    PASSED  in receiver_1: RxBurstFifo,      Received: 6E   Item Number: 74
%%         360.0 ns  Log    PASSED  in receiver_1: RxBurstFifo,      Received: D2   Item Number: 75
%%         360.0 ns  Log    PASSED  in receiver_1: RxBurstFifo,      Received: 95   Item Number: 76
%%         360.0 ns  Log    PASSED  in receiver_1: RxBurstFifo,      Received: A0   Item Number: 77
%%         360.0 ns  Log    PASSED  in receiver_1: RxBurstFifo,      Received: 2C   Item Number: 78
%%         360.0 ns  Log    PASSED  in receiver_1: RxBurstFifo,      Received: E6   Item Number: 79
%%         360.0 ns  Log    PASSED  in receiver_1: RxBurstFifo,      Received: 59   Item Number: 80
%%         360.0 ns  Log    PASSED  in receiver_1: RxBurstFifo,      Received: F8   Item Number: 81
%%         360.0 ns  Log    PASSED  in receiver_1: RxBurstFifo,      Received: ED   Item Number: 82
%%         360.0 ns  Log    PASSED  in receiver_1: RxBurstFifo,      Received: 3D   Item Number: 83
%%         360.0 ns  Log    PASSED  in receiver_1: RxBurstFifo,      Received: 00   Item Number: 84
%%         360.0 ns  Log    PASSED  in receiver_1: RxBurstFifo,      Received: AC   Item Number: 85
%%         360.0 ns  Log    PASSED  in receiver_1: RxBurstFifo,      Received: DC   Item Number: 86
%%         360.0 ns  Log    PASSED  in receiver_1: RxBurstFifo,      Received: 00   Item Number: 87
%%         360.0 ns  Log    PASSED  in receiver_1: RxBurstFifo,      Received: 4F   Item Number: 88
%%         360.0 ns  Log    PASSED  in receiver_1: RxBurstFifo,      Received: DE   Item Number: 89
%%         360.0 ns  Log    PASSED  in receiver_1: RxBurstFifo,      Received: 9A   Item Number: 90
%%         360.0 ns  Log    PASSED  in receiver_1: RxBurstFifo,      Received: 40   Item Number: 91
%%         360.0 ns  Log    PASSED  in receiver_1: RxBurstFifo,      Received: 99   Item Number: 92
%%         360.0 ns  Log    PASSED  in receiver_1: RxBurstFifo,      Received: E4   Item Number: 93
%%         360.0 ns  Log    PASSED  in receiver_1: RxBurstFifo,      Received: 6B   Item Number: 94
%%         360.0 ns  Log    PASSED  in receiver_1: RxBurstFifo,      Received: 90   Item Number: 95
%%         360.0 ns  Log    PASSED  in receiver_1: RxBurstFifo,      Received: C9   Item Number: 96
%%         370.0 ns  Log    INFO    in transmitter_1,                Axi Stream Send.  TData: 07060504  TStrb: 1111  TKeep: 1111  TID: 00  TDest: 0  TUser: 0  TLast: 0  Operation# 27
%%         380.0 ns  Log    INFO    in transmitter_1,                Axi Stream Send.  TData: 0B0A0908  TStrb: 1111  TKeep: 1111  TID: 00  TDest: 0  TUser: 0  TLast: 0  Operation# 28
%%         390.0 ns  Log    INFO    in transmitter_1,                Axi Stream Send.  TData: 0F0E0D0C  TStrb: 1111  TKeep: 1111  TID: 00  TDest: 0  TUser: 0  TLast: 0  Operation# 29
%%         400.0 ns  Log    INFO    in transmitter_1,                Axi Stream Send.  TData: 13121110  TStrb: 1111  TKeep: 1111  TID: 00  TDest: 0  TUser: 0  TLast: 0  Operation# 30
%%         410.0 ns  Log    INFO    in transmitter_1,                Axi Stream Send.  TData: 17161514  TStrb: 1111  TKeep: 1111  TID: 00  TDest: 0  TUser: 0  TLast: 0  Operation# 31
%%         420.0 ns  Log    INFO    in transmitter_1,                Axi Stream Send.  TData: 1B1A1918  TStrb: 1111  TKeep: 1111  TID: 00  TDest: 0  TUser: 0  TLast: 0  Operation# 32
%%         430.0 ns  Log    INFO    in transmitter_1,                Axi Stream Send.  TData: 1F1E1D1C  TStrb: 1111  TKeep: 1111  TID: 00  TDest: 0  TUser: 0  TLast: 1  Operation# 33
%%         440.0 ns  Log    INFO    in transmitter_1,                Axi Stream Send.  TData: 23222120  TStrb: 1111  TKeep: 1111  TID: 00  TDest: 0  TUser: 0  TLast: 0  Operation# 34
%%         440.0 ns  Log    INFO    in receiver_1,                   Burst Receive.  Operation# 4  Last Data: 1F1E1D1C  TID: 00  TDest: 0  TUser: 0  TLast: 1
%%         440.0 ns  Log    PASSED  in Default,                      TryCount 8
%%         440.0 ns  Log    PASSED  in Default,                      Receiver: NumBytes Received Received : 32
%%         440.0 ns  Log    PASSED  in receiver_1: RxBurstFifo,      Received: 00   Item Number: 97
%%         440.0 ns  Log    PASSED  in receiver_1: RxBurstFifo,      Received: 01   Item Number: 98
%%         440.0 ns  Log    PASSED  in receiver_1: RxBurstFifo,      Received: 02   Item Number: 99
%%         440.0 ns  Log    PASSED  in receiver_1: RxBurstFifo,      Received: 03   Item Number: 100
%%         440.0 ns  Log    PASSED  in receiver_1: RxBurstFifo,      Received: 04   Item Number: 101
%%         440.0 ns  Log    PASSED  in receiver_1: RxBurstFifo,      Received: 05   Item Number: 102
%%         440.0 ns  Log    PASSED  in receiver_1: RxBurstFifo,      Received: 06   Item Number: 103
%%         440.0 ns  Log    PASSED  in receiver_1: RxBurstFifo,      Received: 07   Item Number: 104
%%         440.0 ns  Log    PASSED  in receiver_1: RxBurstFifo,      Received: 08   Item Number: 105
%%         440.0 ns  Log    PASSED  in receiver_1: RxBurstFifo,      Received: 09   Item Number: 106
%%         440.0 ns  Log    PASSED  in receiver_1: RxBurstFifo,      Received: 0A   Item Number: 107
%%         440.0 ns  Log    PASSED  in receiver_1: RxBurstFifo,      Received: 0B   Item Number: 108
%%         440.0 ns  Log    PASSED  in receiver_1: RxBurstFifo,      Received: 0C   Item Number: 109
%%         440.0 ns  Log    PASSED  in receiver_1: RxBurstFifo,      Received: 0D   Item Number: 110
%%         440.0 ns  Log    PASSED  in receiver_1: RxBurstFifo,      Received: 0E   Item Number: 111
%%         440.0 ns  Log    PASSED  in receiver_1: RxBurstFifo,      Received: 0F   Item Number: 112
%%         440.0 ns  Log    PASSED  in receiver_1: RxBurstFifo,      Received: 10   Item Number: 113
%%         440.0 ns  Log    PASSED  in receiver_1: RxBurstFifo,      Received: 11   Item Number: 114
%%         440.0 ns  Log    PASSED  in receiver_1: RxBurstFifo,      Received: 12   Item Number: 115
%%         440.0 ns  Log    PASSED  in receiver_1: RxBurstFifo,      Received: 13   Item Number: 116
%%         440.0 ns  Log    PASSED  in receiver_1: RxBurstFifo,      Received: 14   Item Number: 117
%%         440.0 ns  Log    PASSED  in receiver_1: RxBurstFifo,      Received: 15   Item Number: 118
%%         440.0 ns  Log    PASSED  in receiver_1: RxBurstFifo,      Received: 16   Item Number: 119
%%         440.0 ns  Log    PASSED  in receiver_1: RxBurstFifo,      Received: 17   Item Number: 120
%%         440.0 ns  Log    PASSED  in receiver_1: RxBurstFifo,      Received: 18   Item Number: 121
%%         440.0 ns  Log    PASSED  in receiver_1: RxBurstFifo,      Received: 19   Item Number: 122
%%         440.0 ns  Log    PASSED  in receiver_1: RxBurstFifo,      Received: 1A   Item Number: 123
%%         440.0 ns  Log    PASSED  in receiver_1: RxBurstFifo,      Received: 1B   Item Number: 124
%%         440.0 ns  Log    PASSED  in receiver_1: RxBurstFifo,      Received: 1C   Item Number: 125
%%         440.0 ns  Log    PASSED  in receiver_1: RxBurstFifo,      Received: 1D   Item Number: 126
%%         440.0 ns  Log    PASSED  in receiver_1: RxBurstFifo,      Received: 1E   Item Number: 127
%%         440.0 ns  Log    PASSED  in receiver_1: RxBurstFifo,      Received: 1F   Item Number: 128
%%         450.0 ns  Log    INFO    in transmitter_1,                Axi Stream Send.  TData: 27262524  TStrb: 1111  TKeep: 1111  TID: 00  TDest: 0  TUser: 0  TLast: 0  Operation# 35
%%         460.0 ns  Log    INFO    in transmitter_1,                Axi Stream Send.  TData: 2B2A2928  TStrb: 1111  TKeep: 1111  TID: 00  TDest: 0  TUser: 0  TLast: 0  Operation# 36
%%         470.0 ns  Log    INFO    in transmitter_1,                Axi Stream Send.  TData: 2F2E2D2C  TStrb: 1111  TKeep: 1111  TID: 00  TDest: 0  TUser: 0  TLast: 0  Operation# 37
%%         480.0 ns  Log    INFO    in transmitter_1,                Axi Stream Send.  TData: 33323130  TStrb: 1111  TKeep: 1111  TID: 00  TDest: 0  TUser: 0  TLast: 0  Operation# 38
%%         490.0 ns  Log    INFO    in transmitter_1,                Axi Stream Send.  TData: 37363534  TStrb: 1111  TKeep: 1111  TID: 00  TDest: 0  TUser: 0  TLast: 0  Operation# 39
%%         500.0 ns  Log    INFO    in transmitter_1,                Axi Stream Send.  TData: 3B3A3938  TStrb: 1111  TKeep: 1111  TID: 00  TDest: 0  TUser: 0  TLast: 0  Operation# 40
%%         510.0 ns  Log    INFO    in transmitter_1,                Axi Stream Send.  TData: 3F3E3D3C  TStrb: 1111  TKeep: 1111  TID: 00  TDest: 0  TUser: 0  TLast: 0  Operation# 41
%%         520.0 ns  Log    INFO    in transmitter_1,                Axi Stream Send.  TData: 43424140  TStrb: 1111  TKeep: 1111  TID: 00  TDest: 0  TUser: 0  TLast: 0  Operation# 42
%%         530.0 ns  Log    INFO    in transmitter_1,                Axi Stream Send.  TData: XXXXXX44  TStrb: 0001  TKeep: 0001  TID: 00  TDest: 0  TUser: 0  TLast: 1  Operation# 43
%%         540.0 ns  Log    INFO    in transmitter_1,                Axi Stream Send.  TData: 43424140  TStrb: 1111  TKeep: 1111  TID: 00  TDest: 0  TUser: 0  TLast: 0  Operation# 44
%%         540.0 ns  Log    INFO    in receiver_1,                   Burst Receive.  Operation# 5  Last Data: ------44  TID: 00  TDest: 0  TUser: 0  TLast: 1
%%         540.0 ns  Log    PASSED  in Default,                      TryCount 10
%%         540.0 ns  Log    PASSED  in Default,                      Receiver: NumBytes Received Received : 37
%%         540.0 ns  Log    PASSED  in receiver_1: RxBurstFifo,      Received: 20   Item Number: 129
%%         540.0 ns  Log    PASSED  in receiver_1: RxBurstFifo,      Received: 21   Item Number: 130
%%         540.0 ns  Log    PASSED  in receiver_1: RxBurstFifo,      Received: 22   Item Number: 131
%%         540.0 ns  Log    PASSED  in receiver_1: RxBurstFifo,      Received: 23   Item Number: 132
%%         540.0 ns  Log    PASSED  in receiver_1: RxBurstFifo,      Received: 24   Item Number: 133
%%         540.0 ns  Log    PASSED  in receiver_1: RxBurstFifo,      Received: 25   Item Number: 134
%%         540.0 ns  Log    PASSED  in receiver_1: RxBurstFifo,      Received: 26   Item Number: 135
%%         540.0 ns  Log    PASSED  in receiver_1: RxBurstFifo,      Received: 27   Item Number: 136
%%         540.0 ns  Log    PASSED  in receiver_1: RxBurstFifo,      Received: 28   Item Number: 137
%%         540.0 ns  Log    PASSED  in receiver_1: RxBurstFifo,      Received: 29   Item Number: 138
%%         540.0 ns  Log    PASSED  in receiver_1: RxBurstFifo,      Received: 2A   Item Number: 139
%%         540.0 ns  Log    PASSED  in receiver_1: RxBurstFifo,      Received: 2B   Item Number: 140
%%         540.0 ns  Log    PASSED  in receiver_1: RxBurstFifo,      Received: 2C   Item Number: 141
%%         540.0 ns  Log    PASSED  in receiver_1: RxBurstFifo,      Received: 2D   Item Number: 142
%%         540.0 ns  Log    PASSED  in receiver_1: RxBurstFifo,      Received: 2E   Item Number: 143
%%         540.0 ns  Log    PASSED  in receiver_1: RxBurstFifo,      Received: 2F   Item Number: 144
%%         540.0 ns  Log    PASSED  in receiver_1: RxBurstFifo,      Received: 30   Item Number: 145
%%         540.0 ns  Log    PASSED  in receiver_1: RxBurstFifo,      Received: 31   Item Number: 146
%%         540.0 ns  Log    PASSED  in receiver_1: RxBurstFifo,      Received: 32   Item Number: 147
%%         540.0 ns  Log    PASSED  in receiver_1: RxBurstFifo,      Received: 33   Item Number: 148
%%         540.0 ns  Log    PASSED  in receiver_1: RxBurstFifo,      Received: 34   Item Number: 149
%%         540.0 ns  Log    PASSED  in receiver_1: RxBurstFifo,      Received: 35   Item Number: 150
%%         540.0 ns  Log    PASSED  in receiver_1: RxBurstFifo,      Received: 36   Item Number: 151
%%         540.0 ns  Log    PASSED  in receiver_1: RxBurstFifo,      Received: 37   Item Number: 152
%%         540.0 ns  Log    PASSED  in receiver_1: RxBurstFifo,      Received: 38   Item Number: 153
%%         540.0 ns  Log    PASSED  in receiver_1: RxBurstFifo,      Received: 39   Item Number: 154
%%         540.0 ns  Log    PASSED  in receiver_1: RxBurstFifo,      Received: 3A   Item Number: 155
%%         540.0 ns  Log    PASSED  in receiver_1: RxBurstFifo,      Received: 3B   Item Number: 156
%%         540.0 ns  Log    PASSED  in receiver_1: RxBurstFifo,      Received: 3C   Item Number: 157
%%         540.0 ns  Log    PASSED  in receiver_1: RxBurstFifo,      Received: 3D   Item Number: 158
%%         540.0 ns  Log    PASSED  in receiver_1: RxBurstFifo,      Received: 3E   Item Number: 159
%%         540.0 ns  Log    PASSED  in receiver_1: RxBurstFifo,      Received: 3F   Item Number: 160
%%         540.0 ns  Log    PASSED  in receiver_1: RxBurstFifo,      Received: 40   Item Number: 161
%%         540.0 ns  Log    PASSED  in receiver_1: RxBurstFifo,      Received: 41   Item Number: 162
%%         540.0 ns  Log    PASSED  in receiver_1: RxBurstFifo,      Received: 42   Item Number: 163
%%         540.0 ns  Log    PASSED  in receiver_1: RxBurstFifo,      Received: 43   Item Number: 164
%%         540.0 ns  Log    PASSED  in receiver_1: RxBurstFifo,      Received: 44   Item Number: 165
%%         550.0 ns  Log    INFO    in transmitter_1,                Axi Stream Send.  TData: 47464544  TStrb: 1111  TKeep: 1111  TID: 00  TDest: 0  TUser: 0  TLast: 0  Operation# 45
%%         560.0 ns  Log    INFO    in transmitter_1,                Axi Stream Send.  TData: 4B4A4948  TStrb: 1111  TKeep: 1111  TID: 00  TDest: 0  TUser: 0  TLast: 0  Operation# 46
%%         570.0 ns  Log    INFO    in transmitter_1,                Axi Stream Send.  TData: 4F4E4D4C  TStrb: 1111  TKeep: 1111  TID: 00  TDest: 0  TUser: 0  TLast: 0  Operation# 47
%%         580.0 ns  Log    INFO    in transmitter_1,                Axi Stream Send.  TData: 53525150  TStrb: 1111  TKeep: 1111  TID: 00  TDest: 0  TUser: 0  TLast: 0  Operation# 48
%%         590.0 ns  Log    INFO    in transmitter_1,                Axi Stream Send.  TData: 57565554  TStrb: 1111  TKeep: 1111  TID: 00  TDest: 0  TUser: 0  TLast: 0  Operation# 49
%%         600.0 ns  Log    INFO    in transmitter_1,                Axi Stream Send.  TData: 5B5A5958  TStrb: 1111  TKeep: 1111  TID: 00  TDest: 0  TUser: 0  TLast: 0  Operation# 50
%%         610.0 ns  Log    INFO    in transmitter_1,                Axi Stream Send.  TData: 5F5E5D5C  TStrb: 1111  TKeep: 1111  TID: 00  TDest: 0  TUser: 0  TLast: 0  Operation# 51
%%         620.0 ns  Log    INFO    in transmitter_1,                Axi Stream Send.  TData: 63626160  TStrb: 1111  TKeep: 1111  TID: 00  TDest: 0  TUser: 0  TLast: 0  Operation# 52
%%         630.0 ns  Log    INFO    in transmitter_1,                Axi Stream Send.  TData: 67666564  TStrb: 1111  TKeep: 1111  TID: 00  TDest: 0  TUser: 0  TLast: 0  Operation# 53
%%         640.0 ns  Log    INFO    in transmitter_1,                Axi Stream Send.  TData: XXXX6968  TStrb: 0011  TKeep: 0011  TID: 00  TDest: 0  TUser: 0  TLast: 1  Operation# 54
%%         650.0 ns  Log    INFO    in transmitter_1,                Axi Stream Send.  TData: 63626160  TStrb: 1111  TKeep: 1111  TID: 00  TDest: 0  TUser: 0  TLast: 0  Operation# 55
%%         650.0 ns  Log    INFO    in receiver_1,                   Burst Receive.  Operation# 6  Last Data: ----6968  TID: 00  TDest: 0  TUser: 0  TLast: 1
%%         650.0 ns  Log    PASSED  in Default,                      TryCount 11
%%         650.0 ns  Log    PASSED  in Default,                      Receiver: NumBytes Received Received : 42
%%         650.0 ns  Log    PASSED  in receiver_1: RxBurstFifo,      Received: 40   Item Number: 166
%%         650.0 ns  Log    PASSED  in receiver_1: RxBurstFifo,      Received: 41   Item Number: 167
%%         650.0 ns  Log    PASSED  in receiver_1: RxBurstFifo,      Received: 42   Item Number: 168
%%         650.0 ns  Log    PASSED  in receiver_1: RxBurstFifo,      Received: 43   Item Number: 169
%%         650.0 ns  Log    PASSED  in receiver_1: RxBurstFifo,      Received: 44   Item Number: 170
%%         650.0 ns  Log    PASSED  in receiver_1: RxBurstFifo,      Received: 45   Item Number: 171
%%         650.0 ns  Log    PASSED  in receiver_1: RxBurstFifo,      Received: 46   Item Number: 172
%%         650.0 ns  Log    PASSED  in receiver_1: RxBurstFifo,      Received: 47   Item Number: 173
%%         650.0 ns  Log    PASSED  in receiver_1: RxBurstFifo,      Received: 48   Item Number: 174
%%         650.0 ns  Log    PASSED  in receiver_1: RxBurstFifo,      Received: 49   Item Number: 175
%%         650.0 ns  Log    PASSED  in receiver_1: RxBurstFifo,      Received: 4A   Item Number: 176
%%         650.0 ns  Log    PASSED  in receiver_1: RxBurstFifo,      Received: 4B   Item Number: 177
%%         650.0 ns  Log    PASSED  in receiver_1: RxBurstFifo,      Received: 4C   Item Number: 178
%%         650.0 ns  Log    PASSED  in receiver_1: RxBurstFifo,      Received: 4D   Item Number: 179
%%         650.0 ns  Log    PASSED  in receiver_1: RxBurstFifo,      Received: 4E   Item Number: 180
%%         650.0 ns  Log    PASSED  in receiver_1: RxBurstFifo,      Received: 4F   Item Number: 181
%%         650.0 ns  Log    PASSED  in receiver_1: RxBurstFifo,      Received: 50   Item Number: 182
%%         650.0 ns  Log    PASSED  in receiver_1: RxBurstFifo,      Received: 51   Item Number: 183
%%         650.0 ns  Log    PASSED  in receiver_1: RxBurstFifo,      Received: 52   Item Number: 184
%%         650.0 ns  Log    PASSED  in receiver_1: RxBurstFifo,      Received: 53   Item Number: 185
%%         650.0 ns  Log    PASSED  in receiver_1: RxBurstFifo,      Received: 54   Item Number: 186
%%         650.0 ns  Log    PASSED  in receiver_1: RxBurstFifo,      Received: 55   Item Number: 187
%%         650.0 ns  Log    PASSED  in receiver_1: RxBurstFifo,      Received: 56   Item Number: 188
%%         650.0 ns  Log    PASSED  in receiver_1: RxBurstFifo,      Received: 57   Item Number: 189
%%         650.0 ns  Log    PASSED  in receiver_1: RxBurstFifo,      Received: 58   Item Number: 190
%%         650.0 ns  Log    PASSED  in receiver_1: RxBurstFifo,      Received: 59   Item Number: 191
%%         650.0 ns  Log    PASSED  in receiver_1: RxBurstFifo,      Received: 5A   Item Number: 192
%%         650.0 ns  Log    PASSED  in receiver_1: RxBurstFifo,      Received: 5B   Item Number: 193
%%         650.0 ns  Log    PASSED  in receiver_1: RxBurstFifo,      Received: 5C   Item Number: 194
%%         650.0 ns  Log    PASSED  in receiver_1: RxBurstFifo,      Received: 5D   Item Number: 195
%%         650.0 ns  Log    PASSED  in receiver_1: RxBurstFifo,      Received: 5E   Item Number: 196
%%         650.0 ns  Log    PASSED  in receiver_1: RxBurstFifo,      Received: 5F   Item Number: 197
%%         650.0 ns  Log    PASSED  in receiver_1: RxBurstFifo,      Received: 60   Item Number: 198
%%         650.0 ns  Log    PASSED  in receiver_1: RxBurstFifo,      Received: 61   Item Number: 199
%%         650.0 ns  Log    PASSED  in receiver_1: RxBurstFifo,      Received: 62   Item Number: 200
%%         650.0 ns  Log    PASSED  in receiver_1: RxBurstFifo,      Received: 63   Item Number: 201
%%         650.0 ns  Log    PASSED  in receiver_1: RxBurstFifo,      Received: 64   Item Number: 202
%%         650.0 ns  Log    PASSED  in receiver_1: RxBurstFifo,      Received: 65   Item Number: 203
%%         650.0 ns  Log    PASSED  in receiver_1: RxBurstFifo,      Received: 66   Item Number: 204
%%         650.0 ns  Log    PASSED  in receiver_1: RxBurstFifo,      Received: 67   Item Number: 205
%%         650.0 ns  Log    PASSED  in receiver_1: RxBurstFifo,      Received: 68   Item Number: 206
%%         650.0 ns  Log    PASSED  in receiver_1: RxBurstFifo,      Received: 69   Item Number: 207
%%         660.0 ns  Log    INFO    in transmitter_1,                Axi Stream Send.  TData: 67666564  TStrb: 1111  TKeep: 1111  TID: 00  TDest: 0  TUser: 0  TLast: 0  Operation# 56
%%         670.0 ns  Log    INFO    in transmitter_1,                Axi Stream Send.  TData: 6B6A6968  TStrb: 1111  TKeep: 1111  TID: 00  TDest: 0  TUser: 0  TLast: 0  Operation# 57
%%         680.0 ns  Log    INFO    in transmitter_1,                Axi Stream Send.  TData: 6F6E6D6C  TStrb: 1111  TKeep: 1111  TID: 00  TDest: 0  TUser: 0  TLast: 0  Operation# 58
%%         690.0 ns  Log    INFO    in transmitter_1,                Axi Stream Send.  TData: 73727170  TStrb: 1111  TKeep: 1111  TID: 00  TDest: 0  TUser: 0  TLast: 0  Operation# 59
%%         700.0 ns  Log    INFO    in transmitter_1,                Axi Stream Send.  TData: 77767574  TStrb: 1111  TKeep: 1111  TID: 00  TDest: 0  TUser: 0  TLast: 0  Operation# 60
%%         710.0 ns  Log    INFO    in transmitter_1,                Axi Stream Send.  TData: 7B7A7978  TStrb: 1111  TKeep: 1111  TID: 00  TDest: 0  TUser: 0  TLast: 0  Operation# 61
%%         720.0 ns  Log    INFO    in transmitter_1,                Axi Stream Send.  TData: 7F7E7D7C  TStrb: 1111  TKeep: 1111  TID: 00  TDest: 0  TUser: 0  TLast: 0  Operation# 62
%%         730.0 ns  Log    INFO    in transmitter_1,                Axi Stream Send.  TData: 83828180  TStrb: 1111  TKeep: 1111  TID: 00  TDest: 0  TUser: 0  TLast: 0  Operation# 63
%%         740.0 ns  Log    INFO    in transmitter_1,                Axi Stream Send.  TData: 87868584  TStrb: 1111  TKeep: 1111  TID: 00  TDest: 0  TUser: 0  TLast: 0  Operation# 64
%%         750.0 ns  Log    INFO    in transmitter_1,                Axi Stream Send.  TData: 8B8A8988  TStrb: 1111  TKeep: 1111  TID: 00  TDest: 0  TUser: 0  TLast: 0  Operation# 65
%%         760.0 ns  Log    INFO    in transmitter_1,                Axi Stream Send.  TData: XX8E8D8C  TStrb: 0111  TKeep: 0111  TID: 00  TDest: 0  TUser: 0  TLast: 1  Operation# 66
%%         770.0 ns  Log    INFO    in transmitter_1,                Axi Stream Send.  TData: 83828180  TStrb: 1111  TKeep: 1111  TID: 00  TDest: 0  TUser: 0  TLast: 0  Operation# 67
%%         770.0 ns  Log    INFO    in receiver_1,                   Burst Receive.  Operation# 7  Last Data: --8E8D8C  TID: 00  TDest: 0  TUser: 0  TLast: 1
%%         770.0 ns  Log    PASSED  in Default,                      TryCount 12
%%         770.0 ns  Log    PASSED  in Default,                      Receiver: NumBytes Received Received : 47
%%         770.0 ns  Log    PASSED  in receiver_1: RxBurstFifo,      Received: 60   Item Number: 208
%%         770.0 ns  Log    PASSED  in receiver_1: RxBurstFifo,      Received: 61   Item Number: 209
%%         770.0 ns  Log    PASSED  in receiver_1: RxBurstFifo,      Received: 62   Item Number: 210
%%         770.0 ns  Log    PASSED  in receiver_1: RxBurstFifo,      Received: 63   Item Number: 211
%%         770.0 ns  Log    PASSED  in receiver_1: RxBurstFifo,      Received: 64   Item Number: 212
%%         770.0 ns  Log    PASSED  in receiver_1: RxBurstFifo,      Received: 65   Item Number: 213
%%         770.0 ns  Log    PASSED  in receiver_1: RxBurstFifo,      Received: 66   Item Number: 214
%%         770.0 ns  Log    PASSED  in receiver_1: RxBurstFifo,      Received: 67   Item Number: 215
%%         770.0 ns  Log    PASSED  in receiver_1: RxBurstFifo,      Received: 68   Item Number: 216
%%         770.0 ns  Log    PASSED  in receiver_1: RxBurstFifo,      Received: 69   Item Number: 217
%%         770.0 ns  Log    PASSED  in receiver_1: RxBurstFifo,      Received: 6A   Item Number: 218
%%         770.0 ns  Log    PASSED  in receiver_1: RxBurstFifo,      Received: 6B   Item Number: 219
%%         770.0 ns  Log    PASSED  in receiver_1: RxBurstFifo,      Received: 6C   Item Number: 220
%%         770.0 ns  Log    PASSED  in receiver_1: RxBurstFifo,      Received: 6D   Item Number: 221
%%         770.0 ns  Log    PASSED  in receiver_1: RxBurstFifo,      Received: 6E   Item Number: 222
%%         770.0 ns  Log    PASSED  in receiver_1: RxBurstFifo,      Received: 6F   Item Number: 223
%%         770.0 ns  Log    PASSED  in receiver_1: RxBurstFifo,      Received: 70   Item Number: 224
%%         770.0 ns  Log    PASSED  in receiver_1: RxBurstFifo,      Received: 71   Item Number: 225
%%         770.0 ns  Log    PASSED  in receiver_1: RxBurstFifo,      Received: 72   Item Number: 226
%%         770.0 ns  Log    PASSED  in receiver_1: RxBurstFifo,      Received: 73   Item Number: 227
%%         770.0 ns  Log    PASSED  in receiver_1: RxBurstFifo,      Received: 74   Item Number: 228
%%         770.0 ns  Log    PASSED  in receiver_1: RxBurstFifo,      Received: 75   Item Number: 229
%%         770.0 ns  Log    PASSED  in receiver_1: RxBurstFifo,      Received: 76   Item Number: 230
%%         770.0 ns  Log    PASSED  in receiver_1: RxBurstFifo,      Received: 77   Item Number: 231
%%         770.0 ns  Log    PASSED  in receiver_1: RxBurstFifo,      Received: 78   Item Number: 232
%%         770.0 ns  Log    PASSED  in receiver_1: RxBurstFifo,      Received: 79   Item Number: 233
%%         770.0 ns  Log    PASSED  in receiver_1: RxBurstFifo,      Received: 7A   Item Number: 234
%%         770.0 ns  Log    PASSED  in receiver_1: RxBurstFifo,      Received: 7B   Item Number: 235
%%         770.0 ns  Log    PASSED  in receiver_1: RxBurstFifo,      Received: 7C   Item Number: 236
%%         770.0 ns  Log    PASSED  in receiver_1: RxBurstFifo,      Received: 7D   Item Number: 237
%%         770.0 ns  Log    PASSED  in receiver_1: RxBurstFifo,      Received: 7E   Item Number: 238
%%         770.0 ns  Log    PASSED  in receiver_1: RxBurstFifo,      Received: 7F   Item Number: 239
%%         770.0 ns  Log    PASSED  in receiver_1: RxBurstFifo,      Received: 80   Item Number: 240
%%         770.0 ns  Log    PASSED  in receiver_1: RxBurstFifo,      Received: 81   Item Number: 241
%%         770.0 ns  Log    PASSED  in receiver_1: RxBurstFifo,      Received: 82   Item Number: 242
%%         770.0 ns  Log    PASSED  in receiver_1: RxBurstFifo,      Received: 83   Item Number: 243
%%         770.0 ns  Log    PASSED  in receiver_1: RxBurstFifo,      Received: 84   Item Number: 244
%%         770.0 ns  Log    PASSED  in receiver_1: RxBurstFifo,      Received: 85   Item Number: 245
%%         770.0 ns  Log    PASSED  in receiver_1: RxBurstFifo,      Received: 86   Item Number: 246
%%         770.0 ns  Log    PASSED  in receiver_1: RxBurstFifo,      Received: 87   Item Number: 247
%%         770.0 ns  Log    PASSED  in receiver_1: RxBurstFifo,      Received: 88   Item Number: 248
%%         770.0 ns  Log    PASSED  in receiver_1: RxBurstFifo,      Received: 89   Item Number: 249
%%         770.0 ns  Log    PASSED  in receiver_1: RxBurstFifo,      Received: 8A   Item Number: 250
%%         770.0 ns  Log    PASSED  in receiver_1: RxBurstFifo,      Received: 8B   Item Number: 251
%%         770.0 ns  Log    PASSED  in receiver_1: RxBurstFifo,      Received: 8C   Item Number: 252
%%         770.0 ns  Log    PASSED  in receiver_1: RxBurstFifo,      Received: 8D   Item Number: 253
%%         770.0 ns  Log    PASSED  in receiver_1: RxBurstFifo,      Received: 8E   Item Number: 254
%%         780.0 ns  Log    INFO    in transmitter_1,                Axi Stream Send.  TData: 87868584  TStrb: 1111  TKeep: 1111  TID: 00  TDest: 0  TUser: 0  TLast: 0  Operation# 68
%%         790.0 ns  Log    INFO    in transmitter_1,                Axi Stream Send.  TData: 8B8A8988  TStrb: 1111  TKeep: 1111  TID: 00  TDest: 0  TUser: 0  TLast: 0  Operation# 69
%%         800.0 ns  Log    INFO    in transmitter_1,                Axi Stream Send.  TData: 8F8E8D8C  TStrb: 1111  TKeep: 1111  TID: 00  TDest: 0  TUser: 0  TLast: 0  Operation# 70
%%         810.0 ns  Log    INFO    in transmitter_1,                Axi Stream Send.  TData: 93929190  TStrb: 1111  TKeep: 1111  TID: 00  TDest: 0  TUser: 0  TLast: 0  Operation# 71
%%         820.0 ns  Log    INFO    in transmitter_1,                Axi Stream Send.  TData: 97969594  TStrb: 1111  TKeep: 1111  TID: 00  TDest: 0  TUser: 0  TLast: 0  Operation# 72
%%         830.0 ns  Log    INFO    in transmitter_1,                Axi Stream Send.  TData: 9B9A9998  TStrb: 1111  TKeep: 1111  TID: 00  TDest: 0  TUser: 0  TLast: 0  Operation# 73
%%         840.0 ns  Log    INFO    in transmitter_1,                Axi Stream Send.  TData: 9F9E9D9C  TStrb: 1111  TKeep: 1111  TID: 00  TDest: 0  TUser: 0  TLast: 0  Operation# 74
%%         850.0 ns  Log    INFO    in transmitter_1,                Axi Stream Send.  TData: A3A2A1A0  TStrb: 1111  TKeep: 1111  TID: 00  TDest: 0  TUser: 0  TLast: 0  Operation# 75
%%         860.0 ns  Log    INFO    in transmitter_1,                Axi Stream Send.  TData: A7A6A5A4  TStrb: 1111  TKeep: 1111  TID: 00  TDest: 0  TUser: 0  TLast: 0  Operation# 76
%%         870.0 ns  Log    INFO    in transmitter_1,                Axi Stream Send.  TData: ABAAA9A8  TStrb: 1111  TKeep: 1111  TID: 00  TDest: 0  TUser: 0  TLast: 0  Operation# 77
%%         880.0 ns  Log    INFO    in transmitter_1,                Axi Stream Send.  TData: AFAEADAC  TStrb: 1111  TKeep: 1111  TID: 00  TDest: 0  TUser: 0  TLast: 0  Operation# 78
%%         890.0 ns  Log    INFO    in transmitter_1,                Axi Stream Send.  TData: B3B2B1B0  TStrb: 1111  TKeep: 1111  TID: 00  TDest: 0  TUser: 0  TLast: 1  Operation# 79
%%         900.0 ns  Log    INFO    in transmitter_1,                Axi Stream Send.  TData: A3A2A1A0  TStrb: 1111  TKeep: 1111  TID: 00  TDest: 0  TUser: 0  TLast: 0  Operation# 80
%%         900.0 ns  Log    INFO    in receiver_1,                   Burst Receive.  Operation# 8  Last Data: B3B2B1B0  TID: 00  TDest: 0  TUser: 0  TLast: 1
%%         900.0 ns  Log    PASSED  in Default,                      TryCount 13
%%         900.0 ns  Log    PASSED  in Default,                      Receiver: NumBytes Received Received : 52
%%         900.0 ns  Log    PASSED  in receiver_1: RxBurstFifo,      Received: 80   Item Number: 255
%%         900.0 ns  Log    PASSED  in receiver_1: RxBurstFifo,      Received: 81   Item Number: 256
%%         900.0 ns  Log    PASSED  in receiver_1: RxBurstFifo,      Received: 82   Item Number: 257
%%         900.0 ns  Log    PASSED  in receiver_1: RxBurstFifo,      Received: 83   Item Number: 258
%%         900.0 ns  Log    PASSED  in receiver_1: RxBurstFifo,      Received: 84   Item Number: 259
%%         900.0 ns  Log    PASSED  in receiver_1: RxBurstFifo,      Received: 85   Item Number: 260
%%         900.0 ns  Log    PASSED  in receiver_1: RxBurstFifo,      Received: 86   Item Number: 261
%%         900.0 ns  Log    PASSED  in receiver_1: RxBurstFifo,      Received: 87   Item Number: 262
%%         900.0 ns  Log    PASSED  in receiver_1: RxBurstFifo,      Received: 88   Item Number: 263
%%         900.0 ns  Log    PASSED  in receiver_1: RxBurstFifo,      Received: 89   Item Number: 264
%%         900.0 ns  Log    PASSED  in receiver_1: RxBurstFifo,      Received: 8A   Item Number: 265
%%         900.0 ns  Log    PASSED  in receiver_1: RxBurstFifo,      Received: 8B   Item Number: 266
%%         900.0 ns  Log    PASSED  in receiver_1: RxBurstFifo,      Received: 8C   Item Number: 267
%%         900.0 ns  Log    PASSED  in receiver_1: RxBurstFifo,      Received: 8D   Item Number: 268
%%         900.0 ns  Log    PASSED  in receiver_1: RxBurstFifo,      Received: 8E   Item Number: 269
%%         900.0 ns  Log    PASSED  in receiver_1: RxBurstFifo,      Received: 8F   Item Number: 270
%%         900.0 ns  Log    PASSED  in receiver_1: RxBurstFifo,      Received: 90   Item Number: 271
%%         900.0 ns  Log    PASSED  in receiver_1: RxBurstFifo,      Received: 91   Item Number: 272
%%         900.0 ns  Log    PASSED  in receiver_1: RxBurstFifo,      Received: 92   Item Number: 273
%%         900.0 ns  Log    PASSED  in receiver_1: RxBurstFifo,      Received: 93   Item Number: 274
%%         900.0 ns  Log    PASSED  in receiver_1: RxBurstFifo,      Received: 94   Item Number: 275
%%         900.0 ns  Log    PASSED  in receiver_1: RxBurstFifo,      Received: 95   Item Number: 276
%%         900.0 ns  Log    PASSED  in receiver_1: RxBurstFifo,      Received: 96   Item Number: 277
%%         900.0 ns  Log    PASSED  in receiver_1: RxBurstFifo,      Received: 97   Item Number: 278
%%         900.0 ns  Log    PASSED  in receiver_1: RxBurstFifo,      Received: 98   Item Number: 279
%%         900.0 ns  Log    PASSED  in receiver_1: RxBurstFifo,      Received: 99   Item Number: 280
%%         900.0 ns  Log    PASSED  in receiver_1: RxBurstFifo,      Received: 9A   Item Number: 281
%%         900.0 ns  Log    PASSED  in receiver_1: RxBurstFifo,      Received: 9B   Item Number: 282
%%         900.0 ns  Log    PASSED  in receiver_1: RxBurstFifo,      Received: 9C   Item Number: 283
%%         900.0 ns  Log    PASSED  in receiver_1: RxBurstFifo,      Received: 9D   Item Number: 284
%%         900.0 ns  Log    PASSED  in receiver_1: RxBurstFifo,      Received: 9E   Item Number: 285
%%         900.0 ns  Log    PASSED  in receiver_1: RxBurstFifo,      Received: 9F   Item Number: 286
%%         900.0 ns  Log    PASSED  in receiver_1: RxBurstFifo,      Received: A0   Item Number: 287
%%         900.0 ns  Log    PASSED  in receiver_1: RxBurstFifo,      Received: A1   Item Number: 288
%%         900.0 ns  Log    PASSED  in receiver_1: RxBurstFifo,      Received: A2   Item Number: 289
%%         900.0 ns  Log    PASSED  in receiver_1: RxBurstFifo,      Received: A3   Item Number: 290
%%         900.0 ns  Log    PASSED  in receiver_1: RxBurstFifo,      Received: A4   Item Number: 291
%%         900.0 ns  Log    PASSED  in receiver_1: RxBurstFifo,      Received: A5   Item Number: 292
%%         900.0 ns  Log    PASSED  in receiver_1: RxBurstFifo,      Received: A6   Item Number: 293
%%         900.0 ns  Log    PASSED  in receiver_1: RxBurstFifo,      Received: A7   Item Number: 294
%%         900.0 ns  Log    PASSED  in receiver_1: RxBurstFifo,      Received: A8   Item Number: 295
%%         900.0 ns  Log    PASSED  in receiver_1: RxBurstFifo,      Received: A9   Item Number: 296
%%         900.0 ns  Log    PASSED  in receiver_1: RxBurstFifo,      Received: AA   Item Number: 297
%%         900.0 ns  Log    PASSED  in receiver_1: RxBurstFifo,      Received: AB   Item Number: 298
%%         900.0 ns  Log    PASSED  in receiver_1: RxBurstFifo,      Received: AC   Item Number: 299
%%         900.0 ns  Log    PASSED  in receiver_1: RxBurstFifo,      Received: AD   Item Number: 300
%%         900.0 ns  Log    PASSED  in receiver_1: RxBurstFifo,      Received: AE   Item Number: 301
%%         900.0 ns  Log    PASSED  in receiver_1: RxBurstFifo,      Received: AF   Item Number: 302
%%         900.0 ns  Log    PASSED  in receiver_1: RxBurstFifo,      Received: B0   Item Number: 303
%%         900.0 ns  Log    PASSED  in receiver_1: RxBurstFifo,      Received: B1   Item Number: 304
%%         900.0 ns  Log    PASSED  in receiver_1: RxBurstFifo,      Received: B2   Item Number: 305
%%         900.0 ns  Log    PASSED  in receiver_1: RxBurstFifo,      Received: B3   Item Number: 306
%%         910.0 ns  Log    INFO    in transmitter_1,                Axi Stream Send.  TData: A7A6A5A4  TStrb: 1111  TKeep: 1111  TID: 00  TDest: 0  TUser: 0  TLast: 0  Operation# 81
%%         920.0 ns  Log    INFO    in transmitter_1,                Axi Stream Send.  TData: ABAAA9A8  TStrb: 1111  TKeep: 1111  TID: 00  TDest: 0  TUser: 0  TLast: 0  Operation# 82
%%         930.0 ns  Log    INFO    in transmitter_1,                Axi Stream Send.  TData: AFAEADAC  TStrb: 1111  TKeep: 1111  TID: 00  TDest: 0  TUser: 0  TLast: 0  Operation# 83
%%         940.0 ns  Log    INFO    in transmitter_1,                Axi Stream Send.  TData: B3B2B1B0  TStrb: 1111  TKeep: 1111  TID: 00  TDest: 0  TUser: 0  TLast: 0  Operation# 84
%%         950.0 ns  Log    INFO    in transmitter_1,                Axi Stream Send.  TData: B7B6B5B4  TStrb: 1111  TKeep: 1111  TID: 00  TDest: 0  TUser: 0  TLast: 0  Operation# 85
%%         960.0 ns  Log    INFO    in transmitter_1,                Axi Stream Send.  TData: BBBAB9B8  TStrb: 1111  TKeep: 1111  TID: 00  TDest: 0  TUser: 0  TLast: 0  Operation# 86
%%         970.0 ns  Log    INFO    in transmitter_1,                Axi Stream Send.  TData: BFBEBDBC  TStrb: 1111  TKeep: 1111  TID: 00  TDest: 0  TUser: 0  TLast: 0  Operation# 87
%%         980.0 ns  Log    INFO    in transmitter_1,                Axi Stream Send.  TData: C3C2C1C0  TStrb: 1111  TKeep: 1111  TID: 00  TDest: 0  TUser: 0  TLast: 0  Operation# 88
%%         990.0 ns  Log    INFO    in transmitter_1,                Axi Stream Send.  TData: C7C6C5C4  TStrb: 1111  TKeep: 1111  TID: 00  TDest: 0  TUser: 0  TLast: 0  Operation# 89
%%        1000.0 ns  Log    INFO    in transmitter_1,                Axi Stream Send.  TData: CBCAC9C8  TStrb: 1111  TKeep: 1111  TID: 00  TDest: 0  TUser: 0  TLast: 0  Operation# 90
%%        1010.0 ns  Log    INFO    in transmitter_1,                Axi Stream Send.  TData: CFCECDCC  TStrb: 1111  TKeep: 1111  TID: 00  TDest: 0  TUser: 0  TLast: 0  Operation# 91
%%        1020.0 ns  Log    INFO    in transmitter_1,                Axi Stream Send.  TData: D3D2D1D0  TStrb: 1111  TKeep: 1111  TID: 00  TDest: 0  TUser: 0  TLast: 0  Operation# 92
%%        1030.0 ns  Log    INFO    in transmitter_1,                Axi Stream Send.  TData: D7D6D5D4  TStrb: 1111  TKeep: 1111  TID: 00  TDest: 0  TUser: 0  TLast: 0  Operation# 93
%%        1040.0 ns  Log    INFO    in transmitter_1,                Axi Stream Send.  TData: XXXXXXD8  TStrb: 0001  TKeep: 0001  TID: 00  TDest: 0  TUser: 0  TLast: 1  Operation# 94
%%        1050.0 ns  Log    INFO    in transmitter_1,                Axi Stream Send.  TData: C3C2C1C0  TStrb: 1111  TKeep: 1111  TID: 00  TDest: 0  TUser: 0  TLast: 0  Operation# 95
%%        1050.0 ns  Log    INFO    in receiver_1,                   Burst Receive.  Operation# 9  Last Data: ------D8  TID: 00  TDest: 0  TUser: 0  TLast: 1
%%        1050.0 ns  Log    PASSED  in Default,                      TryCount 15
%%        1050.0 ns  Log    PASSED  in Default,                      Receiver: NumBytes Received Received : 57
%%        1050.0 ns  Log    PASSED  in receiver_1: RxBurstFifo,      Received: A0   Item Number: 307
%%        1050.0 ns  Log    PASSED  in receiver_1: RxBurstFifo,      Received: A1   Item Number: 308
%%        1050.0 ns  Log    PASSED  in receiver_1: RxBurstFifo,      Received: A2   Item Number: 309
%%        1050.0 ns  Log    PASSED  in receiver_1: RxBurstFifo,      Received: A3   Item Number: 310
%%        1050.0 ns  Log    PASSED  in receiver_1: RxBurstFifo,      Received: A4   Item Number: 311
%%        1050.0 ns  Log    PASSED  in receiver_1: RxBurstFifo,      Received: A5   Item Number: 312
%%        1050.0 ns  Log    PASSED  in receiver_1: RxBurstFifo,      Received: A6   Item Number: 313
%%        1050.0 ns  Log    PASSED  in receiver_1: RxBurstFifo,      Received: A7   Item Number: 314
%%        1050.0 ns  Log    PASSED  in receiver_1: RxBurstFifo,      Received: A8   Item Number: 315
%%        1050.0 ns  Log    PASSED  in receiver_1: RxBurstFifo,      Received: A9   Item Number: 316
%%        1050.0 ns  Log    PASSED  in receiver_1: RxBurstFifo,      Received: AA   Item Number: 317
%%        1050.0 ns  Log    PASSED  in receiver_1: RxBurstFifo,      Received: AB   Item Number: 318
%%        1050.0 ns  Log    PASSED  in receiver_1: RxBurstFifo,      Received: AC   Item Number: 319
%%        1050.0 ns  Log    PASSED  in receiver_1: RxBurstFifo,      Received: AD   Item Number: 320
%%        1050.0 ns  Log    PASSED  in receiver_1: RxBurstFifo,      Received: AE   Item Number: 321
%%        1050.0 ns  Log    PASSED  in receiver_1: RxBurstFifo,      Received: AF   Item Number: 322
%%        1050.0 ns  Log    PASSED  in receiver_1: RxBurstFifo,      Received: B0   Item Number: 323
%%        1050.0 ns  Log    PASSED  in receiver_1: RxBurstFifo,      Received: B1   Item Number: 324
%%        1050.0 ns  Log    PASSED  in receiver_1: RxBurstFifo,      Received: B2   Item Number: 325
%%        1050.0 ns  Log    PASSED  in receiver_1: RxBurstFifo,      Received: B3   Item Number: 326
%%        1050.0 ns  Log    PASSED  in receiver_1: RxBurstFifo,      Received: B4   Item Number: 327
%%        1050.0 ns  Log    PASSED  in receiver_1: RxBurstFifo,      Received: B5   Item Number: 328
%%        1050.0 ns  Log    PASSED  in receiver_1: RxBurstFifo,      Received: B6   Item Number: 329
%%        1050.0 ns  Log    PASSED  in receiver_1: RxBurstFifo,      Received: B7   Item Number: 330
%%        1050.0 ns  Log    PASSED  in receiver_1: RxBurstFifo,      Received: B8   Item Number: 331
%%        1050.0 ns  Log    PASSED  in receiver_1: RxBurstFifo,      Received: B9   Item Number: 332
%%        1050.0 ns  Log    PASSED  in receiver_1: RxBurstFifo,      Received: BA   Item Number: 333
%%        1050.0 ns  Log    PASSED  in receiver_1: RxBurstFifo,      Received: BB   Item Number: 334
%%        1050.0 ns  Log    PASSED  in receiver_1: RxBurstFifo,      Received: BC   Item Number: 335
%%        1050.0 ns  Log    PASSED  in receiver_1: RxBurstFifo,      Received: BD   Item Number: 336
%%        1050.0 ns  Log    PASSED  in receiver_1: RxBurstFifo,      Received: BE   Item Number: 337
%%        1050.0 ns  Log    PASSED  in receiver_1: RxBurstFifo,      Received: BF   Item Number: 338
%%        1050.0 ns  Log    PASSED  in receiver_1: RxBurstFifo,      Received: C0   Item Number: 339
%%        1050.0 ns  Log    PASSED  in receiver_1: RxBurstFifo,      Received: C1   Item Number: 340
%%        1050.0 ns  Log    PASSED  in receiver_1: RxBurstFifo,      Received: C2   Item Number: 341
%%        1050.0 ns  Log    PASSED  in receiver_1: RxBurstFifo,      Received: C3   Item Number: 342
%%        1050.0 ns  Log    PASSED  in receiver_1: RxBurstFifo,      Received: C4   Item Number: 343
%%        1050.0 ns  Log    PASSED  in receiver_1: RxBurstFifo,      Received: C5   Item Number: 344
%%        1050.0 ns  Log    PASSED  in receiver_1: RxBurstFifo,      Received: C6   Item Number: 345
%%        1050.0 ns  Log    PASSED  in receiver_1: RxBurstFifo,      Received: C7   Item Number: 346
%%        1050.0 ns  Log    PASSED  in receiver_1: RxBurstFifo,      Received: C8   Item Number: 347
%%        1050.0 ns  Log    PASSED  in receiver_1: RxBurstFifo,      Received: C9   Item Number: 348
%%        1050.0 ns  Log    PASSED  in receiver_1: RxBurstFifo,      Received: CA   Item Number: 349
%%        1050.0 ns  Log    PASSED  in receiver_1: RxBurstFifo,      Received: CB   Item Number: 350
%%        1050.0 ns  Log    PASSED  in receiver_1: RxBurstFifo,      Received: CC   Item Number: 351
%%        1050.0 ns  Log    PASSED  in receiver_1: RxBurstFifo,      Received: CD   Item Number: 352
%%        1050.0 ns  Log    PASSED  in receiver_1: RxBurstFifo,      Received: CE   Item Number: 353
%%        1050.0 ns  Log    PASSED  in receiver_1: RxBurstFifo,      Received: CF   Item Number: 354
%%        1050.0 ns  Log    PASSED  in receiver_1: RxBurstFifo,      Received: D0   Item Number: 355
%%        1050.0 ns  Log    PASSED  in receiver_1: RxBurstFifo,      Received: D1   Item Number: 356
%%        1050.0 ns  Log    PASSED  in receiver_1: RxBurstFifo,      Received: D2   Item Number: 357
%%        1050.0 ns  Log    PASSED  in receiver_1: RxBurstFifo,      Received: D3   Item Number: 358
%%        1050.0 ns  Log    PASSED  in receiver_1: RxBurstFifo,      Received: D4   Item Number: 359
%%        1050.0 ns  Log    PASSED  in receiver_1: RxBurstFifo,      Received: D5   Item Number: 360
%%        1050.0 ns  Log    PASSED  in receiver_1: RxBurstFifo,      Received: D6   Item Number: 361
%%        1050.0 ns  Log    PASSED  in receiver_1: RxBurstFifo,      Received: D7   Item Number: 362
%%        1050.0 ns  Log    PASSED  in receiver_1: RxBurstFifo,      Received: D8   Item Number: 363
%%        1060.0 ns  Log    INFO    in transmitter_1,                Axi Stream Send.  TData: C7C6C5C4  TStrb: 1111  TKeep: 1111  TID: 00  TDest: 0  TUser: 0  TLast: 0  Operation# 96
%%        1070.0 ns  Log    INFO    in transmitter_1,                Axi Stream Send.  TData: CBCAC9C8  TStrb: 1111  TKeep: 1111  TID: 00  TDest: 0  TUser: 0  TLast: 0  Operation# 97
%%        1080.0 ns  Log    INFO    in transmitter_1,                Axi Stream Send.  TData: CFCECDCC  TStrb: 1111  TKeep: 1111  TID: 00  TDest: 0  TUser: 0  TLast: 0  Operation# 98
%%        1090.0 ns  Log    INFO    in transmitter_1,                Axi Stream Send.  TData: D3D2D1D0  TStrb: 1111  TKeep: 1111  TID: 00  TDest: 0  TUser: 0  TLast: 0  Operation# 99
%%        1100.0 ns  Log    INFO    in transmitter_1,                Axi Stream Send.  TData: D7D6D5D4  TStrb: 1111  TKeep: 1111  TID: 00  TDest: 0  TUser: 0  TLast: 0  Operation# 100
%%        1110.0 ns  Log    INFO    in transmitter_1,                Axi Stream Send.  TData: DBDAD9D8  TStrb: 1111  TKeep: 1111  TID: 00  TDest: 0  TUser: 0  TLast: 0  Operation# 101
%%        1120.0 ns  Log    INFO    in transmitter_1,                Axi Stream Send.  TData: DFDEDDDC  TStrb: 1111  TKeep: 1111  TID: 00  TDest: 0  TUser: 0  TLast: 0  Operation# 102
%%        1130.0 ns  Log    INFO    in transmitter_1,                Axi Stream Send.  TData: E3E2E1E0  TStrb: 1111  TKeep: 1111  TID: 00  TDest: 0  TUser: 0  TLast: 0  Operation# 103
%%        1140.0 ns  Log    INFO    in transmitter_1,                Axi Stream Send.  TData: E7E6E5E4  TStrb: 1111  TKeep: 1111  TID: 00  TDest: 0  TUser: 0  TLast: 0  Operation# 104
%%        1150.0 ns  Log    INFO    in transmitter_1,                Axi Stream Send.  TData: EBEAE9E8  TStrb: 1111  TKeep: 1111  TID: 00  TDest: 0  TUser: 0  TLast: 0  Operation# 105
%%        1160.0 ns  Log    INFO    in transmitter_1,                Axi Stream Send.  TData: EFEEEDEC  TStrb: 1111  TKeep: 1111  TID: 00  TDest: 0  TUser: 0  TLast: 0  Operation# 106
%%        1170.0 ns  Log    INFO    in transmitter_1,                Axi Stream Send.  TData: F3F2F1F0  TStrb: 1111  TKeep: 1111  TID: 00  TDest: 0  TUser: 0  TLast: 0  Operation# 107
%%        1180.0 ns  Log    INFO    in transmitter_1,                Axi Stream Send.  TData: F7F6F5F4  TStrb: 1111  TKeep: 1111  TID: 00  TDest: 0  TUser: 0  TLast: 0  Operation# 108
%%        1190.0 ns  Log    INFO    in transmitter_1,                Axi Stream Send.  TData: FBFAF9F8  TStrb: 1111  TKeep: 1111  TID: 00  TDest: 0  TUser: 0  TLast: 0  Operation# 109
%%        1200.0 ns  Log    INFO    in transmitter_1,                Axi Stream Send.  TData: XXXXFDFC  TStrb: 0011  TKeep: 0011  TID: 00  TDest: 0  TUser: 0  TLast: 1  Operation# 110
%%        1210.0 ns  Log    INFO    in receiver_1,                   Burst Receive.  Operation# 10  Last Data: ----FDFC  TID: 00  TDest: 0  TUser: 0  TLast: 1
%%        1210.0 ns  Log    PASSED  in Default,                      TryCount 16
%%        1210.0 ns  Log    PASSED  in Default,                      Receiver: NumBytes Received Received : 62
%%        1210.0 ns  Log    PASSED  in receiver_1: RxBurstFifo,      Received: C0   Item Number: 364
%%        1210.0 ns  Log    PASSED  in receiver_1: RxBurstFifo,      Received: C1   Item Number: 365
%%        1210.0 ns  Log    PASSED  in receiver_1: RxBurstFifo,      Received: C2   Item Number: 366
%%        1210.0 ns  Log    PASSED  in receiver_1: RxBurstFifo,      Received: C3   Item Number: 367
%%        1210.0 ns  Log    PASSED  in receiver_1: RxBurstFifo,      Received: C4   Item Number: 368
%%        1210.0 ns  Log    PASSED  in receiver_1: RxBurstFifo,      Received: C5   Item Number: 369
%%        1210.0 ns  Log    PASSED  in receiver_1: RxBurstFifo,      Received: C6   Item Number: 370
%%        1210.0 ns  Log    PASSED  in receiver_1: RxBurstFifo,      Received: C7   Item Number: 371
%%        1210.0 ns  Log    PASSED  in receiver_1: RxBurstFifo,      Received: C8   Item Number: 372
%%        1210.0 ns  Log    PASSED  in receiver_1: RxBurstFifo,      Received: C9   Item Number: 373
%%        1210.0 ns  Log    PASSED  in receiver_1: RxBurstFifo,      Received: CA   Item Number: 374
%%        1210.0 ns  Log    PASSED  in receiver_1: RxBurstFifo,      Received: CB   Item Number: 375
%%        1210.0 ns  Log    PASSED  in receiver_1: RxBurstFifo,      Received: CC   Item Number: 376
%%        1210.0 ns  Log    PASSED  in receiver_1: RxBurstFifo,      Received: CD   Item Number: 377
%%        1210.0 ns  Log    PASSED  in receiver_1: RxBurstFifo,      Received: CE   Item Number: 378
%%        1210.0 ns  Log    PASSED  in receiver_1: RxBurstFifo,      Received: CF   Item Number: 379
%%        1210.0 ns  Log    PASSED  in receiver_1: RxBurstFifo,      Received: D0   Item Number: 380
%%        1210.0 ns  Log    PASSED  in receiver_1: RxBurstFifo,      Received: D1   Item Number: 381
%%        1210.0 ns  Log    PASSED  in receiver_1: RxBurstFifo,      Received: D2   Item Number: 382
%%        1210.0 ns  Log    PASSED  in receiver_1: RxBurstFifo,      Received: D3   Item Number: 383
%%        1210.0 ns  Log    PASSED  in receiver_1: RxBurstFifo,      Received: D4   Item Number: 384
%%        1210.0 ns  Log    PASSED  in receiver_1: RxBurstFifo,      Received: D5   Item Number: 385
%%        1210.0 ns  Log    PASSED  in receiver_1: RxBurstFifo,      Received: D6   Item Number: 386
%%        1210.0 ns  Log    PASSED  in receiver_1: RxBurstFifo,      Received: D7   Item Number: 387
%%        1210.0 ns  Log    PASSED  in receiver_1: RxBurstFifo,      Received: D8   Item Number: 388
%%        1210.0 ns  Log    PASSED  in receiver_1: RxBurstFifo,      Received: D9   Item Number: 389
%%        1210.0 ns  Log    PASSED  in receiver_1: RxBurstFifo,      Received: DA   Item Number: 390
%%        1210.0 ns  Log    PASSED  in receiver_1: RxBurstFifo,      Received: DB   Item Number: 391
%%        1210.0 ns  Log    PASSED  in receiver_1: RxBurstFifo,      Received: DC   Item Number: 392
%%        1210.0 ns  Log    PASSED  in receiver_1: RxBurstFifo,      Received: DD   Item Number: 393
%%        1210.0 ns  Log    PASSED  in receiver_1: RxBurstFifo,      Received: DE   Item Number: 394
%%        1210.0 ns  Log    PASSED  in receiver_1: RxBurstFifo,      Received: DF   Item Number: 395
%%        1210.0 ns  Log    PASSED  in receiver_1: RxBurstFifo,      Received: E0   Item Number: 396
%%        1210.0 ns  Log    PASSED  in receiver_1: RxBurstFifo,      Received: E1   Item Number: 397
%%        1210.0 ns  Log    PASSED  in receiver_1: RxBurstFifo,      Received: E2   Item Number: 398
%%        1210.0 ns  Log    PASSED  in receiver_1: RxBurstFifo,      Received: E3   Item Number: 399
%%        1210.0 ns  Log    PASSED  in receiver_1: RxBurstFifo,      Received: E4   Item Number: 400
%%        1210.0 ns  Log    PASSED  in receiver_1: RxBurstFifo,      Received: E5   Item Number: 401
%%        1210.0 ns  Log    PASSED  in receiver_1: RxBurstFifo,      Received: E6   Item Number: 402
%%        1210.0 ns  Log    PASSED  in receiver_1: RxBurstFifo,      Received: E7   Item Number: 403
%%        1210.0 ns  Log    PASSED  in receiver_1: RxBurstFifo,      Received: E8   Item Number: 404
%%        1210.0 ns  Log    PASSED  in receiver_1: RxBurstFifo,      Received: E9   Item Number: 405
%%        1210.0 ns  Log    PASSED  in receiver_1: RxBurstFifo,      Received: EA   Item Number: 406
%%        1210.0 ns  Log    PASSED  in receiver_1: RxBurstFifo,      Received: EB   Item Number: 407
%%        1210.0 ns  Log    PASSED  in receiver_1: RxBurstFifo,      Received: EC   Item Number: 408
%%        1210.0 ns  Log    PASSED  in receiver_1: RxBurstFifo,      Received: ED   Item Number: 409
%%        1210.0 ns  Log    PASSED  in receiver_1: RxBurstFifo,      Received: EE   Item Number: 410
%%        1210.0 ns  Log    PASSED  in receiver_1: RxBurstFifo,      Received: EF   Item Number: 411
%%        1210.0 ns  Log    PASSED  in receiver_1: RxBurstFifo,      Received: F0   Item Number: 412
%%        1210.0 ns  Log    PASSED  in receiver_1: RxBurstFifo,      Received: F1   Item Number: 413
%%        1210.0 ns  Log    PASSED  in receiver_1: RxBurstFifo,      Received: F2   Item Number: 414
%%        1210.0 ns  Log    PASSED  in receiver_1: RxBurstFifo,      Received: F3   Item Number: 415
%%        1210.0 ns  Log    PASSED  in receiver_1: RxBurstFifo,      Received: F4   Item Number: 416
%%        1210.0 ns  Log    PASSED  in receiver_1: RxBurstFifo,      Received: F5   Item Number: 417
%%        1210.0 ns  Log    PASSED  in receiver_1: RxBurstFifo,      Received: F6   Item Number: 418
%%        1210.0 ns  Log    PASSED  in receiver_1: RxBurstFifo,      Received: F7   Item Number: 419
%%        1210.0 ns  Log    PASSED  in receiver_1: RxBurstFifo,      Received: F8   Item Number: 420
%%        1210.0 ns  Log    PASSED  in receiver_1: RxBurstFifo,      Received: F9   Item Number: 421
%%        1210.0 ns  Log    PASSED  in receiver_1: RxBurstFifo,      Received: FA   Item Number: 422
%%        1210.0 ns  Log    PASSED  in receiver_1: RxBurstFifo,      Received: FB   Item Number: 423
%%        1210.0 ns  Log    PASSED  in receiver_1: RxBurstFifo,      Received: FC   Item Number: 424
%%        1210.0 ns  Log    PASSED  in receiver_1: RxBurstFifo,      Received: FD   Item Number: 425
