

%% Log    ALWAYS    in Default,   Send and Get: Transmit 12 words at 30 ns
%% Log    INFO      in transmitter_1,   Axi Stream Send.  TData: 00000001  TStrb: 1111  TKeep: 1111  TID: 00  TDest: 0  TUser: 0  TLast: 0  Operation# 1 at 30 ns
%% Log    INFO      in transmitter_1,   Axi Stream Send.  TData: 00000002  TStrb: 1111  TKeep: 1111  TID: 00  TDest: 0  TUser: 0  TLast: 0  Operation# 2 at 40 ns
%% Log    INFO      in transmitter_1,   Axi Stream Send.  TData: 00000003  TStrb: 1111  TKeep: 1111  TID: 00  TDest: 0  TUser: 0  TLast: 0  Operation# 3 at 50 ns
%% Log    INFO      in receiver_1,   Word Receive.  Operation# 1  Data: 00000001  TID: 00  TDest: 0  TUser: 0  TLast: 0 at 60 ns
%% Log    INFO      in transmitter_1,   Axi Stream Send.  TData: 00000004  TStrb: 1111  TKeep: 1111  TID: 00  TDest: 0  TUser: 0  TLast: 0  Operation# 4 at 60 ns
%% Log    PASSED    in Default,   RxData Received : 00000001 at 60 ns
%% Log    PASSED    in Default,   Get Start: 60 ns = Finish: 60 ns at 60 ns
%% Log    INFO      in receiver_1,   Word Receive.  Operation# 2  Data: 00000002  TID: 00  TDest: 0  TUser: 0  TLast: 0 at 70 ns
%% Log    PASSED    in Default,   RxData Received : 00000002 at 70 ns
%% Log    PASSED    in Default,   Get Start: 70 ns = Finish: 70 ns at 70 ns
%% Log    INFO      in receiver_1,   Word Receive.  Operation# 3  Data: 00000003  TID: 00  TDest: 0  TUser: 0  TLast: 0 at 80 ns
%% Log    PASSED    in Default,   RxData Received : 00000003 at 80 ns
%% Log    PASSED    in Default,   Get Start: 80 ns = Finish: 80 ns at 80 ns
%% Log    INFO      in receiver_1,   Word Receive.  Operation# 4  Data: 00000004  TID: 00  TDest: 0  TUser: 0  TLast: 0 at 90 ns
%% Log    PASSED    in Default,   RxData Received : 00000004 at 90 ns
%% Log    PASSED    in Default,   Get Start: 90 ns = Finish: 90 ns at 90 ns
%% Log    INFO      in transmitter_1,   Axi Stream Send.  TData: 00000005  TStrb: 1111  TKeep: 1111  TID: 00  TDest: 0  TUser: 0  TLast: 0  Operation# 5 at 110 ns
%% Log    PASSED    in receiver_1: Data Check,   Operation# 5  Received.  Data: 00000005  TID: 00  TDest: 0  TUser: 0  TLast: 0 at 120 ns
%% Log    INFO      in transmitter_1,   Axi Stream Send.  TData: 00001001  TStrb: 1111  TKeep: 1111  TID: 00  TDest: 0  TUser: 0  TLast: 0  Operation# 6 at 120 ns
%% Log    INFO      in receiver_1,   Word Receive.  Operation# 6  Data: 00001001  TID: 00  TDest: 0  TUser: 0  TLast: 0 at 150 ns
%% Log    PASSED    in Default,   RxData Received : 00001001 at 150 ns
%% Log    PASSED    in Default,   Get Start + 10 ns: 140 ns = Finish: 150 ns at 150 ns
%% Log    INFO      in transmitter_1,   Axi Stream Send.  TData: 00001002  TStrb: 1111  TKeep: 1111  TID: 00  TDest: 0  TUser: 0  TLast: 0  Operation# 7 at 150 ns
%% Log    INFO      in receiver_1,   Word Receive.  Operation# 7  Data: 00001002  TID: 00  TDest: 0  TUser: 0  TLast: 0 at 170 ns
%% Log    PASSED    in Default,   RxData Received : 00001002 at 170 ns
%% Log    PASSED    in Default,   Get Start + 10 ns: 160 ns = Finish: 170 ns at 170 ns
%% Log    INFO      in transmitter_1,   Axi Stream Send.  TData: 00001003  TStrb: 1111  TKeep: 1111  TID: 00  TDest: 0  TUser: 0  TLast: 0  Operation# 8 at 170 ns
%% Log    INFO      in receiver_1,   Word Receive.  Operation# 8  Data: 00001003  TID: 00  TDest: 0  TUser: 0  TLast: 0 at 200 ns
%% Log    PASSED    in Default,   RxData Received : 00001003 at 200 ns
%% Log    PASSED    in Default,   Get Start + 10 ns: 190 ns = Finish: 200 ns at 200 ns
%% Log    INFO      in transmitter_1,   Axi Stream Send.  TData: 00001004  TStrb: 1111  TKeep: 1111  TID: 00  TDest: 0  TUser: 0  TLast: 0  Operation# 9 at 200 ns
%% Log    INFO      in receiver_1,   Word Receive.  Operation# 9  Data: 00001004  TID: 00  TDest: 0  TUser: 0  TLast: 0 at 220 ns
%% Log    PASSED    in Default,   RxData Received : 00001004 at 220 ns
%% Log    PASSED    in Default,   Get Start + 10 ns: 210 ns = Finish: 220 ns at 220 ns
%% Log    INFO      in transmitter_1,   Axi Stream Send.  TData: 00001005  TStrb: 1111  TKeep: 1111  TID: 00  TDest: 0  TUser: 0  TLast: 0  Operation# 10 at 240 ns
%% Log    PASSED    in receiver_1: Data Check,   Operation# 10  Received.  Data: 00001005  TID: 00  TDest: 0  TUser: 0  TLast: 0 at 250 ns
%% Log    INFO      in transmitter_1,   Axi Stream Send.  TData: 00002001  TStrb: 1111  TKeep: 1111  TID: 00  TDest: 0  TUser: 0  TLast: 0  Operation# 11 at 270 ns
%% Log    INFO      in transmitter_1,   Axi Stream Send.  TData: 00002002  TStrb: 1111  TKeep: 1111  TID: 00  TDest: 0  TUser: 0  TLast: 0  Operation# 12 at 280 ns
%% Log    INFO      in transmitter_1,   Axi Stream Send.  TData: 00002003  TStrb: 1111  TKeep: 1111  TID: 00  TDest: 0  TUser: 0  TLast: 0  Operation# 13 at 290 ns
%% Log    INFO      in receiver_1,   Word Receive.  Operation# 11  Data: 00002001  TID: 00  TDest: 0  TUser: 0  TLast: 0 at 300 ns
%% Log    INFO      in transmitter_1,   Axi Stream Send.  TData: 00002004  TStrb: 1111  TKeep: 1111  TID: 00  TDest: 0  TUser: 0  TLast: 0  Operation# 14 at 300 ns
%% Log    PASSED    in Default,   RxData Received : 00002001 at 300 ns
%% Log    PASSED    in Default,   Get Start: 300 ns = Finish: 300 ns at 300 ns
%% Log    INFO      in receiver_1,   Word Receive.  Operation# 12  Data: 00002002  TID: 00  TDest: 0  TUser: 0  TLast: 0 at 310 ns
%% Log    PASSED    in Default,   RxData Received : 00002002 at 310 ns
%% Log    PASSED    in Default,   Get Start: 310 ns = Finish: 310 ns at 310 ns
%% Log    INFO      in receiver_1,   Word Receive.  Operation# 13  Data: 00002003  TID: 00  TDest: 0  TUser: 0  TLast: 0 at 320 ns
%% Log    PASSED    in Default,   RxData Received : 00002003 at 320 ns
%% Log    PASSED    in Default,   Get Start: 320 ns = Finish: 320 ns at 320 ns
%% Log    INFO      in receiver_1,   Word Receive.  Operation# 14  Data: 00002004  TID: 00  TDest: 0  TUser: 0  TLast: 0 at 330 ns
%% Log    PASSED    in Default,   RxData Received : 00002004 at 330 ns
%% Log    PASSED    in Default,   Get Start: 330 ns = Finish: 330 ns at 330 ns


%% Log    ALWAYS    in Default,   Send and Check: Transmit 12 words at 350 ns
%% Log    INFO      in transmitter_1,   Axi Stream Send.  TData: 00010001  TStrb: 1111  TKeep: 1111  TID: 00  TDest: 0  TUser: 0  TLast: 0  Operation# 15 at 350 ns
%% Log    INFO      in transmitter_1,   Axi Stream Send.  TData: 00010002  TStrb: 1111  TKeep: 1111  TID: 00  TDest: 0  TUser: 0  TLast: 0  Operation# 16 at 360 ns
%% Log    PASSED    in receiver_1: Data Check,   Operation# 15  Received.  Data: 00010001  TID: 00  TDest: 0  TUser: 0  TLast: 0 at 370 ns
%% Log    INFO      in transmitter_1,   Axi Stream Send.  TData: 00010003  TStrb: 1111  TKeep: 1111  TID: 00  TDest: 0  TUser: 0  TLast: 0  Operation# 17 at 370 ns
%% Log    PASSED    in Default,   Get Start: 370 ns = Finish: 370 ns at 370 ns
%% Log    PASSED    in receiver_1: Data Check,   Operation# 16  Received.  Data: 00010002  TID: 00  TDest: 0  TUser: 0  TLast: 0 at 380 ns
%% Log    INFO      in transmitter_1,   Axi Stream Send.  TData: 00010004  TStrb: 1111  TKeep: 1111  TID: 00  TDest: 0  TUser: 0  TLast: 0  Operation# 18 at 380 ns
%% Log    PASSED    in Default,   Get Start: 380 ns = Finish: 380 ns at 380 ns
%% Log    PASSED    in receiver_1: Data Check,   Operation# 17  Received.  Data: 00010003  TID: 00  TDest: 0  TUser: 0  TLast: 0 at 390 ns
%% Log    PASSED    in Default,   Get Start: 390 ns = Finish: 390 ns at 390 ns
%% Log    PASSED    in receiver_1: Data Check,   Operation# 18  Received.  Data: 00010004  TID: 00  TDest: 0  TUser: 0  TLast: 0 at 400 ns
%% Log    PASSED    in Default,   Get Start: 400 ns = Finish: 400 ns at 400 ns
%% Log    INFO      in transmitter_1,   Axi Stream Send.  TData: 00010005  TStrb: 1111  TKeep: 1111  TID: 00  TDest: 0  TUser: 0  TLast: 0  Operation# 19 at 420 ns
%% Log    PASSED    in receiver_1: Data Check,   Operation# 19  Received.  Data: 00010005  TID: 00  TDest: 0  TUser: 0  TLast: 0 at 430 ns
%% Log    INFO      in transmitter_1,   Axi Stream Send.  TData: 00011001  TStrb: 1111  TKeep: 1111  TID: 00  TDest: 0  TUser: 0  TLast: 0  Operation# 20 at 430 ns
%% Log    PASSED    in receiver_1: Data Check,   Operation# 20  Received.  Data: 00011001  TID: 00  TDest: 0  TUser: 0  TLast: 0 at 460 ns
%% Log    PASSED    in Default,   Get Start + 10 ns: 450 ns = Finish: 460 ns at 460 ns
%% Log    INFO      in transmitter_1,   Axi Stream Send.  TData: 00011002  TStrb: 1111  TKeep: 1111  TID: 00  TDest: 0  TUser: 0  TLast: 0  Operation# 21 at 460 ns
%% Log    PASSED    in receiver_1: Data Check,   Operation# 21  Received.  Data: 00011002  TID: 00  TDest: 0  TUser: 0  TLast: 0 at 480 ns
%% Log    PASSED    in Default,   Get Start + 10 ns: 470 ns = Finish: 480 ns at 480 ns
%% Log    INFO      in transmitter_1,   Axi Stream Send.  TData: 00011003  TStrb: 1111  TKeep: 1111  TID: 00  TDest: 0  TUser: 0  TLast: 0  Operation# 22 at 480 ns
%% Log    PASSED    in receiver_1: Data Check,   Operation# 22  Received.  Data: 00011003  TID: 00  TDest: 0  TUser: 0  TLast: 0 at 510 ns
%% Log    PASSED    in Default,   Get Start + 10 ns: 500 ns = Finish: 510 ns at 510 ns
%% Log    INFO      in transmitter_1,   Axi Stream Send.  TData: 00011004  TStrb: 1111  TKeep: 1111  TID: 00  TDest: 0  TUser: 0  TLast: 0  Operation# 23 at 510 ns
%% Log    PASSED    in receiver_1: Data Check,   Operation# 23  Received.  Data: 00011004  TID: 00  TDest: 0  TUser: 0  TLast: 0 at 530 ns
%% Log    PASSED    in Default,   Get Start + 10 ns: 520 ns = Finish: 530 ns at 530 ns
%% Log    INFO      in transmitter_1,   Axi Stream Send.  TData: 00011005  TStrb: 1111  TKeep: 1111  TID: 00  TDest: 0  TUser: 0  TLast: 0  Operation# 24 at 550 ns
%% Log    PASSED    in receiver_1: Data Check,   Operation# 24  Received.  Data: 00011005  TID: 00  TDest: 0  TUser: 0  TLast: 0 at 560 ns
%% Log    INFO      in transmitter_1,   Axi Stream Send.  TData: 00012001  TStrb: 1111  TKeep: 1111  TID: 00  TDest: 0  TUser: 0  TLast: 0  Operation# 25 at 580 ns
%% Log    PASSED    in receiver_1: Data Check,   Operation# 25  Received.  Data: 00012001  TID: 00  TDest: 0  TUser: 0  TLast: 0 at 590 ns
%% Log    INFO      in transmitter_1,   Axi Stream Send.  TData: 00012002  TStrb: 1111  TKeep: 1111  TID: 00  TDest: 0  TUser: 0  TLast: 0  Operation# 26 at 590 ns
%% Log    PASSED    in Default,   Get Start: 590 ns = Finish: 590 ns at 590 ns
%% Log    PASSED    in receiver_1: Data Check,   Operation# 26  Received.  Data: 00012002  TID: 00  TDest: 0  TUser: 0  TLast: 0 at 600 ns
%% Log    INFO      in transmitter_1,   Axi Stream Send.  TData: 00012003  TStrb: 1111  TKeep: 1111  TID: 00  TDest: 0  TUser: 0  TLast: 0  Operation# 27 at 600 ns
%% Log    PASSED    in Default,   Get Start: 600 ns = Finish: 600 ns at 600 ns
%% Log    PASSED    in receiver_1: Data Check,   Operation# 27  Received.  Data: 00012003  TID: 00  TDest: 0  TUser: 0  TLast: 0 at 610 ns
%% Log    INFO      in transmitter_1,   Axi Stream Send.  TData: 00012004  TStrb: 1111  TKeep: 1111  TID: 00  TDest: 0  TUser: 0  TLast: 0  Operation# 28 at 610 ns
%% Log    PASSED    in Default,   Get Start: 610 ns = Finish: 610 ns at 610 ns
%% Log    PASSED    in receiver_1: Data Check,   Operation# 28  Received.  Data: 00012004  TID: 00  TDest: 0  TUser: 0  TLast: 0 at 620 ns
%% Log    PASSED    in Default,   Get Start: 620 ns = Finish: 620 ns at 620 ns
%% Log    ALWAYS    in Default,   SendBurstIncrement and GetBurst + CheckBurstIncrement: 6 x 4 word bursts at 620 ns


%% Log    INFO      in transmitter_1,   Axi Stream Send.  TData: 00020000  TStrb: 1111  TKeep: 1111  TID: 00  TDest: 0  TUser: 0  TLast: 0  Operation# 29 at 640 ns
%% Log    INFO      in transmitter_1,   Axi Stream Send.  TData: 00020001  TStrb: 1111  TKeep: 1111  TID: 00  TDest: 0  TUser: 0  TLast: 0  Operation# 30 at 650 ns
%% Log    INFO      in transmitter_1,   Axi Stream Send.  TData: 00020002  TStrb: 1111  TKeep: 1111  TID: 00  TDest: 0  TUser: 0  TLast: 0  Operation# 31 at 660 ns
%% Log    INFO      in transmitter_1,   Axi Stream Send.  TData: 00020003  TStrb: 1111  TKeep: 1111  TID: 00  TDest: 0  TUser: 0  TLast: 1  Operation# 32 at 670 ns
%% Log    INFO      in transmitter_1,   Axi Stream Send.  TData: 00021000  TStrb: 1111  TKeep: 1111  TID: 00  TDest: 0  TUser: 0  TLast: 0  Operation# 33 at 680 ns
%% Log    INFO      in transmitter_1,   Axi Stream Send.  TData: 00021001  TStrb: 1111  TKeep: 1111  TID: 00  TDest: 0  TUser: 0  TLast: 0  Operation# 34 at 690 ns
%% Log    INFO      in transmitter_1,   Axi Stream Send.  TData: 00021002  TStrb: 1111  TKeep: 1111  TID: 00  TDest: 0  TUser: 0  TLast: 0  Operation# 35 at 700 ns
%% Log    INFO      in transmitter_1,   Axi Stream Send.  TData: 00021003  TStrb: 1111  TKeep: 1111  TID: 00  TDest: 0  TUser: 0  TLast: 1  Operation# 36 at 710 ns
%% Log    INFO      in receiver_1,   Burst Receive.  Operation# 29  Last Data: 00020003  TID: 00  TDest: 0  TUser: 0  TLast: 1 at 720 ns
%% Log    PASSED    in Default,   NumWords Received : 4 at 720 ns
%% Log    PASSED    in receiver_1: RxBurstFifo,      Received: 00020000   Item Number: 1 at 720 ns
%% Log    PASSED    in receiver_1: RxBurstFifo,      Received: 00020001   Item Number: 2 at 720 ns
%% Log    PASSED    in receiver_1: RxBurstFifo,      Received: 00020002   Item Number: 3 at 720 ns
%% Log    PASSED    in receiver_1: RxBurstFifo,      Received: 00020003   Item Number: 4 at 720 ns
%% Log    INFO      in receiver_1,   Burst Receive.  Operation# 30  Last Data: 00021003  TID: 00  TDest: 0  TUser: 0  TLast: 1 at 720 ns
%% Log    PASSED    in Default,   NumWords Received : 4 at 720 ns
%% Log    PASSED    in receiver_1: RxBurstFifo,      Received: 00021000   Item Number: 5 at 720 ns
%% Log    PASSED    in receiver_1: RxBurstFifo,      Received: 00021001   Item Number: 6 at 720 ns
%% Log    PASSED    in receiver_1: RxBurstFifo,      Received: 00021002   Item Number: 7 at 720 ns
%% Log    PASSED    in receiver_1: RxBurstFifo,      Received: 00021003   Item Number: 8 at 720 ns
%% Log    INFO      in transmitter_1,   Axi Stream Send.  TData: 00020005  TStrb: 1111  TKeep: 1111  TID: 00  TDest: 0  TUser: 0  TLast: 0  Operation# 37 at 740 ns
%% Log    PASSED    in receiver_1: Data Check,   Operation# 31  Received.  Data: 00020005  TID: 00  TDest: 0  TUser: 0  TLast: 0 at 750 ns
%% Log    INFO      in transmitter_1,   Axi Stream Send.  TData: 00022000  TStrb: 1111  TKeep: 1111  TID: 00  TDest: 0  TUser: 0  TLast: 0  Operation# 38 at 750 ns
%% Log    INFO      in transmitter_1,   Axi Stream Send.  TData: 00022001  TStrb: 1111  TKeep: 1111  TID: 00  TDest: 0  TUser: 0  TLast: 0  Operation# 39 at 800 ns
%% Log    INFO      in transmitter_1,   Axi Stream Send.  TData: 00022002  TStrb: 1111  TKeep: 1111  TID: 00  TDest: 0  TUser: 0  TLast: 0  Operation# 40 at 810 ns
%% Log    INFO      in transmitter_1,   Axi Stream Send.  TData: 00022003  TStrb: 1111  TKeep: 1111  TID: 00  TDest: 0  TUser: 0  TLast: 1  Operation# 41 at 820 ns
%% Log    INFO      in receiver_1,   Burst Receive.  Operation# 32  Last Data: 00022003  TID: 00  TDest: 0  TUser: 0  TLast: 1 at 830 ns
%% Log    PASSED    in Default,   NumWords Received : 4 at 830 ns
%% Log    PASSED    in receiver_1: RxBurstFifo,      Received: 00022000   Item Number: 9 at 830 ns
%% Log    PASSED    in receiver_1: RxBurstFifo,      Received: 00022001   Item Number: 10 at 830 ns
%% Log    PASSED    in receiver_1: RxBurstFifo,      Received: 00022002   Item Number: 11 at 830 ns
%% Log    PASSED    in receiver_1: RxBurstFifo,      Received: 00022003   Item Number: 12 at 830 ns
%% Log    INFO      in transmitter_1,   Axi Stream Send.  TData: 00023000  TStrb: 1111  TKeep: 1111  TID: 00  TDest: 0  TUser: 0  TLast: 0  Operation# 42 at 830 ns
%% Log    INFO      in transmitter_1,   Axi Stream Send.  TData: 00023001  TStrb: 1111  TKeep: 1111  TID: 00  TDest: 0  TUser: 0  TLast: 0  Operation# 43 at 860 ns
%% Log    INFO      in transmitter_1,   Axi Stream Send.  TData: 00023002  TStrb: 1111  TKeep: 1111  TID: 00  TDest: 0  TUser: 0  TLast: 0  Operation# 44 at 870 ns
%% Log    INFO      in transmitter_1,   Axi Stream Send.  TData: 00023003  TStrb: 1111  TKeep: 1111  TID: 00  TDest: 0  TUser: 0  TLast: 1  Operation# 45 at 880 ns
%% Log    INFO      in receiver_1,   Burst Receive.  Operation# 33  Last Data: 00023003  TID: 00  TDest: 0  TUser: 0  TLast: 1 at 890 ns
%% Log    PASSED    in Default,   NumWords Received : 4 at 890 ns
%% Log    PASSED    in receiver_1: RxBurstFifo,      Received: 00023000   Item Number: 13 at 890 ns
%% Log    PASSED    in receiver_1: RxBurstFifo,      Received: 00023001   Item Number: 14 at 890 ns
%% Log    PASSED    in receiver_1: RxBurstFifo,      Received: 00023002   Item Number: 15 at 890 ns
%% Log    PASSED    in receiver_1: RxBurstFifo,      Received: 00023003   Item Number: 16 at 890 ns
%% Log    INFO      in transmitter_1,   Axi Stream Send.  TData: 00021005  TStrb: 1111  TKeep: 1111  TID: 00  TDest: 0  TUser: 0  TLast: 0  Operation# 46 at 910 ns
%% Log    PASSED    in receiver_1: Data Check,   Operation# 34  Received.  Data: 00021005  TID: 00  TDest: 0  TUser: 0  TLast: 0 at 920 ns
%% Log    INFO      in transmitter_1,   Axi Stream Send.  TData: 00024000  TStrb: 1111  TKeep: 1111  TID: 00  TDest: 0  TUser: 0  TLast: 0  Operation# 47 at 940 ns
%% Log    INFO      in transmitter_1,   Axi Stream Send.  TData: 00024001  TStrb: 1111  TKeep: 1111  TID: 00  TDest: 0  TUser: 0  TLast: 0  Operation# 48 at 950 ns
%% Log    INFO      in transmitter_1,   Axi Stream Send.  TData: 00024002  TStrb: 1111  TKeep: 1111  TID: 00  TDest: 0  TUser: 0  TLast: 0  Operation# 49 at 960 ns
%% Log    INFO      in transmitter_1,   Axi Stream Send.  TData: 00024003  TStrb: 1111  TKeep: 1111  TID: 00  TDest: 0  TUser: 0  TLast: 1  Operation# 50 at 970 ns
%% Log    INFO      in transmitter_1,   Axi Stream Send.  TData: 00025000  TStrb: 1111  TKeep: 1111  TID: 00  TDest: 0  TUser: 0  TLast: 0  Operation# 51 at 980 ns
%% Log    INFO      in transmitter_1,   Axi Stream Send.  TData: 00025001  TStrb: 1111  TKeep: 1111  TID: 00  TDest: 0  TUser: 0  TLast: 0  Operation# 52 at 990 ns
%% Log    INFO      in transmitter_1,   Axi Stream Send.  TData: 00025002  TStrb: 1111  TKeep: 1111  TID: 00  TDest: 0  TUser: 0  TLast: 0  Operation# 53 at 1000 ns
%% Log    INFO      in transmitter_1,   Axi Stream Send.  TData: 00025003  TStrb: 1111  TKeep: 1111  TID: 00  TDest: 0  TUser: 0  TLast: 1  Operation# 54 at 1010 ns
%% Log    INFO      in receiver_1,   Burst Receive.  Operation# 35  Last Data: 00024003  TID: 00  TDest: 0  TUser: 0  TLast: 1 at 1020 ns
%% Log    PASSED    in Default,   NumWords Received : 4 at 1020 ns
%% Log    PASSED    in receiver_1: RxBurstFifo,      Received: 00024000   Item Number: 17 at 1020 ns
%% Log    PASSED    in receiver_1: RxBurstFifo,      Received: 00024001   Item Number: 18 at 1020 ns
%% Log    PASSED    in receiver_1: RxBurstFifo,      Received: 00024002   Item Number: 19 at 1020 ns
%% Log    PASSED    in receiver_1: RxBurstFifo,      Received: 00024003   Item Number: 20 at 1020 ns
%% Log    INFO      in receiver_1,   Burst Receive.  Operation# 36  Last Data: 00025003  TID: 00  TDest: 0  TUser: 0  TLast: 1 at 1020 ns
%% Log    PASSED    in Default,   NumWords Received : 4 at 1020 ns
%% Log    PASSED    in receiver_1: RxBurstFifo,      Received: 00025000   Item Number: 21 at 1020 ns
%% Log    PASSED    in receiver_1: RxBurstFifo,      Received: 00025001   Item Number: 22 at 1020 ns
%% Log    PASSED    in receiver_1: RxBurstFifo,      Received: 00025002   Item Number: 23 at 1020 ns
%% Log    PASSED    in receiver_1: RxBurstFifo,      Received: 00025003   Item Number: 24 at 1020 ns
%% Log    ALWAYS    in Default,   SendBurstIncrement and CheckBurstIncrement: Send 6 x 4 word bursts at 1020 ns


%% Log    INFO      in transmitter_1,   Axi Stream Send.  TData: 00030000  TStrb: 1111  TKeep: 1111  TID: 00  TDest: 0  TUser: 0  TLast: 0  Operation# 55 at 1040 ns
%% Log    INFO      in transmitter_1,   Axi Stream Send.  TData: 00030001  TStrb: 1111  TKeep: 1111  TID: 00  TDest: 0  TUser: 0  TLast: 0  Operation# 56 at 1050 ns
%% Log    INFO      in transmitter_1,   Axi Stream Send.  TData: 00030002  TStrb: 1111  TKeep: 1111  TID: 00  TDest: 0  TUser: 0  TLast: 0  Operation# 57 at 1060 ns
%% Log    INFO      in transmitter_1,   Axi Stream Send.  TData: 00030003  TStrb: 1111  TKeep: 1111  TID: 00  TDest: 0  TUser: 0  TLast: 1  Operation# 58 at 1070 ns
%% Log    PASSED    in receiver_1: RxBurstFifo,      Received: 00030000   Item Number: 25 at 1080 ns
%% Log    PASSED    in receiver_1: RxBurstFifo,      Received: 00030001   Item Number: 26 at 1080 ns
%% Log    PASSED    in receiver_1: RxBurstFifo,      Received: 00030002   Item Number: 27 at 1080 ns
%% Log    PASSED    in receiver_1: RxBurstFifo,      Received: 00030003   Item Number: 28 at 1080 ns
%% Log    INFO      in receiver_1,   Burst Check.  Operation# 37  Last Data: 00030003  TID: 00  TDest: 0  TUser: 0  TLast: 1 at 1080 ns
%% Log    PASSED    in receiver_1,   Burst Check WordCount Received : 4 at 1080 ns
%% Log    PASSED    in receiver_1,   ID Received : 00 at 1080 ns
%% Log    PASSED    in receiver_1,   DEST Received : 0 at 1080 ns
%% Log    PASSED    in receiver_1,   USER Received : 0 at 1080 ns
%% Log    PASSED    in receiver_1,   Last Received : 1 at 1080 ns
%% Log    INFO      in transmitter_1,   Axi Stream Send.  TData: 00031000  TStrb: 1111  TKeep: 1111  TID: 00  TDest: 0  TUser: 0  TLast: 0  Operation# 59 at 1080 ns
%% Log    INFO      in transmitter_1,   Axi Stream Send.  TData: 00031001  TStrb: 1111  TKeep: 1111  TID: 00  TDest: 0  TUser: 0  TLast: 0  Operation# 60 at 1090 ns
%% Log    INFO      in transmitter_1,   Axi Stream Send.  TData: 00031002  TStrb: 1111  TKeep: 1111  TID: 00  TDest: 0  TUser: 0  TLast: 0  Operation# 61 at 1100 ns
%% Log    INFO      in transmitter_1,   Axi Stream Send.  TData: 00031003  TStrb: 1111  TKeep: 1111  TID: 00  TDest: 0  TUser: 0  TLast: 1  Operation# 62 at 1110 ns
%% Log    PASSED    in receiver_1: RxBurstFifo,      Received: 00031000   Item Number: 29 at 1120 ns
%% Log    PASSED    in receiver_1: RxBurstFifo,      Received: 00031001   Item Number: 30 at 1120 ns
%% Log    PASSED    in receiver_1: RxBurstFifo,      Received: 00031002   Item Number: 31 at 1120 ns
%% Log    PASSED    in receiver_1: RxBurstFifo,      Received: 00031003   Item Number: 32 at 1120 ns
%% Log    INFO      in receiver_1,   Burst Check.  Operation# 38  Last Data: 00031003  TID: 00  TDest: 0  TUser: 0  TLast: 1 at 1120 ns
%% Log    PASSED    in receiver_1,   Burst Check WordCount Received : 4 at 1120 ns
%% Log    PASSED    in receiver_1,   ID Received : 00 at 1120 ns
%% Log    PASSED    in receiver_1,   DEST Received : 0 at 1120 ns
%% Log    PASSED    in receiver_1,   USER Received : 0 at 1120 ns
%% Log    PASSED    in receiver_1,   Last Received : 1 at 1120 ns
%% Log    INFO      in transmitter_1,   Axi Stream Send.  TData: 00031005  TStrb: 1111  TKeep: 1111  TID: 00  TDest: 0  TUser: 0  TLast: 0  Operation# 63 at 1140 ns
%% Log    PASSED    in receiver_1: Data Check,   Operation# 39  Received.  Data: 00031005  TID: 00  TDest: 0  TUser: 0  TLast: 0 at 1150 ns
%% Log    INFO      in transmitter_1,   Axi Stream Send.  TData: 00032000  TStrb: 1111  TKeep: 1111  TID: 00  TDest: 0  TUser: 0  TLast: 0  Operation# 64 at 1150 ns
%% Log    INFO      in transmitter_1,   Axi Stream Send.  TData: 00032001  TStrb: 1111  TKeep: 1111  TID: 00  TDest: 0  TUser: 0  TLast: 0  Operation# 65 at 1180 ns
%% Log    INFO      in transmitter_1,   Axi Stream Send.  TData: 00032002  TStrb: 1111  TKeep: 1111  TID: 00  TDest: 0  TUser: 0  TLast: 0  Operation# 66 at 1190 ns
%% Log    INFO      in transmitter_1,   Axi Stream Send.  TData: 00032003  TStrb: 1111  TKeep: 1111  TID: 00  TDest: 0  TUser: 0  TLast: 1  Operation# 67 at 1200 ns
%% Log    PASSED    in receiver_1: RxBurstFifo,      Received: 00032000   Item Number: 33 at 1210 ns
%% Log    PASSED    in receiver_1: RxBurstFifo,      Received: 00032001   Item Number: 34 at 1210 ns
%% Log    PASSED    in receiver_1: RxBurstFifo,      Received: 00032002   Item Number: 35 at 1210 ns
%% Log    PASSED    in receiver_1: RxBurstFifo,      Received: 00032003   Item Number: 36 at 1210 ns
%% Log    INFO      in receiver_1,   Burst Check.  Operation# 40  Last Data: 00032003  TID: 00  TDest: 0  TUser: 0  TLast: 1 at 1210 ns
%% Log    PASSED    in receiver_1,   Burst Check WordCount Received : 4 at 1210 ns
%% Log    PASSED    in receiver_1,   ID Received : 00 at 1210 ns
%% Log    PASSED    in receiver_1,   DEST Received : 0 at 1210 ns
%% Log    PASSED    in receiver_1,   USER Received : 0 at 1210 ns
%% Log    PASSED    in receiver_1,   Last Received : 1 at 1210 ns
%% Log    INFO      in transmitter_1,   Axi Stream Send.  TData: 00033000  TStrb: 1111  TKeep: 1111  TID: 00  TDest: 0  TUser: 0  TLast: 0  Operation# 68 at 1230 ns
%% Log    INFO      in transmitter_1,   Axi Stream Send.  TData: 00033001  TStrb: 1111  TKeep: 1111  TID: 00  TDest: 0  TUser: 0  TLast: 0  Operation# 69 at 1240 ns
%% Log    INFO      in transmitter_1,   Axi Stream Send.  TData: 00033002  TStrb: 1111  TKeep: 1111  TID: 00  TDest: 0  TUser: 0  TLast: 0  Operation# 70 at 1250 ns
%% Log    INFO      in transmitter_1,   Axi Stream Send.  TData: 00033003  TStrb: 1111  TKeep: 1111  TID: 00  TDest: 0  TUser: 0  TLast: 1  Operation# 71 at 1260 ns
%% Log    PASSED    in receiver_1: RxBurstFifo,      Received: 00033000   Item Number: 37 at 1270 ns
%% Log    PASSED    in receiver_1: RxBurstFifo,      Received: 00033001   Item Number: 38 at 1270 ns
%% Log    PASSED    in receiver_1: RxBurstFifo,      Received: 00033002   Item Number: 39 at 1270 ns
%% Log    PASSED    in receiver_1: RxBurstFifo,      Received: 00033003   Item Number: 40 at 1270 ns
%% Log    INFO      in receiver_1,   Burst Check.  Operation# 41  Last Data: 00033003  TID: 00  TDest: 0  TUser: 0  TLast: 1 at 1270 ns
%% Log    PASSED    in receiver_1,   Burst Check WordCount Received : 4 at 1270 ns
%% Log    PASSED    in receiver_1,   ID Received : 00 at 1270 ns
%% Log    PASSED    in receiver_1,   DEST Received : 0 at 1270 ns
%% Log    PASSED    in receiver_1,   USER Received : 0 at 1270 ns
%% Log    PASSED    in receiver_1,   Last Received : 1 at 1270 ns
%% Log    INFO      in transmitter_1,   Axi Stream Send.  TData: 00033005  TStrb: 1111  TKeep: 1111  TID: 00  TDest: 0  TUser: 0  TLast: 0  Operation# 72 at 1310 ns
%% Log    PASSED    in receiver_1: Data Check,   Operation# 42  Received.  Data: 00033005  TID: 00  TDest: 0  TUser: 0  TLast: 0 at 1320 ns
%% Log    INFO      in transmitter_1,   Axi Stream Send.  TData: 00034000  TStrb: 1111  TKeep: 1111  TID: 00  TDest: 0  TUser: 0  TLast: 0  Operation# 73 at 1340 ns
%% Log    INFO      in transmitter_1,   Axi Stream Send.  TData: 00034001  TStrb: 1111  TKeep: 1111  TID: 00  TDest: 0  TUser: 0  TLast: 0  Operation# 74 at 1350 ns
%% Log    INFO      in transmitter_1,   Axi Stream Send.  TData: 00034002  TStrb: 1111  TKeep: 1111  TID: 00  TDest: 0  TUser: 0  TLast: 0  Operation# 75 at 1360 ns
%% Log    INFO      in transmitter_1,   Axi Stream Send.  TData: 00034003  TStrb: 1111  TKeep: 1111  TID: 00  TDest: 0  TUser: 0  TLast: 1  Operation# 76 at 1370 ns
%% Log    INFO      in transmitter_1,   Axi Stream Send.  TData: 00035000  TStrb: 1111  TKeep: 1111  TID: 00  TDest: 0  TUser: 0  TLast: 0  Operation# 77 at 1380 ns
%% Log    INFO      in transmitter_1,   Axi Stream Send.  TData: 00035001  TStrb: 1111  TKeep: 1111  TID: 00  TDest: 0  TUser: 0  TLast: 0  Operation# 78 at 1390 ns
%% Log    INFO      in transmitter_1,   Axi Stream Send.  TData: 00035002  TStrb: 1111  TKeep: 1111  TID: 00  TDest: 0  TUser: 0  TLast: 0  Operation# 79 at 1400 ns
%% Log    INFO      in transmitter_1,   Axi Stream Send.  TData: 00035003  TStrb: 1111  TKeep: 1111  TID: 00  TDest: 0  TUser: 0  TLast: 1  Operation# 80 at 1410 ns
%% Log    PASSED    in receiver_1: RxBurstFifo,      Received: 00034000   Item Number: 41 at 1420 ns
%% Log    PASSED    in receiver_1: RxBurstFifo,      Received: 00034001   Item Number: 42 at 1420 ns
%% Log    PASSED    in receiver_1: RxBurstFifo,      Received: 00034002   Item Number: 43 at 1420 ns
%% Log    PASSED    in receiver_1: RxBurstFifo,      Received: 00034003   Item Number: 44 at 1420 ns
%% Log    INFO      in receiver_1,   Burst Check.  Operation# 43  Last Data: 00034003  TID: 00  TDest: 0  TUser: 0  TLast: 1 at 1420 ns
%% Log    PASSED    in receiver_1,   Burst Check WordCount Received : 4 at 1420 ns
%% Log    PASSED    in receiver_1,   ID Received : 00 at 1420 ns
%% Log    PASSED    in receiver_1,   DEST Received : 0 at 1420 ns
%% Log    PASSED    in receiver_1,   USER Received : 0 at 1420 ns
%% Log    PASSED    in receiver_1,   Last Received : 1 at 1420 ns
%% Log    PASSED    in receiver_1: RxBurstFifo,      Received: 00035000   Item Number: 45 at 1420 ns
%% Log    PASSED    in receiver_1: RxBurstFifo,      Received: 00035001   Item Number: 46 at 1420 ns
%% Log    PASSED    in receiver_1: RxBurstFifo,      Received: 00035002   Item Number: 47 at 1420 ns
%% Log    PASSED    in receiver_1: RxBurstFifo,      Received: 00035003   Item Number: 48 at 1420 ns
%% Log    INFO      in receiver_1,   Burst Check.  Operation# 44  Last Data: 00035003  TID: 00  TDest: 0  TUser: 0  TLast: 1 at 1420 ns
%% Log    PASSED    in receiver_1,   Burst Check WordCount Received : 4 at 1420 ns
%% Log    PASSED    in receiver_1,   ID Received : 00 at 1420 ns
%% Log    PASSED    in receiver_1,   DEST Received : 0 at 1420 ns
%% Log    PASSED    in receiver_1,   USER Received : 0 at 1420 ns
%% Log    PASSED    in receiver_1,   Last Received : 1 at 1420 ns
