Simple Pattern:  80 bytes, each one increments
%%         110.0 ns  Log    INFO    in transmitter_1,                Axi Stream Send.  TData: 04030201  TStrb: 1111  TKeep: 1111  TID: 00  TDest: 0  TUser: 0  TLast: 0  Operation# 1
%%         120.0 ns  Log    INFO    in transmitter_1,                Axi Stream Send.  TData: 08070605  TStrb: 1111  TKeep: 1111  TID: 00  TDest: 0  TUser: 0  TLast: 0  Operation# 2
%%         130.0 ns  Log    INFO    in transmitter_1,                Axi Stream Send.  TData: 0C0B0A09  TStrb: 1111  TKeep: 1111  TID: 00  TDest: 0  TUser: 0  TLast: 0  Operation# 3
%%         140.0 ns  Log    INFO    in transmitter_1,                Axi Stream Send.  TData: 100F0E0D  TStrb: 1111  TKeep: 1111  TID: 00  TDest: 0  TUser: 0  TLast: 0  Operation# 4
%%         150.0 ns  Log    INFO    in transmitter_1,                Axi Stream Send.  TData: 14131211  TStrb: 1111  TKeep: 1111  TID: 00  TDest: 0  TUser: 0  TLast: 0  Operation# 5
%%         200.0 ns  Log    INFO    in transmitter_1,                Axi Stream Send.  TData: 18171615  TStrb: 1111  TKeep: 1111  TID: 00  TDest: 0  TUser: 0  TLast: 0  Operation# 6
%%         210.0 ns  Log    INFO    in transmitter_1,                Axi Stream Send.  TData: 1C1B1A19  TStrb: 1111  TKeep: 1111  TID: 00  TDest: 0  TUser: 0  TLast: 0  Operation# 7
%%         220.0 ns  Log    INFO    in transmitter_1,                Axi Stream Send.  TData: 201F1E1D  TStrb: 1111  TKeep: 1111  TID: 00  TDest: 0  TUser: 0  TLast: 0  Operation# 8
%%         230.0 ns  Log    INFO    in transmitter_1,                Axi Stream Send.  TData: 24232221  TStrb: 1111  TKeep: 1111  TID: 00  TDest: 0  TUser: 0  TLast: 0  Operation# 9
%%         240.0 ns  Log    INFO    in transmitter_1,                Axi Stream Send.  TData: 28272625  TStrb: 1111  TKeep: 1111  TID: 00  TDest: 0  TUser: 0  TLast: 0  Operation# 10
%%         290.0 ns  Log    INFO    in transmitter_1,                Axi Stream Send.  TData: 2C2B2A29  TStrb: 1111  TKeep: 1111  TID: 00  TDest: 0  TUser: 0  TLast: 0  Operation# 11
%%         300.0 ns  Log    INFO    in transmitter_1,                Axi Stream Send.  TData: 302F2E2D  TStrb: 1111  TKeep: 1111  TID: 00  TDest: 0  TUser: 0  TLast: 0  Operation# 12
%%         310.0 ns  Log    INFO    in transmitter_1,                Axi Stream Send.  TData: 34333231  TStrb: 1111  TKeep: 1111  TID: 00  TDest: 0  TUser: 0  TLast: 0  Operation# 13
%%         320.0 ns  Log    INFO    in transmitter_1,                Axi Stream Send.  TData: 38373635  TStrb: 1111  TKeep: 1111  TID: 00  TDest: 0  TUser: 0  TLast: 0  Operation# 14
%%         330.0 ns  Log    INFO    in transmitter_1,                Axi Stream Send.  TData: 3C3B3A39  TStrb: 1111  TKeep: 1111  TID: 00  TDest: 0  TUser: 0  TLast: 0  Operation# 15
%%         380.0 ns  Log    INFO    in transmitter_1,                Axi Stream Send.  TData: 403F3E3D  TStrb: 1111  TKeep: 1111  TID: 00  TDest: 0  TUser: 0  TLast: 0  Operation# 16
%%         390.0 ns  Log    INFO    in transmitter_1,                Axi Stream Send.  TData: 44434241  TStrb: 1111  TKeep: 1111  TID: 00  TDest: 0  TUser: 0  TLast: 0  Operation# 17
%%         400.0 ns  Log    INFO    in transmitter_1,                Axi Stream Send.  TData: 48474645  TStrb: 1111  TKeep: 1111  TID: 00  TDest: 0  TUser: 0  TLast: 0  Operation# 18
%%         410.0 ns  Log    INFO    in transmitter_1,                Axi Stream Send.  TData: 4C4B4A49  TStrb: 1111  TKeep: 1111  TID: 00  TDest: 0  TUser: 0  TLast: 0  Operation# 19
%%         420.0 ns  Log    INFO    in transmitter_1,                Axi Stream Send.  TData: 504F4E4D  TStrb: 1111  TKeep: 1111  TID: 00  TDest: 0  TUser: 0  TLast: 1  Operation# 20
%%         430.0 ns  Log    PASSED  in receiver_1: RxBurstFifo,      Received: 01   Item Number: 1
%%         430.0 ns  Log    PASSED  in receiver_1: RxBurstFifo,      Received: 02   Item Number: 2
%%         430.0 ns  Log    PASSED  in receiver_1: RxBurstFifo,      Received: 03   Item Number: 3
%%         430.0 ns  Log    PASSED  in receiver_1: RxBurstFifo,      Received: 04   Item Number: 4
%%         430.0 ns  Log    PASSED  in receiver_1: RxBurstFifo,      Received: 05   Item Number: 5
%%         430.0 ns  Log    PASSED  in receiver_1: RxBurstFifo,      Received: 06   Item Number: 6
%%         430.0 ns  Log    PASSED  in receiver_1: RxBurstFifo,      Received: 07   Item Number: 7
%%         430.0 ns  Log    PASSED  in receiver_1: RxBurstFifo,      Received: 08   Item Number: 8
%%         430.0 ns  Log    PASSED  in receiver_1: RxBurstFifo,      Received: 09   Item Number: 9
%%         430.0 ns  Log    PASSED  in receiver_1: RxBurstFifo,      Received: 0A   Item Number: 10
%%         430.0 ns  Log    PASSED  in receiver_1: RxBurstFifo,      Received: 0B   Item Number: 11
%%         430.0 ns  Log    PASSED  in receiver_1: RxBurstFifo,      Received: 0C   Item Number: 12
%%         430.0 ns  Log    PASSED  in receiver_1: RxBurstFifo,      Received: 0D   Item Number: 13
%%         430.0 ns  Log    PASSED  in receiver_1: RxBurstFifo,      Received: 0E   Item Number: 14
%%         430.0 ns  Log    PASSED  in receiver_1: RxBurstFifo,      Received: 0F   Item Number: 15
%%         430.0 ns  Log    PASSED  in receiver_1: RxBurstFifo,      Received: 10   Item Number: 16
%%         430.0 ns  Log    PASSED  in receiver_1: RxBurstFifo,      Received: 11   Item Number: 17
%%         430.0 ns  Log    PASSED  in receiver_1: RxBurstFifo,      Received: 12   Item Number: 18
%%         430.0 ns  Log    PASSED  in receiver_1: RxBurstFifo,      Received: 13   Item Number: 19
%%         430.0 ns  Log    PASSED  in receiver_1: RxBurstFifo,      Received: 14   Item Number: 20
%%         430.0 ns  Log    PASSED  in receiver_1: RxBurstFifo,      Received: 15   Item Number: 21
%%         430.0 ns  Log    PASSED  in receiver_1: RxBurstFifo,      Received: 16   Item Number: 22
%%         430.0 ns  Log    PASSED  in receiver_1: RxBurstFifo,      Received: 17   Item Number: 23
%%         430.0 ns  Log    PASSED  in receiver_1: RxBurstFifo,      Received: 18   Item Number: 24
%%         430.0 ns  Log    PASSED  in receiver_1: RxBurstFifo,      Received: 19   Item Number: 25
%%         430.0 ns  Log    PASSED  in receiver_1: RxBurstFifo,      Received: 1A   Item Number: 26
%%         430.0 ns  Log    PASSED  in receiver_1: RxBurstFifo,      Received: 1B   Item Number: 27
%%         430.0 ns  Log    PASSED  in receiver_1: RxBurstFifo,      Received: 1C   Item Number: 28
%%         430.0 ns  Log    PASSED  in receiver_1: RxBurstFifo,      Received: 1D   Item Number: 29
%%         430.0 ns  Log    PASSED  in receiver_1: RxBurstFifo,      Received: 1E   Item Number: 30
%%         430.0 ns  Log    PASSED  in receiver_1: RxBurstFifo,      Received: 1F   Item Number: 31
%%         430.0 ns  Log    PASSED  in receiver_1: RxBurstFifo,      Received: 20   Item Number: 32
%%         430.0 ns  Log    PASSED  in receiver_1: RxBurstFifo,      Received: 21   Item Number: 33
%%         430.0 ns  Log    PASSED  in receiver_1: RxBurstFifo,      Received: 22   Item Number: 34
%%         430.0 ns  Log    PASSED  in receiver_1: RxBurstFifo,      Received: 23   Item Number: 35
%%         430.0 ns  Log    PASSED  in receiver_1: RxBurstFifo,      Received: 24   Item Number: 36
%%         430.0 ns  Log    PASSED  in receiver_1: RxBurstFifo,      Received: 25   Item Number: 37
%%         430.0 ns  Log    PASSED  in receiver_1: RxBurstFifo,      Received: 26   Item Number: 38
%%         430.0 ns  Log    PASSED  in receiver_1: RxBurstFifo,      Received: 27   Item Number: 39
%%         430.0 ns  Log    PASSED  in receiver_1: RxBurstFifo,      Received: 28   Item Number: 40
%%         430.0 ns  Log    PASSED  in receiver_1: RxBurstFifo,      Received: 29   Item Number: 41
%%         430.0 ns  Log    PASSED  in receiver_1: RxBurstFifo,      Received: 2A   Item Number: 42
%%         430.0 ns  Log    PASSED  in receiver_1: RxBurstFifo,      Received: 2B   Item Number: 43
%%         430.0 ns  Log    PASSED  in receiver_1: RxBurstFifo,      Received: 2C   Item Number: 44
%%         430.0 ns  Log    PASSED  in receiver_1: RxBurstFifo,      Received: 2D   Item Number: 45
%%         430.0 ns  Log    PASSED  in receiver_1: RxBurstFifo,      Received: 2E   Item Number: 46
%%         430.0 ns  Log    PASSED  in receiver_1: RxBurstFifo,      Received: 2F   Item Number: 47
%%         430.0 ns  Log    PASSED  in receiver_1: RxBurstFifo,      Received: 30   Item Number: 48
%%         430.0 ns  Log    PASSED  in receiver_1: RxBurstFifo,      Received: 31   Item Number: 49
%%         430.0 ns  Log    PASSED  in receiver_1: RxBurstFifo,      Received: 32   Item Number: 50
%%         430.0 ns  Log    PASSED  in receiver_1: RxBurstFifo,      Received: 33   Item Number: 51
%%         430.0 ns  Log    PASSED  in receiver_1: RxBurstFifo,      Received: 34   Item Number: 52
%%         430.0 ns  Log    PASSED  in receiver_1: RxBurstFifo,      Received: 35   Item Number: 53
%%         430.0 ns  Log    PASSED  in receiver_1: RxBurstFifo,      Received: 36   Item Number: 54
%%         430.0 ns  Log    PASSED  in receiver_1: RxBurstFifo,      Received: 37   Item Number: 55
%%         430.0 ns  Log    PASSED  in receiver_1: RxBurstFifo,      Received: 38   Item Number: 56
%%         430.0 ns  Log    PASSED  in receiver_1: RxBurstFifo,      Received: 39   Item Number: 57
%%         430.0 ns  Log    PASSED  in receiver_1: RxBurstFifo,      Received: 3A   Item Number: 58
%%         430.0 ns  Log    PASSED  in receiver_1: RxBurstFifo,      Received: 3B   Item Number: 59
%%         430.0 ns  Log    PASSED  in receiver_1: RxBurstFifo,      Received: 3C   Item Number: 60
%%         430.0 ns  Log    PASSED  in receiver_1: RxBurstFifo,      Received: 3D   Item Number: 61
%%         430.0 ns  Log    PASSED  in receiver_1: RxBurstFifo,      Received: 3E   Item Number: 62
%%         430.0 ns  Log    PASSED  in receiver_1: RxBurstFifo,      Received: 3F   Item Number: 63
%%         430.0 ns  Log    PASSED  in receiver_1: RxBurstFifo,      Received: 40   Item Number: 64
%%         430.0 ns  Log    PASSED  in receiver_1: RxBurstFifo,      Received: 41   Item Number: 65
%%         430.0 ns  Log    PASSED  in receiver_1: RxBurstFifo,      Received: 42   Item Number: 66
%%         430.0 ns  Log    PASSED  in receiver_1: RxBurstFifo,      Received: 43   Item Number: 67
%%         430.0 ns  Log    PASSED  in receiver_1: RxBurstFifo,      Received: 44   Item Number: 68
%%         430.0 ns  Log    PASSED  in receiver_1: RxBurstFifo,      Received: 45   Item Number: 69
%%         430.0 ns  Log    PASSED  in receiver_1: RxBurstFifo,      Received: 46   Item Number: 70
%%         430.0 ns  Log    PASSED  in receiver_1: RxBurstFifo,      Received: 47   Item Number: 71
%%         430.0 ns  Log    PASSED  in receiver_1: RxBurstFifo,      Received: 48   Item Number: 72
%%         430.0 ns  Log    PASSED  in receiver_1: RxBurstFifo,      Received: 49   Item Number: 73
%%         430.0 ns  Log    PASSED  in receiver_1: RxBurstFifo,      Received: 4A   Item Number: 74
%%         430.0 ns  Log    PASSED  in receiver_1: RxBurstFifo,      Received: 4B   Item Number: 75
%%         430.0 ns  Log    PASSED  in receiver_1: RxBurstFifo,      Received: 4C   Item Number: 76
%%         430.0 ns  Log    PASSED  in receiver_1: RxBurstFifo,      Received: 4D   Item Number: 77
%%         430.0 ns  Log    PASSED  in receiver_1: RxBurstFifo,      Received: 4E   Item Number: 78
%%         430.0 ns  Log    PASSED  in receiver_1: RxBurstFifo,      Received: 4F   Item Number: 79
%%         430.0 ns  Log    PASSED  in receiver_1: RxBurstFifo,      Received: 50   Item Number: 80
%%         430.0 ns  Log    INFO    in receiver_1,                   Burst Check.  Operation# 1  Last Data: 504F4E4D  TID: 00  TDest: 0  TUser: 0  TLast: 1
%%         430.0 ns  Log    PASSED  in receiver_1,                   Burst Check WordCount Received : 80
%%         430.0 ns  Log    PASSED  in receiver_1,                   ID Received : 00
%%         430.0 ns  Log    PASSED  in receiver_1,                   DEST Received : 0
%%         430.0 ns  Log    PASSED  in receiver_1,                   USER Received : 0
%%         430.0 ns  Log    PASSED  in receiver_1,                   Last Received : 1
Combining Patterns:  Vector, Increment, Random, Intelligent Coverage
%%         630.0 ns  Log    INFO    in transmitter_1,                Axi Stream Send.  TData: 0000A001  TStrb: 1111  TKeep: 1111  TID: 00  TDest: 0  TUser: 0  TLast: 0  Operation# 21
%%         640.0 ns  Log    INFO    in transmitter_1,                Axi Stream Send.  TData: 0000A003  TStrb: 1111  TKeep: 1111  TID: 00  TDest: 0  TUser: 0  TLast: 0  Operation# 22
%%         650.0 ns  Log    INFO    in transmitter_1,                Axi Stream Send.  TData: 0000A005  TStrb: 1111  TKeep: 1111  TID: 00  TDest: 0  TUser: 0  TLast: 0  Operation# 23
%%         660.0 ns  Log    INFO    in transmitter_1,                Axi Stream Send.  TData: 0000A007  TStrb: 1111  TKeep: 1111  TID: 00  TDest: 0  TUser: 0  TLast: 0  Operation# 24
%%         670.0 ns  Log    INFO    in transmitter_1,                Axi Stream Send.  TData: 0000A009  TStrb: 1111  TKeep: 1111  TID: 00  TDest: 0  TUser: 0  TLast: 0  Operation# 25
%%         680.0 ns  Log    INFO    in transmitter_1,                Axi Stream Send.  TData: 0000A011  TStrb: 1111  TKeep: 1111  TID: 00  TDest: 0  TUser: 0  TLast: 0  Operation# 26
%%         690.0 ns  Log    INFO    in transmitter_1,                Axi Stream Send.  TData: 0000A013  TStrb: 1111  TKeep: 1111  TID: 00  TDest: 0  TUser: 0  TLast: 0  Operation# 27
%%         700.0 ns  Log    INFO    in transmitter_1,                Axi Stream Send.  TData: 0000A015  TStrb: 1111  TKeep: 1111  TID: 00  TDest: 0  TUser: 0  TLast: 0  Operation# 28
%%         710.0 ns  Log    INFO    in transmitter_1,                Axi Stream Send.  TData: 0000A017  TStrb: 1111  TKeep: 1111  TID: 00  TDest: 0  TUser: 0  TLast: 0  Operation# 29
%%         720.0 ns  Log    INFO    in transmitter_1,                Axi Stream Send.  TData: 0000A019  TStrb: 1111  TKeep: 1111  TID: 00  TDest: 0  TUser: 0  TLast: 0  Operation# 30
%%         780.0 ns  Log    INFO    in transmitter_1,                Axi Stream Send.  TData: 0000A100  TStrb: 1111  TKeep: 1111  TID: 00  TDest: 0  TUser: 0  TLast: 0  Operation# 31
%%         790.0 ns  Log    INFO    in transmitter_1,                Axi Stream Send.  TData: 0000A101  TStrb: 1111  TKeep: 1111  TID: 00  TDest: 0  TUser: 0  TLast: 0  Operation# 32
%%         800.0 ns  Log    INFO    in transmitter_1,                Axi Stream Send.  TData: 0000A102  TStrb: 1111  TKeep: 1111  TID: 00  TDest: 0  TUser: 0  TLast: 0  Operation# 33
%%         810.0 ns  Log    INFO    in transmitter_1,                Axi Stream Send.  TData: 0000A103  TStrb: 1111  TKeep: 1111  TID: 00  TDest: 0  TUser: 0  TLast: 0  Operation# 34
%%         820.0 ns  Log    INFO    in transmitter_1,                Axi Stream Send.  TData: 0000A104  TStrb: 1111  TKeep: 1111  TID: 00  TDest: 0  TUser: 0  TLast: 0  Operation# 35
%%         830.0 ns  Log    INFO    in transmitter_1,                Axi Stream Send.  TData: 0000A105  TStrb: 1111  TKeep: 1111  TID: 00  TDest: 0  TUser: 0  TLast: 0  Operation# 36
%%         840.0 ns  Log    INFO    in transmitter_1,                Axi Stream Send.  TData: 0000A106  TStrb: 1111  TKeep: 1111  TID: 00  TDest: 0  TUser: 0  TLast: 0  Operation# 37
%%         850.0 ns  Log    INFO    in transmitter_1,                Axi Stream Send.  TData: 0000A107  TStrb: 1111  TKeep: 1111  TID: 00  TDest: 0  TUser: 0  TLast: 0  Operation# 38
%%         860.0 ns  Log    INFO    in transmitter_1,                Axi Stream Send.  TData: 0000A108  TStrb: 1111  TKeep: 1111  TID: 00  TDest: 0  TUser: 0  TLast: 0  Operation# 39
%%         870.0 ns  Log    INFO    in transmitter_1,                Axi Stream Send.  TData: 0000A109  TStrb: 1111  TKeep: 1111  TID: 00  TDest: 0  TUser: 0  TLast: 0  Operation# 40
%%         930.0 ns  Log    INFO    in transmitter_1,                Axi Stream Send.  TData: 0000A200  TStrb: 1111  TKeep: 1111  TID: 00  TDest: 0  TUser: 0  TLast: 0  Operation# 41
%%         940.0 ns  Log    INFO    in transmitter_1,                Axi Stream Send.  TData: B6B01DB7  TStrb: 1111  TKeep: 1111  TID: 00  TDest: 0  TUser: 0  TLast: 0  Operation# 42
%%         950.0 ns  Log    INFO    in transmitter_1,                Axi Stream Send.  TData: ACD93B8C  TStrb: 1111  TKeep: 1111  TID: 00  TDest: 0  TUser: 0  TLast: 0  Operation# 43
%%         960.0 ns  Log    INFO    in transmitter_1,                Axi Stream Send.  TData: C8605A86  TStrb: 1111  TKeep: 1111  TID: 00  TDest: 0  TUser: 0  TLast: 0  Operation# 44
%%         970.0 ns  Log    INFO    in transmitter_1,                Axi Stream Send.  TData: 2C10B375  TStrb: 1111  TKeep: 1111  TID: 00  TDest: 0  TUser: 0  TLast: 0  Operation# 45
%%         980.0 ns  Log    INFO    in transmitter_1,                Axi Stream Send.  TData: D13FE523  TStrb: 1111  TKeep: 1111  TID: 00  TDest: 0  TUser: 0  TLast: 0  Operation# 46
%%         990.0 ns  Log    INFO    in transmitter_1,                Axi Stream Send.  TData: 0000A014  TStrb: 1111  TKeep: 1111  TID: 00  TDest: 0  TUser: 0  TLast: 0  Operation# 47
%%        1000.0 ns  Log    INFO    in transmitter_1,                Axi Stream Send.  TData: 0000A001  TStrb: 1111  TKeep: 1111  TID: 00  TDest: 0  TUser: 0  TLast: 0  Operation# 48
%%        1010.0 ns  Log    INFO    in transmitter_1,                Axi Stream Send.  TData: 0000A010  TStrb: 1111  TKeep: 1111  TID: 00  TDest: 0  TUser: 0  TLast: 0  Operation# 49
%%        1020.0 ns  Log    INFO    in transmitter_1,                Axi Stream Send.  TData: 0000A033  TStrb: 1111  TKeep: 1111  TID: 00  TDest: 0  TUser: 0  TLast: 0  Operation# 50
%%        1080.0 ns  Log    INFO    in transmitter_1,                Axi Stream Send.  TData: 0000A012  TStrb: 1111  TKeep: 1111  TID: 00  TDest: 0  TUser: 0  TLast: 0  Operation# 51
%%        1090.0 ns  Log    INFO    in transmitter_1,                Axi Stream Send.  TData: 0000A011  TStrb: 1111  TKeep: 1111  TID: 00  TDest: 0  TUser: 0  TLast: 0  Operation# 52
%%        1100.0 ns  Log    INFO    in transmitter_1,                Axi Stream Send.  TData: 0000A002  TStrb: 1111  TKeep: 1111  TID: 00  TDest: 0  TUser: 0  TLast: 0  Operation# 53
%%        1110.0 ns  Log    INFO    in transmitter_1,                Axi Stream Send.  TData: 0000A005  TStrb: 1111  TKeep: 1111  TID: 00  TDest: 0  TUser: 0  TLast: 0  Operation# 54
%%        1120.0 ns  Log    INFO    in transmitter_1,                Axi Stream Send.  TData: 0000A026  TStrb: 1111  TKeep: 1111  TID: 00  TDest: 0  TUser: 0  TLast: 0  Operation# 55
%%        1130.0 ns  Log    INFO    in transmitter_1,                Axi Stream Send.  TData: 0000A016  TStrb: 1111  TKeep: 1111  TID: 00  TDest: 0  TUser: 0  TLast: 0  Operation# 56
%%        1140.0 ns  Log    INFO    in transmitter_1,                Axi Stream Send.  TData: 0000A007  TStrb: 1111  TKeep: 1111  TID: 00  TDest: 0  TUser: 0  TLast: 0  Operation# 57
%%        1150.0 ns  Log    INFO    in transmitter_1,                Axi Stream Send.  TData: 0000A021  TStrb: 1111  TKeep: 1111  TID: 00  TDest: 0  TUser: 0  TLast: 0  Operation# 58
%%        1160.0 ns  Log    INFO    in transmitter_1,                Axi Stream Send.  TData: 0000A032  TStrb: 1111  TKeep: 1111  TID: 00  TDest: 0  TUser: 0  TLast: 0  Operation# 59
%%        1170.0 ns  Log    INFO    in transmitter_1,                Axi Stream Send.  TData: 0000A031  TStrb: 1111  TKeep: 1111  TID: 00  TDest: 0  TUser: 0  TLast: 0  Operation# 60
%%        1180.0 ns  Log    INFO    in transmitter_1,                Axi Stream Send.  TData: 0000A017  TStrb: 1111  TKeep: 1111  TID: 00  TDest: 0  TUser: 0  TLast: 0  Operation# 61
%%        1190.0 ns  Log    INFO    in transmitter_1,                Axi Stream Send.  TData: 0000A000  TStrb: 1111  TKeep: 1111  TID: 00  TDest: 0  TUser: 0  TLast: 1  Operation# 62
%%        1200.0 ns  Log    PASSED  in receiver_1: RxBurstFifo,      Received: 0000A001   Item Number: 81
%%        1200.0 ns  Log    PASSED  in receiver_1: RxBurstFifo,      Received: 0000A003   Item Number: 82
%%        1200.0 ns  Log    PASSED  in receiver_1: RxBurstFifo,      Received: 0000A005   Item Number: 83
%%        1200.0 ns  Log    PASSED  in receiver_1: RxBurstFifo,      Received: 0000A007   Item Number: 84
%%        1200.0 ns  Log    PASSED  in receiver_1: RxBurstFifo,      Received: 0000A009   Item Number: 85
%%        1200.0 ns  Log    PASSED  in receiver_1: RxBurstFifo,      Received: 0000A011   Item Number: 86
%%        1200.0 ns  Log    PASSED  in receiver_1: RxBurstFifo,      Received: 0000A013   Item Number: 87
%%        1200.0 ns  Log    PASSED  in receiver_1: RxBurstFifo,      Received: 0000A015   Item Number: 88
%%        1200.0 ns  Log    PASSED  in receiver_1: RxBurstFifo,      Received: 0000A017   Item Number: 89
%%        1200.0 ns  Log    PASSED  in receiver_1: RxBurstFifo,      Received: 0000A019   Item Number: 90
%%        1200.0 ns  Log    PASSED  in receiver_1: RxBurstFifo,      Received: 0000A100   Item Number: 91
%%        1200.0 ns  Log    PASSED  in receiver_1: RxBurstFifo,      Received: 0000A101   Item Number: 92
%%        1200.0 ns  Log    PASSED  in receiver_1: RxBurstFifo,      Received: 0000A102   Item Number: 93
%%        1200.0 ns  Log    PASSED  in receiver_1: RxBurstFifo,      Received: 0000A103   Item Number: 94
%%        1200.0 ns  Log    PASSED  in receiver_1: RxBurstFifo,      Received: 0000A104   Item Number: 95
%%        1200.0 ns  Log    PASSED  in receiver_1: RxBurstFifo,      Received: 0000A105   Item Number: 96
%%        1200.0 ns  Log    PASSED  in receiver_1: RxBurstFifo,      Received: 0000A106   Item Number: 97
%%        1200.0 ns  Log    PASSED  in receiver_1: RxBurstFifo,      Received: 0000A107   Item Number: 98
%%        1200.0 ns  Log    PASSED  in receiver_1: RxBurstFifo,      Received: 0000A108   Item Number: 99
%%        1200.0 ns  Log    PASSED  in receiver_1: RxBurstFifo,      Received: 0000A109   Item Number: 100
%%        1200.0 ns  Log    PASSED  in receiver_1: RxBurstFifo,      Received: 0000A200   Item Number: 101
%%        1200.0 ns  Log    PASSED  in receiver_1: RxBurstFifo,      Received: B6B01DB7   Item Number: 102
%%        1200.0 ns  Log    PASSED  in receiver_1: RxBurstFifo,      Received: ACD93B8C   Item Number: 103
%%        1200.0 ns  Log    PASSED  in receiver_1: RxBurstFifo,      Received: C8605A86   Item Number: 104
%%        1200.0 ns  Log    PASSED  in receiver_1: RxBurstFifo,      Received: 2C10B375   Item Number: 105
%%        1200.0 ns  Log    PASSED  in receiver_1: RxBurstFifo,      Received: D13FE523   Item Number: 106
%%        1200.0 ns  Log    PASSED  in receiver_1: RxBurstFifo,      Received: 0000A014   Item Number: 107
%%        1200.0 ns  Log    PASSED  in receiver_1: RxBurstFifo,      Received: 0000A001   Item Number: 108
%%        1200.0 ns  Log    PASSED  in receiver_1: RxBurstFifo,      Received: 0000A010   Item Number: 109
%%        1200.0 ns  Log    PASSED  in receiver_1: RxBurstFifo,      Received: 0000A033   Item Number: 110
%%        1200.0 ns  Log    PASSED  in receiver_1: RxBurstFifo,      Received: 0000A012   Item Number: 111
%%        1200.0 ns  Log    PASSED  in receiver_1: RxBurstFifo,      Received: 0000A011   Item Number: 112
%%        1200.0 ns  Log    PASSED  in receiver_1: RxBurstFifo,      Received: 0000A002   Item Number: 113
%%        1200.0 ns  Log    PASSED  in receiver_1: RxBurstFifo,      Received: 0000A005   Item Number: 114
%%        1200.0 ns  Log    PASSED  in receiver_1: RxBurstFifo,      Received: 0000A026   Item Number: 115
%%        1200.0 ns  Log    PASSED  in receiver_1: RxBurstFifo,      Received: 0000A016   Item Number: 116
%%        1200.0 ns  Log    PASSED  in receiver_1: RxBurstFifo,      Received: 0000A007   Item Number: 117
%%        1200.0 ns  Log    PASSED  in receiver_1: RxBurstFifo,      Received: 0000A021   Item Number: 118
%%        1200.0 ns  Log    PASSED  in receiver_1: RxBurstFifo,      Received: 0000A032   Item Number: 119
%%        1200.0 ns  Log    PASSED  in receiver_1: RxBurstFifo,      Received: 0000A031   Item Number: 120
%%        1200.0 ns  Log    PASSED  in receiver_1: RxBurstFifo,      Received: 0000A017   Item Number: 121
%%        1200.0 ns  Log    PASSED  in receiver_1: RxBurstFifo,      Received: 0000A000   Item Number: 122
%%        1200.0 ns  Log    INFO    in receiver_1,                   Burst Check.  Operation# 2  Last Data: 0000A000  TID: 00  TDest: 0  TUser: 0  TLast: 1
%%        1200.0 ns  Log    PASSED  in receiver_1,                   Burst Check WordCount Received : 42
%%        1200.0 ns  Log    PASSED  in receiver_1,                   ID Received : 00
%%        1200.0 ns  Log    PASSED  in receiver_1,                   DEST Received : 0
%%        1200.0 ns  Log    PASSED  in receiver_1,                   USER Received : 0
%%        1200.0 ns  Log    PASSED  in receiver_1,                   Last Received : 1
