%%   110 ns    Log    ALWAYS    in Default,                      Transmit 16 bytes.  Incrementing.  Starting with X03
%%   110 ns    Log    INFO      in transmitter_1,                Axi Stream Send.  TData: 06050403  TStrb: 1111  TKeep: 1111  TID: 01  TDest: 2  TUser: 3  TLast: 0  Operation# 1
%%   120 ns    Log    INFO      in transmitter_1,                Axi Stream Send.  TData: 0A090807  TStrb: 1111  TKeep: 1111  TID: 01  TDest: 2  TUser: 3  TLast: 0  Operation# 2
%%   130 ns    Log    INFO      in transmitter_1,                Axi Stream Send.  TData: 0E0D0C0B  TStrb: 1111  TKeep: 1111  TID: 01  TDest: 2  TUser: 3  TLast: 0  Operation# 3
%%   140 ns    Log    INFO      in transmitter_1,                Axi Stream Send.  TData: 1211100F  TStrb: 1111  TKeep: 1111  TID: 01  TDest: 2  TUser: 3  TLast: 1  Operation# 4
%%   150 ns    Log    PASSED    in receiver_1: RxBurstFifo,      Received: 03   Item Number: 1
%%   150 ns    Log    PASSED    in receiver_1: RxBurstFifo,      Received: 04   Item Number: 2
%%   150 ns    Log    PASSED    in receiver_1: RxBurstFifo,      Received: 05   Item Number: 3
%%   150 ns    Log    PASSED    in receiver_1: RxBurstFifo,      Received: 06   Item Number: 4
%%   150 ns    Log    PASSED    in receiver_1: RxBurstFifo,      Received: 07   Item Number: 5
%%   150 ns    Log    PASSED    in receiver_1: RxBurstFifo,      Received: 08   Item Number: 6
%%   150 ns    Log    PASSED    in receiver_1: RxBurstFifo,      Received: 09   Item Number: 7
%%   150 ns    Log    PASSED    in receiver_1: RxBurstFifo,      Received: 0A   Item Number: 8
%%   150 ns    Log    PASSED    in receiver_1: RxBurstFifo,      Received: 0B   Item Number: 9
%%   150 ns    Log    PASSED    in receiver_1: RxBurstFifo,      Received: 0C   Item Number: 10
%%   150 ns    Log    PASSED    in receiver_1: RxBurstFifo,      Received: 0D   Item Number: 11
%%   150 ns    Log    PASSED    in receiver_1: RxBurstFifo,      Received: 0E   Item Number: 12
%%   150 ns    Log    PASSED    in receiver_1: RxBurstFifo,      Received: 0F   Item Number: 13
%%   150 ns    Log    PASSED    in receiver_1: RxBurstFifo,      Received: 10   Item Number: 14
%%   150 ns    Log    PASSED    in receiver_1: RxBurstFifo,      Received: 11   Item Number: 15
%%   150 ns    Log    PASSED    in receiver_1: RxBurstFifo,      Received: 12   Item Number: 16
%%   150 ns    Log    INFO      in receiver_1,                   Burst Check.  Operation# 1  Last Data: 1211100F  TID: 01  TDest: 2  TUser: 3  TLast: 1
%%   150 ns    Log    PASSED    in receiver_1,                   Burst Check WordCount Received : 16
%%   150 ns    Log    PASSED    in receiver_1,                   ID Received : 01
%%   150 ns    Log    PASSED    in receiver_1,                   DEST Received : 2
%%   150 ns    Log    PASSED    in receiver_1,                   USER Received : 3
%%   150 ns    Log    PASSED    in receiver_1,                   Last Received : 1
%%   190 ns    Log    ALWAYS    in Default,                      Transmit 13 bytes.
%%   190 ns    Log    INFO      in transmitter_1,                Axi Stream Send.  TData: 07050301  TStrb: 1111  TKeep: 1111  TID: 02  TDest: 3  TUser: 4  TLast: 0  Operation# 5
%%   200 ns    Log    INFO      in transmitter_1,                Axi Stream Send.  TData: 0F0D0B09  TStrb: 1111  TKeep: 1111  TID: 02  TDest: 3  TUser: 4  TLast: 0  Operation# 6
%%   210 ns    Log    INFO      in transmitter_1,                Axi Stream Send.  TData: 17151311  TStrb: 1111  TKeep: 1111  TID: 02  TDest: 3  TUser: 4  TLast: 0  Operation# 7
%%   220 ns    Log    INFO      in transmitter_1,                Axi Stream Send.  TData: XXXXXX19  TStrb: 0001  TKeep: 0001  TID: 02  TDest: 3  TUser: 4  TLast: 1  Operation# 8
%%   230 ns    Log    PASSED    in receiver_1: RxBurstFifo,      Received: 01   Item Number: 17
%%   230 ns    Log    PASSED    in receiver_1: RxBurstFifo,      Received: 03   Item Number: 18
%%   230 ns    Log    PASSED    in receiver_1: RxBurstFifo,      Received: 05   Item Number: 19
%%   230 ns    Log    PASSED    in receiver_1: RxBurstFifo,      Received: 07   Item Number: 20
%%   230 ns    Log    PASSED    in receiver_1: RxBurstFifo,      Received: 09   Item Number: 21
%%   230 ns    Log    PASSED    in receiver_1: RxBurstFifo,      Received: 0B   Item Number: 22
%%   230 ns    Log    PASSED    in receiver_1: RxBurstFifo,      Received: 0D   Item Number: 23
%%   230 ns    Log    PASSED    in receiver_1: RxBurstFifo,      Received: 0F   Item Number: 24
%%   230 ns    Log    PASSED    in receiver_1: RxBurstFifo,      Received: 11   Item Number: 25
%%   230 ns    Log    PASSED    in receiver_1: RxBurstFifo,      Received: 13   Item Number: 26
%%   230 ns    Log    PASSED    in receiver_1: RxBurstFifo,      Received: 15   Item Number: 27
%%   230 ns    Log    PASSED    in receiver_1: RxBurstFifo,      Received: 17   Item Number: 28
%%   230 ns    Log    PASSED    in receiver_1: RxBurstFifo,      Received: 19   Item Number: 29
%%   230 ns    Log    INFO      in receiver_1,                   Burst Check.  Operation# 2  Last Data: ------19  TID: 02  TDest: 3  TUser: 4  TLast: 1
%%   230 ns    Log    PASSED    in receiver_1,                   Burst Check WordCount Received : 13
%%   230 ns    Log    PASSED    in receiver_1,                   ID Received : 02
%%   230 ns    Log    PASSED    in receiver_1,                   DEST Received : 3
%%   230 ns    Log    PASSED    in receiver_1,                   USER Received : 4
%%   230 ns    Log    PASSED    in receiver_1,                   Last Received : 1
%%   270 ns    Log    ALWAYS    in Default,                      Transmit 15 Bytes.  Random.  Starting with X01
%%   270 ns    Log    INFO      in transmitter_1,                Axi Stream Send.  TData: 1F424101  TStrb: 1111  TKeep: 1111  TID: 03  TDest: 4  TUser: 5  TLast: 0  Operation# 9
%%   280 ns    Log    INFO      in transmitter_1,                Axi Stream Send.  TData: 56970526  TStrb: 1111  TKeep: 1111  TID: 03  TDest: 4  TUser: 5  TLast: 0  Operation# 10
%%   290 ns    Log    INFO      in transmitter_1,                Axi Stream Send.  TData: 363EEC0D  TStrb: 1111  TKeep: 1111  TID: 03  TDest: 4  TUser: 5  TLast: 0  Operation# 11
%%   300 ns    Log    INFO      in transmitter_1,                Axi Stream Send.  TData: XXA06A0F  TStrb: 0111  TKeep: 0111  TID: 03  TDest: 4  TUser: 5  TLast: 1  Operation# 12
%%   310 ns    Log    PASSED    in receiver_1: RxBurstFifo,      Received: 01   Item Number: 30
%%   310 ns    Log    PASSED    in receiver_1: RxBurstFifo,      Received: 41   Item Number: 31
%%   310 ns    Log    PASSED    in receiver_1: RxBurstFifo,      Received: 42   Item Number: 32
%%   310 ns    Log    PASSED    in receiver_1: RxBurstFifo,      Received: 1F   Item Number: 33
%%   310 ns    Log    PASSED    in receiver_1: RxBurstFifo,      Received: 26   Item Number: 34
%%   310 ns    Log    PASSED    in receiver_1: RxBurstFifo,      Received: 05   Item Number: 35
%%   310 ns    Log    PASSED    in receiver_1: RxBurstFifo,      Received: 97   Item Number: 36
%%   310 ns    Log    PASSED    in receiver_1: RxBurstFifo,      Received: 56   Item Number: 37
%%   310 ns    Log    PASSED    in receiver_1: RxBurstFifo,      Received: 0D   Item Number: 38
%%   310 ns    Log    PASSED    in receiver_1: RxBurstFifo,      Received: EC   Item Number: 39
%%   310 ns    Log    PASSED    in receiver_1: RxBurstFifo,      Received: 3E   Item Number: 40
%%   310 ns    Log    PASSED    in receiver_1: RxBurstFifo,      Received: 36   Item Number: 41
%%   310 ns    Log    PASSED    in receiver_1: RxBurstFifo,      Received: 0F   Item Number: 42
%%   310 ns    Log    PASSED    in receiver_1: RxBurstFifo,      Received: 6A   Item Number: 43
%%   310 ns    Log    PASSED    in receiver_1: RxBurstFifo,      Received: A0   Item Number: 44
%%   310 ns    Log    INFO      in receiver_1,                   Burst Check.  Operation# 3  Last Data: --A06A0F  TID: 03  TDest: 4  TUser: 5  TLast: 1
%%   310 ns    Log    PASSED    in receiver_1,                   Burst Check WordCount Received : 15
%%   310 ns    Log    PASSED    in receiver_1,                   ID Received : 03
%%   310 ns    Log    PASSED    in receiver_1,                   DEST Received : 4
%%   310 ns    Log    PASSED    in receiver_1,                   USER Received : 5
%%   310 ns    Log    PASSED    in receiver_1,                   Last Received : 1
%%   310 ns    Log    ALWAYS    in Default,                      Transmit 1 Bytes. Starting with 0
%%   310 ns    Log    INFO      in transmitter_1,                Axi Stream Send.  TData: XXXXXX00  TStrb: 0001  TKeep: 0001  TID: 08  TDest: 9  TUser: A  TLast: 1  Operation# 13
%%   320 ns    Log    PASSED    in receiver_1: RxBurstFifo,      Received: 00   Item Number: 45
%%   320 ns    Log    INFO      in receiver_1,                   Burst Check.  Operation# 4  Last Data: ------00  TID: 08  TDest: 9  TUser: A  TLast: 1
%%   320 ns    Log    PASSED    in receiver_1,                   Burst Check WordCount Received : 1
%%   320 ns    Log    PASSED    in receiver_1,                   ID Received : 08
%%   320 ns    Log    PASSED    in receiver_1,                   DEST Received : 9
%%   320 ns    Log    PASSED    in receiver_1,                   USER Received : A
%%   320 ns    Log    PASSED    in receiver_1,                   Last Received : 1
%%   320 ns    Log    ALWAYS    in Default,                      Transmit 2 Bytes. Starting with 32
%%   320 ns    Log    INFO      in transmitter_1,                Axi Stream Send.  TData: XXXX2120  TStrb: 0011  TKeep: 0011  TID: 08  TDest: 9  TUser: A  TLast: 1  Operation# 14
%%   330 ns    Log    PASSED    in receiver_1: RxBurstFifo,      Received: 20   Item Number: 46
%%   330 ns    Log    PASSED    in receiver_1: RxBurstFifo,      Received: 21   Item Number: 47
%%   330 ns    Log    INFO      in receiver_1,                   Burst Check.  Operation# 5  Last Data: ----2120  TID: 08  TDest: 9  TUser: A  TLast: 1
%%   330 ns    Log    PASSED    in receiver_1,                   Burst Check WordCount Received : 2
%%   330 ns    Log    PASSED    in receiver_1,                   ID Received : 08
%%   330 ns    Log    PASSED    in receiver_1,                   DEST Received : 9
%%   330 ns    Log    PASSED    in receiver_1,                   USER Received : A
%%   330 ns    Log    PASSED    in receiver_1,                   Last Received : 1
%%   330 ns    Log    ALWAYS    in Default,                      Transmit 3 Bytes. Starting with 64
%%   330 ns    Log    INFO      in transmitter_1,                Axi Stream Send.  TData: XX424140  TStrb: 0111  TKeep: 0111  TID: 09  TDest: A  TUser: B  TLast: 1  Operation# 15
%%   340 ns    Log    PASSED    in receiver_1: RxBurstFifo,      Received: 40   Item Number: 48
%%   340 ns    Log    PASSED    in receiver_1: RxBurstFifo,      Received: 41   Item Number: 49
%%   340 ns    Log    PASSED    in receiver_1: RxBurstFifo,      Received: 42   Item Number: 50
%%   340 ns    Log    INFO      in receiver_1,                   Burst Check.  Operation# 6  Last Data: --424140  TID: 09  TDest: A  TUser: B  TLast: 1
%%   340 ns    Log    PASSED    in receiver_1,                   Burst Check WordCount Received : 3
%%   340 ns    Log    PASSED    in receiver_1,                   ID Received : 09
%%   340 ns    Log    PASSED    in receiver_1,                   DEST Received : A
%%   340 ns    Log    PASSED    in receiver_1,                   USER Received : B
%%   340 ns    Log    PASSED    in receiver_1,                   Last Received : 1
%%   340 ns    Log    ALWAYS    in Default,                      Transmit 4 Bytes. Starting with 96
%%   340 ns    Log    INFO      in transmitter_1,                Axi Stream Send.  TData: 63626160  TStrb: 1111  TKeep: 1111  TID: 09  TDest: A  TUser: B  TLast: 1  Operation# 16
%%   350 ns    Log    PASSED    in receiver_1: RxBurstFifo,      Received: 60   Item Number: 51
%%   350 ns    Log    PASSED    in receiver_1: RxBurstFifo,      Received: 61   Item Number: 52
%%   350 ns    Log    PASSED    in receiver_1: RxBurstFifo,      Received: 62   Item Number: 53
%%   350 ns    Log    PASSED    in receiver_1: RxBurstFifo,      Received: 63   Item Number: 54
%%   350 ns    Log    INFO      in receiver_1,                   Burst Check.  Operation# 7  Last Data: 63626160  TID: 09  TDest: A  TUser: B  TLast: 1
%%   350 ns    Log    PASSED    in receiver_1,                   Burst Check WordCount Received : 4
%%   350 ns    Log    PASSED    in receiver_1,                   ID Received : 09
%%   350 ns    Log    PASSED    in receiver_1,                   DEST Received : A
%%   350 ns    Log    PASSED    in receiver_1,                   USER Received : B
%%   350 ns    Log    PASSED    in receiver_1,                   Last Received : 1
%%   350 ns    Log    ALWAYS    in Default,                      Transmit 5 Bytes. Starting with 128
%%   350 ns    Log    INFO      in transmitter_1,                Axi Stream Send.  TData: 83828180  TStrb: 1111  TKeep: 1111  TID: 0A  TDest: B  TUser: C  TLast: 0  Operation# 17
%%   360 ns    Log    INFO      in transmitter_1,                Axi Stream Send.  TData: XXXXXX84  TStrb: 0001  TKeep: 0001  TID: 0A  TDest: B  TUser: C  TLast: 1  Operation# 18
%%   370 ns    Log    PASSED    in receiver_1: RxBurstFifo,      Received: 80   Item Number: 55
%%   370 ns    Log    PASSED    in receiver_1: RxBurstFifo,      Received: 81   Item Number: 56
%%   370 ns    Log    PASSED    in receiver_1: RxBurstFifo,      Received: 82   Item Number: 57
%%   370 ns    Log    PASSED    in receiver_1: RxBurstFifo,      Received: 83   Item Number: 58
%%   370 ns    Log    PASSED    in receiver_1: RxBurstFifo,      Received: 84   Item Number: 59
%%   370 ns    Log    INFO      in receiver_1,                   Burst Check.  Operation# 8  Last Data: ------84  TID: 0A  TDest: B  TUser: C  TLast: 1
%%   370 ns    Log    PASSED    in receiver_1,                   Burst Check WordCount Received : 5
%%   370 ns    Log    PASSED    in receiver_1,                   ID Received : 0A
%%   370 ns    Log    PASSED    in receiver_1,                   DEST Received : B
%%   370 ns    Log    PASSED    in receiver_1,                   USER Received : C
%%   370 ns    Log    PASSED    in receiver_1,                   Last Received : 1
%%   370 ns    Log    ALWAYS    in Default,                      Transmit 6 Bytes. Starting with 160
%%   370 ns    Log    INFO      in transmitter_1,                Axi Stream Send.  TData: A3A2A1A0  TStrb: 1111  TKeep: 1111  TID: 0A  TDest: B  TUser: C  TLast: 0  Operation# 19
%%   380 ns    Log    INFO      in transmitter_1,                Axi Stream Send.  TData: XXXXA5A4  TStrb: 0011  TKeep: 0011  TID: 0A  TDest: B  TUser: C  TLast: 1  Operation# 20
%%   390 ns    Log    PASSED    in receiver_1: RxBurstFifo,      Received: A0   Item Number: 60
%%   390 ns    Log    PASSED    in receiver_1: RxBurstFifo,      Received: A1   Item Number: 61
%%   390 ns    Log    PASSED    in receiver_1: RxBurstFifo,      Received: A2   Item Number: 62
%%   390 ns    Log    PASSED    in receiver_1: RxBurstFifo,      Received: A3   Item Number: 63
%%   390 ns    Log    PASSED    in receiver_1: RxBurstFifo,      Received: A4   Item Number: 64
%%   390 ns    Log    PASSED    in receiver_1: RxBurstFifo,      Received: A5   Item Number: 65
%%   390 ns    Log    INFO      in receiver_1,                   Burst Check.  Operation# 9  Last Data: ----A5A4  TID: 0A  TDest: B  TUser: C  TLast: 1
%%   390 ns    Log    PASSED    in receiver_1,                   Burst Check WordCount Received : 6
%%   390 ns    Log    PASSED    in receiver_1,                   ID Received : 0A
%%   390 ns    Log    PASSED    in receiver_1,                   DEST Received : B
%%   390 ns    Log    PASSED    in receiver_1,                   USER Received : C
%%   390 ns    Log    PASSED    in receiver_1,                   Last Received : 1
%%   390 ns    Log    ALWAYS    in Default,                      Transmit 7 Bytes. Starting with 192
%%   390 ns    Log    INFO      in transmitter_1,                Axi Stream Send.  TData: C3C2C1C0  TStrb: 1111  TKeep: 1111  TID: 0B  TDest: C  TUser: D  TLast: 0  Operation# 21
%%   400 ns    Log    INFO      in transmitter_1,                Axi Stream Send.  TData: XXC6C5C4  TStrb: 0111  TKeep: 0111  TID: 0B  TDest: C  TUser: D  TLast: 1  Operation# 22
%%   410 ns    Log    PASSED    in receiver_1: RxBurstFifo,      Received: C0   Item Number: 66
%%   410 ns    Log    PASSED    in receiver_1: RxBurstFifo,      Received: C1   Item Number: 67
%%   410 ns    Log    PASSED    in receiver_1: RxBurstFifo,      Received: C2   Item Number: 68
%%   410 ns    Log    PASSED    in receiver_1: RxBurstFifo,      Received: C3   Item Number: 69
%%   410 ns    Log    PASSED    in receiver_1: RxBurstFifo,      Received: C4   Item Number: 70
%%   410 ns    Log    PASSED    in receiver_1: RxBurstFifo,      Received: C5   Item Number: 71
%%   410 ns    Log    PASSED    in receiver_1: RxBurstFifo,      Received: C6   Item Number: 72
%%   410 ns    Log    INFO      in receiver_1,                   Burst Check.  Operation# 10  Last Data: --C6C5C4  TID: 0B  TDest: C  TUser: D  TLast: 1
%%   410 ns    Log    PASSED    in receiver_1,                   Burst Check WordCount Received : 7
%%   410 ns    Log    PASSED    in receiver_1,                   ID Received : 0B
%%   410 ns    Log    PASSED    in receiver_1,                   DEST Received : C
%%   410 ns    Log    PASSED    in receiver_1,                   USER Received : D
%%   410 ns    Log    PASSED    in receiver_1,                   Last Received : 1
