%%   110 ns    Log    ALWAYS    in Default,                      Transmit 256 words
%%   130 ns    Log    INFO      in transmitter_1,                Axi Stream Send.  TData: 00010001  TStrb: 1111  TKeep: 1111  TID: 00  TDest: 0  TUser: 0  TLast: 0  Operation# 1
%%   140 ns    Log    PASSED    in receiver_1: Data Check,       Operation# 1  Received.  Data: 00010001  TID: 00  TDest: 0  TUser: 0  TLast: 0
%%   160 ns    Log    INFO      in transmitter_1,                Axi Stream Send.  TData: 00010002  TStrb: 1111  TKeep: 1111  TID: 00  TDest: 0  TUser: 0  TLast: 0  Operation# 2
%%   210 ns    Log    PASSED    in receiver_1: Data Check,       Operation# 2  Received.  Data: 00010002  TID: 00  TDest: 0  TUser: 0  TLast: 0
%%   210 ns    Log    INFO      in transmitter_1,                Axi Stream Send.  TData: 00010003  TStrb: 1111  TKeep: 1111  TID: 00  TDest: 0  TUser: 0  TLast: 0  Operation# 3
%%   220 ns    Log    PASSED    in receiver_1: Data Check,       Operation# 3  Received.  Data: 00010003  TID: 00  TDest: 0  TUser: 0  TLast: 0
%%   220 ns    Log    INFO      in transmitter_1,                Axi Stream Send.  TData: 00010004  TStrb: 1111  TKeep: 1111  TID: 00  TDest: 0  TUser: 0  TLast: 0  Operation# 4
%%   230 ns    Log    PASSED    in receiver_1: Data Check,       Operation# 4  Received.  Data: 00010004  TID: 00  TDest: 0  TUser: 0  TLast: 0
%%   230 ns    Log    INFO      in transmitter_1,                Axi Stream Send.  TData: 00010005  TStrb: 1111  TKeep: 1111  TID: 00  TDest: 0  TUser: 0  TLast: 0  Operation# 5
%%   240 ns    Log    PASSED    in receiver_1: Data Check,       Operation# 5  Received.  Data: 00010005  TID: 00  TDest: 0  TUser: 0  TLast: 0
%%   240 ns    Log    INFO      in transmitter_1,                Axi Stream Send.  TData: 00010006  TStrb: 1111  TKeep: 1111  TID: 00  TDest: 0  TUser: 0  TLast: 0  Operation# 6
%%   250 ns    Log    PASSED    in receiver_1: Data Check,       Operation# 6  Received.  Data: 00010006  TID: 00  TDest: 0  TUser: 0  TLast: 0
%%   300 ns    Log    INFO      in transmitter_1,                Axi Stream Send.  TData: 00010007  TStrb: 1111  TKeep: 1111  TID: 00  TDest: 0  TUser: 0  TLast: 0  Operation# 7
%%   310 ns    Log    PASSED    in receiver_1: Data Check,       Operation# 7  Received.  Data: 00010007  TID: 00  TDest: 0  TUser: 0  TLast: 0
%%   310 ns    Log    INFO      in transmitter_1,                Axi Stream Send.  TData: 00010008  TStrb: 1111  TKeep: 1111  TID: 00  TDest: 0  TUser: 0  TLast: 0  Operation# 8
%%   320 ns    Log    PASSED    in receiver_1: Data Check,       Operation# 8  Received.  Data: 00010008  TID: 00  TDest: 0  TUser: 0  TLast: 0
%%   320 ns    Log    INFO      in transmitter_1,                Axi Stream Send.  TData: 00010009  TStrb: 1111  TKeep: 1111  TID: 00  TDest: 0  TUser: 0  TLast: 0  Operation# 9
%%  1540 ns    Log    PASSED    in receiver_1: Data Check,       Operation# 9  Received.  Data: 00010009  TID: 00  TDest: 0  TUser: 0  TLast: 0
%%  1540 ns    Log    INFO      in transmitter_1,                Axi Stream Send.  TData: 0001000A  TStrb: 1111  TKeep: 1111  TID: 00  TDest: 0  TUser: 0  TLast: 0  Operation# 10
%%  1550 ns    Log    PASSED    in receiver_1: Data Check,       Operation# 10  Received.  Data: 0001000A  TID: 00  TDest: 0  TUser: 0  TLast: 0
%%  1550 ns    Log    INFO      in transmitter_1,                Axi Stream Send.  TData: 0001000B  TStrb: 1111  TKeep: 1111  TID: 00  TDest: 0  TUser: 0  TLast: 0  Operation# 11
%%  1560 ns    Log    PASSED    in receiver_1: Data Check,       Operation# 11  Received.  Data: 0001000B  TID: 00  TDest: 0  TUser: 0  TLast: 0
%%  1560 ns    Log    INFO      in transmitter_1,                Axi Stream Send.  TData: 0001000C  TStrb: 1111  TKeep: 1111  TID: 00  TDest: 0  TUser: 0  TLast: 0  Operation# 12
%%  1570 ns    Log    PASSED    in receiver_1: Data Check,       Operation# 12  Received.  Data: 0001000C  TID: 00  TDest: 0  TUser: 0  TLast: 0
%%  1570 ns    Log    INFO      in transmitter_1,                Axi Stream Send.  TData: 0001000D  TStrb: 1111  TKeep: 1111  TID: 00  TDest: 0  TUser: 0  TLast: 0  Operation# 13
%%  1660 ns    Log    PASSED    in receiver_1: Data Check,       Operation# 13  Received.  Data: 0001000D  TID: 00  TDest: 0  TUser: 0  TLast: 0
%%  1670 ns    Log    INFO      in transmitter_1,                Axi Stream Send.  TData: 0001000E  TStrb: 1111  TKeep: 1111  TID: 00  TDest: 0  TUser: 0  TLast: 0  Operation# 14
%%  1680 ns    Log    PASSED    in receiver_1: Data Check,       Operation# 14  Received.  Data: 0001000E  TID: 00  TDest: 0  TUser: 0  TLast: 0
%%  1710 ns    Log    INFO      in transmitter_1,                Axi Stream Send.  TData: 0001000F  TStrb: 1111  TKeep: 1111  TID: 00  TDest: 0  TUser: 0  TLast: 0  Operation# 15
%%  1720 ns    Log    PASSED    in receiver_1: Data Check,       Operation# 15  Received.  Data: 0001000F  TID: 00  TDest: 0  TUser: 0  TLast: 0
%%  1720 ns    Log    INFO      in transmitter_1,                Axi Stream Send.  TData: 00010010  TStrb: 1111  TKeep: 1111  TID: 00  TDest: 0  TUser: 0  TLast: 0  Operation# 16
%%  1730 ns    Log    PASSED    in receiver_1: Data Check,       Operation# 16  Received.  Data: 00010010  TID: 00  TDest: 0  TUser: 0  TLast: 0
%%  1730 ns    Log    INFO      in transmitter_1,                Axi Stream Send.  TData: 00010011  TStrb: 1111  TKeep: 1111  TID: 00  TDest: 0  TUser: 0  TLast: 0  Operation# 17
%%  1740 ns    Log    PASSED    in receiver_1: Data Check,       Operation# 17  Received.  Data: 00010011  TID: 00  TDest: 0  TUser: 0  TLast: 0
%%  1740 ns    Log    INFO      in transmitter_1,                Axi Stream Send.  TData: 00010012  TStrb: 1111  TKeep: 1111  TID: 00  TDest: 0  TUser: 0  TLast: 0  Operation# 18
%%  1750 ns    Log    PASSED    in receiver_1: Data Check,       Operation# 18  Received.  Data: 00010012  TID: 00  TDest: 0  TUser: 0  TLast: 0
%%  1750 ns    Log    INFO      in transmitter_1,                Axi Stream Send.  TData: 00010013  TStrb: 1111  TKeep: 1111  TID: 00  TDest: 0  TUser: 0  TLast: 0  Operation# 19
%%  3070 ns    Log    PASSED    in receiver_1: Data Check,       Operation# 19  Received.  Data: 00010013  TID: 00  TDest: 0  TUser: 0  TLast: 0
%%  3070 ns    Log    INFO      in transmitter_1,                Axi Stream Send.  TData: 00010014  TStrb: 1111  TKeep: 1111  TID: 00  TDest: 0  TUser: 0  TLast: 0  Operation# 20
%%  3100 ns    Log    PASSED    in receiver_1: Data Check,       Operation# 20  Received.  Data: 00010014  TID: 00  TDest: 0  TUser: 0  TLast: 0
%%  3100 ns    Log    INFO      in transmitter_1,                Axi Stream Send.  TData: 00010015  TStrb: 1111  TKeep: 1111  TID: 00  TDest: 0  TUser: 0  TLast: 0  Operation# 21
%%  3110 ns    Log    PASSED    in receiver_1: Data Check,       Operation# 21  Received.  Data: 00010015  TID: 00  TDest: 0  TUser: 0  TLast: 0
%%  3110 ns    Log    INFO      in transmitter_1,                Axi Stream Send.  TData: 00010016  TStrb: 1111  TKeep: 1111  TID: 00  TDest: 0  TUser: 0  TLast: 0  Operation# 22
%%  3120 ns    Log    PASSED    in receiver_1: Data Check,       Operation# 22  Received.  Data: 00010016  TID: 00  TDest: 0  TUser: 0  TLast: 0
%%  3120 ns    Log    INFO      in transmitter_1,                Axi Stream Send.  TData: 00010017  TStrb: 1111  TKeep: 1111  TID: 00  TDest: 0  TUser: 0  TLast: 0  Operation# 23
%%  3130 ns    Log    PASSED    in receiver_1: Data Check,       Operation# 23  Received.  Data: 00010017  TID: 00  TDest: 0  TUser: 0  TLast: 0
%%  3190 ns    Log    INFO      in transmitter_1,                Axi Stream Send.  TData: 00010018  TStrb: 1111  TKeep: 1111  TID: 00  TDest: 0  TUser: 0  TLast: 0  Operation# 24
%%  3200 ns    Log    PASSED    in receiver_1: Data Check,       Operation# 24  Received.  Data: 00010018  TID: 00  TDest: 0  TUser: 0  TLast: 0
%%  3210 ns    Log    INFO      in transmitter_1,                Axi Stream Send.  TData: 00010019  TStrb: 1111  TKeep: 1111  TID: 00  TDest: 0  TUser: 0  TLast: 0  Operation# 25
%%  3220 ns    Log    PASSED    in receiver_1: Data Check,       Operation# 25  Received.  Data: 00010019  TID: 00  TDest: 0  TUser: 0  TLast: 0
%%  3220 ns    Log    INFO      in transmitter_1,                Axi Stream Send.  TData: 0001001A  TStrb: 1111  TKeep: 1111  TID: 00  TDest: 0  TUser: 0  TLast: 0  Operation# 26
%%  3230 ns    Log    PASSED    in receiver_1: Data Check,       Operation# 26  Received.  Data: 0001001A  TID: 00  TDest: 0  TUser: 0  TLast: 0
%%  3250 ns    Log    INFO      in transmitter_1,                Axi Stream Send.  TData: 0001001B  TStrb: 1111  TKeep: 1111  TID: 00  TDest: 0  TUser: 0  TLast: 0  Operation# 27
%%  3260 ns    Log    PASSED    in receiver_1: Data Check,       Operation# 27  Received.  Data: 0001001B  TID: 00  TDest: 0  TUser: 0  TLast: 0
%%  3260 ns    Log    INFO      in transmitter_1,                Axi Stream Send.  TData: 0001001C  TStrb: 1111  TKeep: 1111  TID: 00  TDest: 0  TUser: 0  TLast: 0  Operation# 28
%%  3270 ns    Log    PASSED    in receiver_1: Data Check,       Operation# 28  Received.  Data: 0001001C  TID: 00  TDest: 0  TUser: 0  TLast: 0
%%  3270 ns    Log    INFO      in transmitter_1,                Axi Stream Send.  TData: 0001001D  TStrb: 1111  TKeep: 1111  TID: 00  TDest: 0  TUser: 0  TLast: 0  Operation# 29
%%  3280 ns    Log    PASSED    in receiver_1: Data Check,       Operation# 29  Received.  Data: 0001001D  TID: 00  TDest: 0  TUser: 0  TLast: 0
%%  3290 ns    Log    INFO      in transmitter_1,                Axi Stream Send.  TData: 0001001E  TStrb: 1111  TKeep: 1111  TID: 00  TDest: 0  TUser: 0  TLast: 0  Operation# 30
%%  4750 ns    Log    PASSED    in receiver_1: Data Check,       Operation# 30  Received.  Data: 0001001E  TID: 00  TDest: 0  TUser: 0  TLast: 0
%%  4750 ns    Log    INFO      in transmitter_1,                Axi Stream Send.  TData: 0001001F  TStrb: 1111  TKeep: 1111  TID: 00  TDest: 0  TUser: 0  TLast: 0  Operation# 31
%%  4760 ns    Log    PASSED    in receiver_1: Data Check,       Operation# 31  Received.  Data: 0001001F  TID: 00  TDest: 0  TUser: 0  TLast: 0
%%  4830 ns    Log    INFO      in transmitter_1,                Axi Stream Send.  TData: 00010020  TStrb: 1111  TKeep: 1111  TID: 00  TDest: 0  TUser: 0  TLast: 0  Operation# 32
%%  4840 ns    Log    PASSED    in receiver_1: Data Check,       Operation# 32  Received.  Data: 00010020  TID: 00  TDest: 0  TUser: 0  TLast: 0
%%  4840 ns    Log    INFO      in transmitter_1,                Axi Stream Send.  TData: 00010021  TStrb: 1111  TKeep: 1111  TID: 00  TDest: 0  TUser: 0  TLast: 0  Operation# 33
%%  4850 ns    Log    PASSED    in receiver_1: Data Check,       Operation# 33  Received.  Data: 00010021  TID: 00  TDest: 0  TUser: 0  TLast: 0
%%  4860 ns    Log    INFO      in transmitter_1,                Axi Stream Send.  TData: 00010022  TStrb: 1111  TKeep: 1111  TID: 00  TDest: 0  TUser: 0  TLast: 0  Operation# 34
%%  4870 ns    Log    PASSED    in receiver_1: Data Check,       Operation# 34  Received.  Data: 00010022  TID: 00  TDest: 0  TUser: 0  TLast: 0
%%  4870 ns    Log    INFO      in transmitter_1,                Axi Stream Send.  TData: 00010023  TStrb: 1111  TKeep: 1111  TID: 00  TDest: 0  TUser: 0  TLast: 0  Operation# 35
%%  4880 ns    Log    PASSED    in receiver_1: Data Check,       Operation# 35  Received.  Data: 00010023  TID: 00  TDest: 0  TUser: 0  TLast: 0
%%  4880 ns    Log    INFO      in transmitter_1,                Axi Stream Send.  TData: 00010024  TStrb: 1111  TKeep: 1111  TID: 00  TDest: 0  TUser: 0  TLast: 0  Operation# 36
%%  4910 ns    Log    PASSED    in receiver_1: Data Check,       Operation# 36  Received.  Data: 00010024  TID: 00  TDest: 0  TUser: 0  TLast: 0
%%  4920 ns    Log    INFO      in transmitter_1,                Axi Stream Send.  TData: 00010025  TStrb: 1111  TKeep: 1111  TID: 00  TDest: 0  TUser: 0  TLast: 0  Operation# 37
%%  4930 ns    Log    PASSED    in receiver_1: Data Check,       Operation# 37  Received.  Data: 00010025  TID: 00  TDest: 0  TUser: 0  TLast: 0
%%  4930 ns    Log    INFO      in transmitter_1,                Axi Stream Send.  TData: 00010026  TStrb: 1111  TKeep: 1111  TID: 00  TDest: 0  TUser: 0  TLast: 0  Operation# 38
%%  4940 ns    Log    PASSED    in receiver_1: Data Check,       Operation# 38  Received.  Data: 00010026  TID: 00  TDest: 0  TUser: 0  TLast: 0
%%  4940 ns    Log    INFO      in transmitter_1,                Axi Stream Send.  TData: 00010027  TStrb: 1111  TKeep: 1111  TID: 00  TDest: 0  TUser: 0  TLast: 0  Operation# 39
%%  4950 ns    Log    PASSED    in receiver_1: Data Check,       Operation# 39  Received.  Data: 00010027  TID: 00  TDest: 0  TUser: 0  TLast: 0
%%  4950 ns    Log    INFO      in transmitter_1,                Axi Stream Send.  TData: 00010028  TStrb: 1111  TKeep: 1111  TID: 00  TDest: 0  TUser: 0  TLast: 0  Operation# 40
%%  4960 ns    Log    PASSED    in receiver_1: Data Check,       Operation# 40  Received.  Data: 00010028  TID: 00  TDest: 0  TUser: 0  TLast: 0
%%  4960 ns    Log    INFO      in transmitter_1,                Axi Stream Send.  TData: 00010029  TStrb: 1111  TKeep: 1111  TID: 00  TDest: 0  TUser: 0  TLast: 0  Operation# 41
%%  4980 ns    Log    PASSED    in receiver_1: Data Check,       Operation# 41  Received.  Data: 00010029  TID: 00  TDest: 0  TUser: 0  TLast: 0
%%  4980 ns    Log    INFO      in transmitter_1,                Axi Stream Send.  TData: 0001002A  TStrb: 1111  TKeep: 1111  TID: 00  TDest: 0  TUser: 0  TLast: 0  Operation# 42
%%  4990 ns    Log    PASSED    in receiver_1: Data Check,       Operation# 42  Received.  Data: 0001002A  TID: 00  TDest: 0  TUser: 0  TLast: 0
%%  4990 ns    Log    INFO      in transmitter_1,                Axi Stream Send.  TData: 0001002B  TStrb: 1111  TKeep: 1111  TID: 00  TDest: 0  TUser: 0  TLast: 0  Operation# 43
%%  5000 ns    Log    PASSED    in receiver_1: Data Check,       Operation# 43  Received.  Data: 0001002B  TID: 00  TDest: 0  TUser: 0  TLast: 0
%%  5000 ns    Log    INFO      in transmitter_1,                Axi Stream Send.  TData: 0001002C  TStrb: 1111  TKeep: 1111  TID: 00  TDest: 0  TUser: 0  TLast: 0  Operation# 44
%%  5010 ns    Log    PASSED    in receiver_1: Data Check,       Operation# 44  Received.  Data: 0001002C  TID: 00  TDest: 0  TUser: 0  TLast: 0
%%  5010 ns    Log    INFO      in transmitter_1,                Axi Stream Send.  TData: 0001002D  TStrb: 1111  TKeep: 1111  TID: 00  TDest: 0  TUser: 0  TLast: 0  Operation# 45
%%  5020 ns    Log    PASSED    in receiver_1: Data Check,       Operation# 45  Received.  Data: 0001002D  TID: 00  TDest: 0  TUser: 0  TLast: 0
%%  5020 ns    Log    INFO      in transmitter_1,                Axi Stream Send.  TData: 0001002E  TStrb: 1111  TKeep: 1111  TID: 00  TDest: 0  TUser: 0  TLast: 0  Operation# 46
%%  5050 ns    Log    PASSED    in receiver_1: Data Check,       Operation# 46  Received.  Data: 0001002E  TID: 00  TDest: 0  TUser: 0  TLast: 0
%%  5050 ns    Log    INFO      in transmitter_1,                Axi Stream Send.  TData: 0001002F  TStrb: 1111  TKeep: 1111  TID: 00  TDest: 0  TUser: 0  TLast: 0  Operation# 47
%%  5060 ns    Log    PASSED    in receiver_1: Data Check,       Operation# 47  Received.  Data: 0001002F  TID: 00  TDest: 0  TUser: 0  TLast: 0
%%  5060 ns    Log    INFO      in transmitter_1,                Axi Stream Send.  TData: 00010030  TStrb: 1111  TKeep: 1111  TID: 00  TDest: 0  TUser: 0  TLast: 0  Operation# 48
%%  5070 ns    Log    PASSED    in receiver_1: Data Check,       Operation# 48  Received.  Data: 00010030  TID: 00  TDest: 0  TUser: 0  TLast: 0
%%  5070 ns    Log    INFO      in transmitter_1,                Axi Stream Send.  TData: 00010031  TStrb: 1111  TKeep: 1111  TID: 00  TDest: 0  TUser: 0  TLast: 0  Operation# 49
%%  5090 ns    Log    PASSED    in receiver_1: Data Check,       Operation# 49  Received.  Data: 00010031  TID: 00  TDest: 0  TUser: 0  TLast: 0
%%  5090 ns    Log    INFO      in transmitter_1,                Axi Stream Send.  TData: 00010032  TStrb: 1111  TKeep: 1111  TID: 00  TDest: 0  TUser: 0  TLast: 0  Operation# 50
%%  5100 ns    Log    PASSED    in receiver_1: Data Check,       Operation# 50  Received.  Data: 00010032  TID: 00  TDest: 0  TUser: 0  TLast: 0
%%  5100 ns    Log    INFO      in transmitter_1,                Axi Stream Send.  TData: 00010033  TStrb: 1111  TKeep: 1111  TID: 00  TDest: 0  TUser: 0  TLast: 0  Operation# 51
%%  5110 ns    Log    PASSED    in receiver_1: Data Check,       Operation# 51  Received.  Data: 00010033  TID: 00  TDest: 0  TUser: 0  TLast: 0
%%  5130 ns    Log    INFO      in transmitter_1,                Axi Stream Send.  TData: 00010034  TStrb: 1111  TKeep: 1111  TID: 00  TDest: 0  TUser: 0  TLast: 0  Operation# 52
%%  5140 ns    Log    PASSED    in receiver_1: Data Check,       Operation# 52  Received.  Data: 00010034  TID: 00  TDest: 0  TUser: 0  TLast: 0
%%  5140 ns    Log    INFO      in transmitter_1,                Axi Stream Send.  TData: 00010035  TStrb: 1111  TKeep: 1111  TID: 00  TDest: 0  TUser: 0  TLast: 0  Operation# 53
%%  5150 ns    Log    PASSED    in receiver_1: Data Check,       Operation# 53  Received.  Data: 00010035  TID: 00  TDest: 0  TUser: 0  TLast: 0
%%  5150 ns    Log    INFO      in transmitter_1,                Axi Stream Send.  TData: 00010036  TStrb: 1111  TKeep: 1111  TID: 00  TDest: 0  TUser: 0  TLast: 0  Operation# 54
%%  5160 ns    Log    PASSED    in receiver_1: Data Check,       Operation# 54  Received.  Data: 00010036  TID: 00  TDest: 0  TUser: 0  TLast: 0
%%  5160 ns    Log    INFO      in transmitter_1,                Axi Stream Send.  TData: 00010037  TStrb: 1111  TKeep: 1111  TID: 00  TDest: 0  TUser: 0  TLast: 0  Operation# 55
%%  5180 ns    Log    PASSED    in receiver_1: Data Check,       Operation# 55  Received.  Data: 00010037  TID: 00  TDest: 0  TUser: 0  TLast: 0
%%  5180 ns    Log    INFO      in transmitter_1,                Axi Stream Send.  TData: 00010038  TStrb: 1111  TKeep: 1111  TID: 00  TDest: 0  TUser: 0  TLast: 0  Operation# 56
%%  5190 ns    Log    PASSED    in receiver_1: Data Check,       Operation# 56  Received.  Data: 00010038  TID: 00  TDest: 0  TUser: 0  TLast: 0
%%  5190 ns    Log    INFO      in transmitter_1,                Axi Stream Send.  TData: 00010039  TStrb: 1111  TKeep: 1111  TID: 00  TDest: 0  TUser: 0  TLast: 0  Operation# 57
%%  5210 ns    Log    PASSED    in receiver_1: Data Check,       Operation# 57  Received.  Data: 00010039  TID: 00  TDest: 0  TUser: 0  TLast: 0
%%  5210 ns    Log    INFO      in transmitter_1,                Axi Stream Send.  TData: 0001003A  TStrb: 1111  TKeep: 1111  TID: 00  TDest: 0  TUser: 0  TLast: 0  Operation# 58
%%  5220 ns    Log    PASSED    in receiver_1: Data Check,       Operation# 58  Received.  Data: 0001003A  TID: 00  TDest: 0  TUser: 0  TLast: 0
%%  5230 ns    Log    INFO      in transmitter_1,                Axi Stream Send.  TData: 0001003B  TStrb: 1111  TKeep: 1111  TID: 00  TDest: 0  TUser: 0  TLast: 0  Operation# 59
%%  5240 ns    Log    PASSED    in receiver_1: Data Check,       Operation# 59  Received.  Data: 0001003B  TID: 00  TDest: 0  TUser: 0  TLast: 0
%%  5240 ns    Log    INFO      in transmitter_1,                Axi Stream Send.  TData: 0001003C  TStrb: 1111  TKeep: 1111  TID: 00  TDest: 0  TUser: 0  TLast: 0  Operation# 60
%%  5250 ns    Log    PASSED    in receiver_1: Data Check,       Operation# 60  Received.  Data: 0001003C  TID: 00  TDest: 0  TUser: 0  TLast: 0
%%  5250 ns    Log    INFO      in transmitter_1,                Axi Stream Send.  TData: 0001003D  TStrb: 1111  TKeep: 1111  TID: 00  TDest: 0  TUser: 0  TLast: 0  Operation# 61
%%  5260 ns    Log    PASSED    in receiver_1: Data Check,       Operation# 61  Received.  Data: 0001003D  TID: 00  TDest: 0  TUser: 0  TLast: 0
%%  5270 ns    Log    INFO      in transmitter_1,                Axi Stream Send.  TData: 0001003E  TStrb: 1111  TKeep: 1111  TID: 00  TDest: 0  TUser: 0  TLast: 0  Operation# 62
%%  5280 ns    Log    PASSED    in receiver_1: Data Check,       Operation# 62  Received.  Data: 0001003E  TID: 00  TDest: 0  TUser: 0  TLast: 0
%%  5280 ns    Log    INFO      in transmitter_1,                Axi Stream Send.  TData: 0001003F  TStrb: 1111  TKeep: 1111  TID: 00  TDest: 0  TUser: 0  TLast: 0  Operation# 63
%%  5290 ns    Log    PASSED    in receiver_1: Data Check,       Operation# 63  Received.  Data: 0001003F  TID: 00  TDest: 0  TUser: 0  TLast: 0
%%  5300 ns    Log    INFO      in transmitter_1,                Axi Stream Send.  TData: 00010040  TStrb: 1111  TKeep: 1111  TID: 00  TDest: 0  TUser: 0  TLast: 0  Operation# 64
%%  5310 ns    Log    PASSED    in receiver_1: Data Check,       Operation# 64  Received.  Data: 00010040  TID: 00  TDest: 0  TUser: 0  TLast: 0
%%  5320 ns    Log    INFO      in transmitter_1,                Axi Stream Send.  TData: 00010041  TStrb: 1111  TKeep: 1111  TID: 00  TDest: 0  TUser: 0  TLast: 0  Operation# 65
%%  5330 ns    Log    PASSED    in receiver_1: Data Check,       Operation# 65  Received.  Data: 00010041  TID: 00  TDest: 0  TUser: 0  TLast: 0
%%  5330 ns    Log    INFO      in transmitter_1,                Axi Stream Send.  TData: 00010042  TStrb: 1111  TKeep: 1111  TID: 00  TDest: 0  TUser: 0  TLast: 0  Operation# 66
%%  5340 ns    Log    PASSED    in receiver_1: Data Check,       Operation# 66  Received.  Data: 00010042  TID: 00  TDest: 0  TUser: 0  TLast: 0
%%  5340 ns    Log    INFO      in transmitter_1,                Axi Stream Send.  TData: 00010043  TStrb: 1111  TKeep: 1111  TID: 00  TDest: 0  TUser: 0  TLast: 0  Operation# 67
%%  5350 ns    Log    PASSED    in receiver_1: Data Check,       Operation# 67  Received.  Data: 00010043  TID: 00  TDest: 0  TUser: 0  TLast: 0
%%  5350 ns    Log    INFO      in transmitter_1,                Axi Stream Send.  TData: 00010044  TStrb: 1111  TKeep: 1111  TID: 00  TDest: 0  TUser: 0  TLast: 0  Operation# 68
%%  5360 ns    Log    PASSED    in receiver_1: Data Check,       Operation# 68  Received.  Data: 00010044  TID: 00  TDest: 0  TUser: 0  TLast: 0
%%  5360 ns    Log    INFO      in transmitter_1,                Axi Stream Send.  TData: 00010045  TStrb: 1111  TKeep: 1111  TID: 00  TDest: 0  TUser: 0  TLast: 0  Operation# 69
%%  5370 ns    Log    PASSED    in receiver_1: Data Check,       Operation# 69  Received.  Data: 00010045  TID: 00  TDest: 0  TUser: 0  TLast: 0
%%  5370 ns    Log    INFO      in transmitter_1,                Axi Stream Send.  TData: 00010046  TStrb: 1111  TKeep: 1111  TID: 00  TDest: 0  TUser: 0  TLast: 0  Operation# 70
%%  5380 ns    Log    PASSED    in receiver_1: Data Check,       Operation# 70  Received.  Data: 00010046  TID: 00  TDest: 0  TUser: 0  TLast: 0
%%  5380 ns    Log    INFO      in transmitter_1,                Axi Stream Send.  TData: 00010047  TStrb: 1111  TKeep: 1111  TID: 00  TDest: 0  TUser: 0  TLast: 0  Operation# 71
%%  5390 ns    Log    PASSED    in receiver_1: Data Check,       Operation# 71  Received.  Data: 00010047  TID: 00  TDest: 0  TUser: 0  TLast: 0
%%  5390 ns    Log    INFO      in transmitter_1,                Axi Stream Send.  TData: 00010048  TStrb: 1111  TKeep: 1111  TID: 00  TDest: 0  TUser: 0  TLast: 0  Operation# 72
%%  5420 ns    Log    PASSED    in receiver_1: Data Check,       Operation# 72  Received.  Data: 00010048  TID: 00  TDest: 0  TUser: 0  TLast: 0
%%  5420 ns    Log    INFO      in transmitter_1,                Axi Stream Send.  TData: 00010049  TStrb: 1111  TKeep: 1111  TID: 00  TDest: 0  TUser: 0  TLast: 0  Operation# 73
%%  5430 ns    Log    PASSED    in receiver_1: Data Check,       Operation# 73  Received.  Data: 00010049  TID: 00  TDest: 0  TUser: 0  TLast: 0
%%  5430 ns    Log    INFO      in transmitter_1,                Axi Stream Send.  TData: 0001004A  TStrb: 1111  TKeep: 1111  TID: 00  TDest: 0  TUser: 0  TLast: 0  Operation# 74
%%  5440 ns    Log    PASSED    in receiver_1: Data Check,       Operation# 74  Received.  Data: 0001004A  TID: 00  TDest: 0  TUser: 0  TLast: 0
%%  5440 ns    Log    INFO      in transmitter_1,                Axi Stream Send.  TData: 0001004B  TStrb: 1111  TKeep: 1111  TID: 00  TDest: 0  TUser: 0  TLast: 0  Operation# 75
%%  5450 ns    Log    PASSED    in receiver_1: Data Check,       Operation# 75  Received.  Data: 0001004B  TID: 00  TDest: 0  TUser: 0  TLast: 0
%%  5450 ns    Log    INFO      in transmitter_1,                Axi Stream Send.  TData: 0001004C  TStrb: 1111  TKeep: 1111  TID: 00  TDest: 0  TUser: 0  TLast: 0  Operation# 76
%%  5460 ns    Log    PASSED    in receiver_1: Data Check,       Operation# 76  Received.  Data: 0001004C  TID: 00  TDest: 0  TUser: 0  TLast: 0
%%  5460 ns    Log    INFO      in transmitter_1,                Axi Stream Send.  TData: 0001004D  TStrb: 1111  TKeep: 1111  TID: 00  TDest: 0  TUser: 0  TLast: 0  Operation# 77
%%  5480 ns    Log    PASSED    in receiver_1: Data Check,       Operation# 77  Received.  Data: 0001004D  TID: 00  TDest: 0  TUser: 0  TLast: 0
%%  5480 ns    Log    INFO      in transmitter_1,                Axi Stream Send.  TData: 0001004E  TStrb: 1111  TKeep: 1111  TID: 00  TDest: 0  TUser: 0  TLast: 0  Operation# 78
%%  5490 ns    Log    PASSED    in receiver_1: Data Check,       Operation# 78  Received.  Data: 0001004E  TID: 00  TDest: 0  TUser: 0  TLast: 0
%%  5490 ns    Log    INFO      in transmitter_1,                Axi Stream Send.  TData: 0001004F  TStrb: 1111  TKeep: 1111  TID: 00  TDest: 0  TUser: 0  TLast: 0  Operation# 79
%%  5510 ns    Log    PASSED    in receiver_1: Data Check,       Operation# 79  Received.  Data: 0001004F  TID: 00  TDest: 0  TUser: 0  TLast: 0
%%  5510 ns    Log    INFO      in transmitter_1,                Axi Stream Send.  TData: 00010050  TStrb: 1111  TKeep: 1111  TID: 00  TDest: 0  TUser: 0  TLast: 0  Operation# 80
%%  5520 ns    Log    PASSED    in receiver_1: Data Check,       Operation# 80  Received.  Data: 00010050  TID: 00  TDest: 0  TUser: 0  TLast: 0
%%  5520 ns    Log    INFO      in transmitter_1,                Axi Stream Send.  TData: 00010051  TStrb: 1111  TKeep: 1111  TID: 00  TDest: 0  TUser: 0  TLast: 0  Operation# 81
%%  5530 ns    Log    PASSED    in receiver_1: Data Check,       Operation# 81  Received.  Data: 00010051  TID: 00  TDest: 0  TUser: 0  TLast: 0
%%  5530 ns    Log    INFO      in transmitter_1,                Axi Stream Send.  TData: 00010052  TStrb: 1111  TKeep: 1111  TID: 00  TDest: 0  TUser: 0  TLast: 0  Operation# 82
%%  5540 ns    Log    PASSED    in receiver_1: Data Check,       Operation# 82  Received.  Data: 00010052  TID: 00  TDest: 0  TUser: 0  TLast: 0
%%  5540 ns    Log    INFO      in transmitter_1,                Axi Stream Send.  TData: 00010053  TStrb: 1111  TKeep: 1111  TID: 00  TDest: 0  TUser: 0  TLast: 0  Operation# 83
%%  5550 ns    Log    PASSED    in receiver_1: Data Check,       Operation# 83  Received.  Data: 00010053  TID: 00  TDest: 0  TUser: 0  TLast: 0
%%  5550 ns    Log    INFO      in transmitter_1,                Axi Stream Send.  TData: 00010054  TStrb: 1111  TKeep: 1111  TID: 00  TDest: 0  TUser: 0  TLast: 0  Operation# 84
%%  5560 ns    Log    PASSED    in receiver_1: Data Check,       Operation# 84  Received.  Data: 00010054  TID: 00  TDest: 0  TUser: 0  TLast: 0
%%  5560 ns    Log    INFO      in transmitter_1,                Axi Stream Send.  TData: 00010055  TStrb: 1111  TKeep: 1111  TID: 00  TDest: 0  TUser: 0  TLast: 0  Operation# 85
%%  5570 ns    Log    PASSED    in receiver_1: Data Check,       Operation# 85  Received.  Data: 00010055  TID: 00  TDest: 0  TUser: 0  TLast: 0
%%  5570 ns    Log    INFO      in transmitter_1,                Axi Stream Send.  TData: 00010056  TStrb: 1111  TKeep: 1111  TID: 00  TDest: 0  TUser: 0  TLast: 0  Operation# 86
%%  5580 ns    Log    PASSED    in receiver_1: Data Check,       Operation# 86  Received.  Data: 00010056  TID: 00  TDest: 0  TUser: 0  TLast: 0
%%  5580 ns    Log    INFO      in transmitter_1,                Axi Stream Send.  TData: 00010057  TStrb: 1111  TKeep: 1111  TID: 00  TDest: 0  TUser: 0  TLast: 0  Operation# 87
%%  5590 ns    Log    PASSED    in receiver_1: Data Check,       Operation# 87  Received.  Data: 00010057  TID: 00  TDest: 0  TUser: 0  TLast: 0
%%  5590 ns    Log    INFO      in transmitter_1,                Axi Stream Send.  TData: 00010058  TStrb: 1111  TKeep: 1111  TID: 00  TDest: 0  TUser: 0  TLast: 0  Operation# 88
%%  5600 ns    Log    PASSED    in receiver_1: Data Check,       Operation# 88  Received.  Data: 00010058  TID: 00  TDest: 0  TUser: 0  TLast: 0
%%  5610 ns    Log    INFO      in transmitter_1,                Axi Stream Send.  TData: 00010059  TStrb: 1111  TKeep: 1111  TID: 00  TDest: 0  TUser: 0  TLast: 0  Operation# 89
%%  5620 ns    Log    PASSED    in receiver_1: Data Check,       Operation# 89  Received.  Data: 00010059  TID: 00  TDest: 0  TUser: 0  TLast: 0
%%  5620 ns    Log    INFO      in transmitter_1,                Axi Stream Send.  TData: 0001005A  TStrb: 1111  TKeep: 1111  TID: 00  TDest: 0  TUser: 0  TLast: 0  Operation# 90
%%  5650 ns    Log    PASSED    in receiver_1: Data Check,       Operation# 90  Received.  Data: 0001005A  TID: 00  TDest: 0  TUser: 0  TLast: 0
%%  5650 ns    Log    INFO      in transmitter_1,                Axi Stream Send.  TData: 0001005B  TStrb: 1111  TKeep: 1111  TID: 00  TDest: 0  TUser: 0  TLast: 0  Operation# 91
%%  5670 ns    Log    PASSED    in receiver_1: Data Check,       Operation# 91  Received.  Data: 0001005B  TID: 00  TDest: 0  TUser: 0  TLast: 0
%%  5670 ns    Log    INFO      in transmitter_1,                Axi Stream Send.  TData: 0001005C  TStrb: 1111  TKeep: 1111  TID: 00  TDest: 0  TUser: 0  TLast: 0  Operation# 92
%%  5680 ns    Log    PASSED    in receiver_1: Data Check,       Operation# 92  Received.  Data: 0001005C  TID: 00  TDest: 0  TUser: 0  TLast: 0
%%  5700 ns    Log    INFO      in transmitter_1,                Axi Stream Send.  TData: 0001005D  TStrb: 1111  TKeep: 1111  TID: 00  TDest: 0  TUser: 0  TLast: 0  Operation# 93
%%  5720 ns    Log    PASSED    in receiver_1: Data Check,       Operation# 93  Received.  Data: 0001005D  TID: 00  TDest: 0  TUser: 0  TLast: 0
%%  5720 ns    Log    INFO      in transmitter_1,                Axi Stream Send.  TData: 0001005E  TStrb: 1111  TKeep: 1111  TID: 00  TDest: 0  TUser: 0  TLast: 0  Operation# 94
%%  5730 ns    Log    PASSED    in receiver_1: Data Check,       Operation# 94  Received.  Data: 0001005E  TID: 00  TDest: 0  TUser: 0  TLast: 0
%%  5730 ns    Log    INFO      in transmitter_1,                Axi Stream Send.  TData: 0001005F  TStrb: 1111  TKeep: 1111  TID: 00  TDest: 0  TUser: 0  TLast: 0  Operation# 95
%%  5740 ns    Log    PASSED    in receiver_1: Data Check,       Operation# 95  Received.  Data: 0001005F  TID: 00  TDest: 0  TUser: 0  TLast: 0
%%  5740 ns    Log    INFO      in transmitter_1,                Axi Stream Send.  TData: 00010060  TStrb: 1111  TKeep: 1111  TID: 00  TDest: 0  TUser: 0  TLast: 0  Operation# 96
%%  5750 ns    Log    PASSED    in receiver_1: Data Check,       Operation# 96  Received.  Data: 00010060  TID: 00  TDest: 0  TUser: 0  TLast: 0
%%  5750 ns    Log    INFO      in transmitter_1,                Axi Stream Send.  TData: 00010061  TStrb: 1111  TKeep: 1111  TID: 00  TDest: 0  TUser: 0  TLast: 0  Operation# 97
%%  5760 ns    Log    PASSED    in receiver_1: Data Check,       Operation# 97  Received.  Data: 00010061  TID: 00  TDest: 0  TUser: 0  TLast: 0
%%  5760 ns    Log    INFO      in transmitter_1,                Axi Stream Send.  TData: 00010062  TStrb: 1111  TKeep: 1111  TID: 00  TDest: 0  TUser: 0  TLast: 0  Operation# 98
%%  5770 ns    Log    PASSED    in receiver_1: Data Check,       Operation# 98  Received.  Data: 00010062  TID: 00  TDest: 0  TUser: 0  TLast: 0
%%  5770 ns    Log    INFO      in transmitter_1,                Axi Stream Send.  TData: 00010063  TStrb: 1111  TKeep: 1111  TID: 00  TDest: 0  TUser: 0  TLast: 0  Operation# 99
%%  5780 ns    Log    PASSED    in receiver_1: Data Check,       Operation# 99  Received.  Data: 00010063  TID: 00  TDest: 0  TUser: 0  TLast: 0
%%  5780 ns    Log    INFO      in transmitter_1,                Axi Stream Send.  TData: 00010064  TStrb: 1111  TKeep: 1111  TID: 00  TDest: 0  TUser: 0  TLast: 0  Operation# 100
%%  5790 ns    Log    PASSED    in receiver_1: Data Check,       Operation# 100  Received.  Data: 00010064  TID: 00  TDest: 0  TUser: 0  TLast: 0
%%  5810 ns    Log    INFO      in transmitter_1,                Axi Stream Send.  TData: 00010065  TStrb: 1111  TKeep: 1111  TID: 00  TDest: 0  TUser: 0  TLast: 0  Operation# 101
%%  5820 ns    Log    PASSED    in receiver_1: Data Check,       Operation# 101  Received.  Data: 00010065  TID: 00  TDest: 0  TUser: 0  TLast: 0
%%  5820 ns    Log    INFO      in transmitter_1,                Axi Stream Send.  TData: 00010066  TStrb: 1111  TKeep: 1111  TID: 00  TDest: 0  TUser: 0  TLast: 0  Operation# 102
%%  5830 ns    Log    PASSED    in receiver_1: Data Check,       Operation# 102  Received.  Data: 00010066  TID: 00  TDest: 0  TUser: 0  TLast: 0
%%  5830 ns    Log    INFO      in transmitter_1,                Axi Stream Send.  TData: 00010067  TStrb: 1111  TKeep: 1111  TID: 00  TDest: 0  TUser: 0  TLast: 0  Operation# 103
%%  5840 ns    Log    PASSED    in receiver_1: Data Check,       Operation# 103  Received.  Data: 00010067  TID: 00  TDest: 0  TUser: 0  TLast: 0
%%  5840 ns    Log    INFO      in transmitter_1,                Axi Stream Send.  TData: 00010068  TStrb: 1111  TKeep: 1111  TID: 00  TDest: 0  TUser: 0  TLast: 0  Operation# 104
%%  5850 ns    Log    PASSED    in receiver_1: Data Check,       Operation# 104  Received.  Data: 00010068  TID: 00  TDest: 0  TUser: 0  TLast: 0
%%  5850 ns    Log    INFO      in transmitter_1,                Axi Stream Send.  TData: 00010069  TStrb: 1111  TKeep: 1111  TID: 00  TDest: 0  TUser: 0  TLast: 0  Operation# 105
%%  5860 ns    Log    PASSED    in receiver_1: Data Check,       Operation# 105  Received.  Data: 00010069  TID: 00  TDest: 0  TUser: 0  TLast: 0
%%  5860 ns    Log    INFO      in transmitter_1,                Axi Stream Send.  TData: 0001006A  TStrb: 1111  TKeep: 1111  TID: 00  TDest: 0  TUser: 0  TLast: 0  Operation# 106
%%  5870 ns    Log    PASSED    in receiver_1: Data Check,       Operation# 106  Received.  Data: 0001006A  TID: 00  TDest: 0  TUser: 0  TLast: 0
%%  5880 ns    Log    INFO      in transmitter_1,                Axi Stream Send.  TData: 0001006B  TStrb: 1111  TKeep: 1111  TID: 00  TDest: 0  TUser: 0  TLast: 0  Operation# 107
%%  5890 ns    Log    PASSED    in receiver_1: Data Check,       Operation# 107  Received.  Data: 0001006B  TID: 00  TDest: 0  TUser: 0  TLast: 0
%%  5900 ns    Log    INFO      in transmitter_1,                Axi Stream Send.  TData: 0001006C  TStrb: 1111  TKeep: 1111  TID: 00  TDest: 0  TUser: 0  TLast: 0  Operation# 108
%%  5910 ns    Log    PASSED    in receiver_1: Data Check,       Operation# 108  Received.  Data: 0001006C  TID: 00  TDest: 0  TUser: 0  TLast: 0
%%  5910 ns    Log    INFO      in transmitter_1,                Axi Stream Send.  TData: 0001006D  TStrb: 1111  TKeep: 1111  TID: 00  TDest: 0  TUser: 0  TLast: 0  Operation# 109
%%  5920 ns    Log    PASSED    in receiver_1: Data Check,       Operation# 109  Received.  Data: 0001006D  TID: 00  TDest: 0  TUser: 0  TLast: 0
%%  5920 ns    Log    INFO      in transmitter_1,                Axi Stream Send.  TData: 0001006E  TStrb: 1111  TKeep: 1111  TID: 00  TDest: 0  TUser: 0  TLast: 0  Operation# 110
%%  5930 ns    Log    PASSED    in receiver_1: Data Check,       Operation# 110  Received.  Data: 0001006E  TID: 00  TDest: 0  TUser: 0  TLast: 0
%%  5930 ns    Log    INFO      in transmitter_1,                Axi Stream Send.  TData: 0001006F  TStrb: 1111  TKeep: 1111  TID: 00  TDest: 0  TUser: 0  TLast: 0  Operation# 111
%%  5950 ns    Log    PASSED    in receiver_1: Data Check,       Operation# 111  Received.  Data: 0001006F  TID: 00  TDest: 0  TUser: 0  TLast: 0
%%  5950 ns    Log    INFO      in transmitter_1,                Axi Stream Send.  TData: 00010070  TStrb: 1111  TKeep: 1111  TID: 00  TDest: 0  TUser: 0  TLast: 0  Operation# 112
%%  5960 ns    Log    PASSED    in receiver_1: Data Check,       Operation# 112  Received.  Data: 00010070  TID: 00  TDest: 0  TUser: 0  TLast: 0
%%  5960 ns    Log    INFO      in transmitter_1,                Axi Stream Send.  TData: 00010071  TStrb: 1111  TKeep: 1111  TID: 00  TDest: 0  TUser: 0  TLast: 0  Operation# 113
%%  5980 ns    Log    PASSED    in receiver_1: Data Check,       Operation# 113  Received.  Data: 00010071  TID: 00  TDest: 0  TUser: 0  TLast: 0
%%  5980 ns    Log    INFO      in transmitter_1,                Axi Stream Send.  TData: 00010072  TStrb: 1111  TKeep: 1111  TID: 00  TDest: 0  TUser: 0  TLast: 0  Operation# 114
%%  5990 ns    Log    PASSED    in receiver_1: Data Check,       Operation# 114  Received.  Data: 00010072  TID: 00  TDest: 0  TUser: 0  TLast: 0
%%  5990 ns    Log    INFO      in transmitter_1,                Axi Stream Send.  TData: 00010073  TStrb: 1111  TKeep: 1111  TID: 00  TDest: 0  TUser: 0  TLast: 0  Operation# 115
%%  6000 ns    Log    PASSED    in receiver_1: Data Check,       Operation# 115  Received.  Data: 00010073  TID: 00  TDest: 0  TUser: 0  TLast: 0
%%  6020 ns    Log    INFO      in transmitter_1,                Axi Stream Send.  TData: 00010074  TStrb: 1111  TKeep: 1111  TID: 00  TDest: 0  TUser: 0  TLast: 0  Operation# 116
%%  6030 ns    Log    PASSED    in receiver_1: Data Check,       Operation# 116  Received.  Data: 00010074  TID: 00  TDest: 0  TUser: 0  TLast: 0
%%  6030 ns    Log    INFO      in transmitter_1,                Axi Stream Send.  TData: 00010075  TStrb: 1111  TKeep: 1111  TID: 00  TDest: 0  TUser: 0  TLast: 0  Operation# 117
%%  6040 ns    Log    PASSED    in receiver_1: Data Check,       Operation# 117  Received.  Data: 00010075  TID: 00  TDest: 0  TUser: 0  TLast: 0
%%  6040 ns    Log    INFO      in transmitter_1,                Axi Stream Send.  TData: 00010076  TStrb: 1111  TKeep: 1111  TID: 00  TDest: 0  TUser: 0  TLast: 0  Operation# 118
%%  6070 ns    Log    PASSED    in receiver_1: Data Check,       Operation# 118  Received.  Data: 00010076  TID: 00  TDest: 0  TUser: 0  TLast: 0
%%  6090 ns    Log    INFO      in transmitter_1,                Axi Stream Send.  TData: 00010077  TStrb: 1111  TKeep: 1111  TID: 00  TDest: 0  TUser: 0  TLast: 0  Operation# 119
%%  6110 ns    Log    PASSED    in receiver_1: Data Check,       Operation# 119  Received.  Data: 00010077  TID: 00  TDest: 0  TUser: 0  TLast: 0
%%  6110 ns    Log    INFO      in transmitter_1,                Axi Stream Send.  TData: 00010078  TStrb: 1111  TKeep: 1111  TID: 00  TDest: 0  TUser: 0  TLast: 0  Operation# 120
%%  6120 ns    Log    PASSED    in receiver_1: Data Check,       Operation# 120  Received.  Data: 00010078  TID: 00  TDest: 0  TUser: 0  TLast: 0
%%  6120 ns    Log    INFO      in transmitter_1,                Axi Stream Send.  TData: 00010079  TStrb: 1111  TKeep: 1111  TID: 00  TDest: 0  TUser: 0  TLast: 0  Operation# 121
%%  6130 ns    Log    PASSED    in receiver_1: Data Check,       Operation# 121  Received.  Data: 00010079  TID: 00  TDest: 0  TUser: 0  TLast: 0
%%  6130 ns    Log    INFO      in transmitter_1,                Axi Stream Send.  TData: 0001007A  TStrb: 1111  TKeep: 1111  TID: 00  TDest: 0  TUser: 0  TLast: 0  Operation# 122
%%  6140 ns    Log    PASSED    in receiver_1: Data Check,       Operation# 122  Received.  Data: 0001007A  TID: 00  TDest: 0  TUser: 0  TLast: 0
%%  6140 ns    Log    INFO      in transmitter_1,                Axi Stream Send.  TData: 0001007B  TStrb: 1111  TKeep: 1111  TID: 00  TDest: 0  TUser: 0  TLast: 0  Operation# 123
%%  6170 ns    Log    PASSED    in receiver_1: Data Check,       Operation# 123  Received.  Data: 0001007B  TID: 00  TDest: 0  TUser: 0  TLast: 0
%%  6170 ns    Log    INFO      in transmitter_1,                Axi Stream Send.  TData: 0001007C  TStrb: 1111  TKeep: 1111  TID: 00  TDest: 0  TUser: 0  TLast: 0  Operation# 124
%%  6180 ns    Log    PASSED    in receiver_1: Data Check,       Operation# 124  Received.  Data: 0001007C  TID: 00  TDest: 0  TUser: 0  TLast: 0
%%  6180 ns    Log    INFO      in transmitter_1,                Axi Stream Send.  TData: 0001007D  TStrb: 1111  TKeep: 1111  TID: 00  TDest: 0  TUser: 0  TLast: 0  Operation# 125
%%  6190 ns    Log    PASSED    in receiver_1: Data Check,       Operation# 125  Received.  Data: 0001007D  TID: 00  TDest: 0  TUser: 0  TLast: 0
%%  6190 ns    Log    INFO      in transmitter_1,                Axi Stream Send.  TData: 0001007E  TStrb: 1111  TKeep: 1111  TID: 00  TDest: 0  TUser: 0  TLast: 0  Operation# 126
%%  6200 ns    Log    PASSED    in receiver_1: Data Check,       Operation# 126  Received.  Data: 0001007E  TID: 00  TDest: 0  TUser: 0  TLast: 0
%%  6220 ns    Log    INFO      in transmitter_1,                Axi Stream Send.  TData: 0001007F  TStrb: 1111  TKeep: 1111  TID: 00  TDest: 0  TUser: 0  TLast: 0  Operation# 127
%%  6230 ns    Log    PASSED    in receiver_1: Data Check,       Operation# 127  Received.  Data: 0001007F  TID: 00  TDest: 0  TUser: 0  TLast: 0
%%  6230 ns    Log    INFO      in transmitter_1,                Axi Stream Send.  TData: 00010080  TStrb: 1111  TKeep: 1111  TID: 00  TDest: 0  TUser: 0  TLast: 0  Operation# 128
%%  6240 ns    Log    PASSED    in receiver_1: Data Check,       Operation# 128  Received.  Data: 00010080  TID: 00  TDest: 0  TUser: 0  TLast: 0
%%  6240 ns    Log    INFO      in transmitter_1,                Axi Stream Send.  TData: 00010081  TStrb: 1111  TKeep: 1111  TID: 00  TDest: 0  TUser: 0  TLast: 0  Operation# 129
%%  6250 ns    Log    PASSED    in receiver_1: Data Check,       Operation# 129  Received.  Data: 00010081  TID: 00  TDest: 0  TUser: 0  TLast: 0
%%  6250 ns    Log    INFO      in transmitter_1,                Axi Stream Send.  TData: 00010082  TStrb: 1111  TKeep: 1111  TID: 00  TDest: 0  TUser: 0  TLast: 0  Operation# 130
%%  6260 ns    Log    PASSED    in receiver_1: Data Check,       Operation# 130  Received.  Data: 00010082  TID: 00  TDest: 0  TUser: 0  TLast: 0
%%  6260 ns    Log    INFO      in transmitter_1,                Axi Stream Send.  TData: 00010083  TStrb: 1111  TKeep: 1111  TID: 00  TDest: 0  TUser: 0  TLast: 0  Operation# 131
%%  6270 ns    Log    PASSED    in receiver_1: Data Check,       Operation# 131  Received.  Data: 00010083  TID: 00  TDest: 0  TUser: 0  TLast: 0
%%  6270 ns    Log    INFO      in transmitter_1,                Axi Stream Send.  TData: 00010084  TStrb: 1111  TKeep: 1111  TID: 00  TDest: 0  TUser: 0  TLast: 0  Operation# 132
%%  6280 ns    Log    PASSED    in receiver_1: Data Check,       Operation# 132  Received.  Data: 00010084  TID: 00  TDest: 0  TUser: 0  TLast: 0
%%  6280 ns    Log    INFO      in transmitter_1,                Axi Stream Send.  TData: 00010085  TStrb: 1111  TKeep: 1111  TID: 00  TDest: 0  TUser: 0  TLast: 0  Operation# 133
%%  6300 ns    Log    PASSED    in receiver_1: Data Check,       Operation# 133  Received.  Data: 00010085  TID: 00  TDest: 0  TUser: 0  TLast: 0
%%  6300 ns    Log    INFO      in transmitter_1,                Axi Stream Send.  TData: 00010086  TStrb: 1111  TKeep: 1111  TID: 00  TDest: 0  TUser: 0  TLast: 0  Operation# 134
%%  6310 ns    Log    PASSED    in receiver_1: Data Check,       Operation# 134  Received.  Data: 00010086  TID: 00  TDest: 0  TUser: 0  TLast: 0
%%  6310 ns    Log    INFO      in transmitter_1,                Axi Stream Send.  TData: 00010087  TStrb: 1111  TKeep: 1111  TID: 00  TDest: 0  TUser: 0  TLast: 0  Operation# 135
%%  6320 ns    Log    PASSED    in receiver_1: Data Check,       Operation# 135  Received.  Data: 00010087  TID: 00  TDest: 0  TUser: 0  TLast: 0
%%  6320 ns    Log    INFO      in transmitter_1,                Axi Stream Send.  TData: 00010088  TStrb: 1111  TKeep: 1111  TID: 00  TDest: 0  TUser: 0  TLast: 0  Operation# 136
%%  6330 ns    Log    PASSED    in receiver_1: Data Check,       Operation# 136  Received.  Data: 00010088  TID: 00  TDest: 0  TUser: 0  TLast: 0
%%  6330 ns    Log    INFO      in transmitter_1,                Axi Stream Send.  TData: 00010089  TStrb: 1111  TKeep: 1111  TID: 00  TDest: 0  TUser: 0  TLast: 0  Operation# 137
%%  6360 ns    Log    PASSED    in receiver_1: Data Check,       Operation# 137  Received.  Data: 00010089  TID: 00  TDest: 0  TUser: 0  TLast: 0
%%  6360 ns    Log    INFO      in transmitter_1,                Axi Stream Send.  TData: 0001008A  TStrb: 1111  TKeep: 1111  TID: 00  TDest: 0  TUser: 0  TLast: 0  Operation# 138
%%  6370 ns    Log    PASSED    in receiver_1: Data Check,       Operation# 138  Received.  Data: 0001008A  TID: 00  TDest: 0  TUser: 0  TLast: 0
%%  6370 ns    Log    INFO      in transmitter_1,                Axi Stream Send.  TData: 0001008B  TStrb: 1111  TKeep: 1111  TID: 00  TDest: 0  TUser: 0  TLast: 0  Operation# 139
%%  6380 ns    Log    PASSED    in receiver_1: Data Check,       Operation# 139  Received.  Data: 0001008B  TID: 00  TDest: 0  TUser: 0  TLast: 0
%%  6380 ns    Log    INFO      in transmitter_1,                Axi Stream Send.  TData: 0001008C  TStrb: 1111  TKeep: 1111  TID: 00  TDest: 0  TUser: 0  TLast: 0  Operation# 140
%%  6390 ns    Log    PASSED    in receiver_1: Data Check,       Operation# 140  Received.  Data: 0001008C  TID: 00  TDest: 0  TUser: 0  TLast: 0
%%  6390 ns    Log    INFO      in transmitter_1,                Axi Stream Send.  TData: 0001008D  TStrb: 1111  TKeep: 1111  TID: 00  TDest: 0  TUser: 0  TLast: 0  Operation# 141
%%  6400 ns    Log    PASSED    in receiver_1: Data Check,       Operation# 141  Received.  Data: 0001008D  TID: 00  TDest: 0  TUser: 0  TLast: 0
%%  6470 ns    Log    INFO      in transmitter_1,                Axi Stream Send.  TData: 0001008E  TStrb: 1111  TKeep: 1111  TID: 00  TDest: 0  TUser: 0  TLast: 0  Operation# 142
%%  6480 ns    Log    PASSED    in receiver_1: Data Check,       Operation# 142  Received.  Data: 0001008E  TID: 00  TDest: 0  TUser: 0  TLast: 0
%%  6480 ns    Log    INFO      in transmitter_1,                Axi Stream Send.  TData: 0001008F  TStrb: 1111  TKeep: 1111  TID: 00  TDest: 0  TUser: 0  TLast: 0  Operation# 143
%%  6490 ns    Log    PASSED    in receiver_1: Data Check,       Operation# 143  Received.  Data: 0001008F  TID: 00  TDest: 0  TUser: 0  TLast: 0
%%  6490 ns    Log    INFO      in transmitter_1,                Axi Stream Send.  TData: 00010090  TStrb: 1111  TKeep: 1111  TID: 00  TDest: 0  TUser: 0  TLast: 0  Operation# 144
%%  6500 ns    Log    PASSED    in receiver_1: Data Check,       Operation# 144  Received.  Data: 00010090  TID: 00  TDest: 0  TUser: 0  TLast: 0
%%  6500 ns    Log    INFO      in transmitter_1,                Axi Stream Send.  TData: 00010091  TStrb: 1111  TKeep: 1111  TID: 00  TDest: 0  TUser: 0  TLast: 0  Operation# 145
%%  6510 ns    Log    PASSED    in receiver_1: Data Check,       Operation# 145  Received.  Data: 00010091  TID: 00  TDest: 0  TUser: 0  TLast: 0
%%  6510 ns    Log    INFO      in transmitter_1,                Axi Stream Send.  TData: 00010092  TStrb: 1111  TKeep: 1111  TID: 00  TDest: 0  TUser: 0  TLast: 0  Operation# 146
%%  6520 ns    Log    PASSED    in receiver_1: Data Check,       Operation# 146  Received.  Data: 00010092  TID: 00  TDest: 0  TUser: 0  TLast: 0
%%  6530 ns    Log    INFO      in transmitter_1,                Axi Stream Send.  TData: 00010093  TStrb: 1111  TKeep: 1111  TID: 00  TDest: 0  TUser: 0  TLast: 0  Operation# 147
%%  6560 ns    Log    PASSED    in receiver_1: Data Check,       Operation# 147  Received.  Data: 00010093  TID: 00  TDest: 0  TUser: 0  TLast: 0
%%  6580 ns    Log    INFO      in transmitter_1,                Axi Stream Send.  TData: 00010094  TStrb: 1111  TKeep: 1111  TID: 00  TDest: 0  TUser: 0  TLast: 0  Operation# 148
%%  6590 ns    Log    PASSED    in receiver_1: Data Check,       Operation# 148  Received.  Data: 00010094  TID: 00  TDest: 0  TUser: 0  TLast: 0
%%  6670 ns    Log    INFO      in transmitter_1,                Axi Stream Send.  TData: 00010095  TStrb: 1111  TKeep: 1111  TID: 00  TDest: 0  TUser: 0  TLast: 0  Operation# 149
%%  6680 ns    Log    PASSED    in receiver_1: Data Check,       Operation# 149  Received.  Data: 00010095  TID: 00  TDest: 0  TUser: 0  TLast: 0
%%  6680 ns    Log    INFO      in transmitter_1,                Axi Stream Send.  TData: 00010096  TStrb: 1111  TKeep: 1111  TID: 00  TDest: 0  TUser: 0  TLast: 0  Operation# 150
%%  6710 ns    Log    PASSED    in receiver_1: Data Check,       Operation# 150  Received.  Data: 00010096  TID: 00  TDest: 0  TUser: 0  TLast: 0
%%  6710 ns    Log    INFO      in transmitter_1,                Axi Stream Send.  TData: 00010097  TStrb: 1111  TKeep: 1111  TID: 00  TDest: 0  TUser: 0  TLast: 0  Operation# 151
%%  6720 ns    Log    PASSED    in receiver_1: Data Check,       Operation# 151  Received.  Data: 00010097  TID: 00  TDest: 0  TUser: 0  TLast: 0
%%  6720 ns    Log    INFO      in transmitter_1,                Axi Stream Send.  TData: 00010098  TStrb: 1111  TKeep: 1111  TID: 00  TDest: 0  TUser: 0  TLast: 0  Operation# 152
%%  6740 ns    Log    PASSED    in receiver_1: Data Check,       Operation# 152  Received.  Data: 00010098  TID: 00  TDest: 0  TUser: 0  TLast: 0
%%  6740 ns    Log    INFO      in transmitter_1,                Axi Stream Send.  TData: 00010099  TStrb: 1111  TKeep: 1111  TID: 00  TDest: 0  TUser: 0  TLast: 0  Operation# 153
%%  6750 ns    Log    PASSED    in receiver_1: Data Check,       Operation# 153  Received.  Data: 00010099  TID: 00  TDest: 0  TUser: 0  TLast: 0
%%  6750 ns    Log    INFO      in transmitter_1,                Axi Stream Send.  TData: 0001009A  TStrb: 1111  TKeep: 1111  TID: 00  TDest: 0  TUser: 0  TLast: 0  Operation# 154
%%  6760 ns    Log    PASSED    in receiver_1: Data Check,       Operation# 154  Received.  Data: 0001009A  TID: 00  TDest: 0  TUser: 0  TLast: 0
%%  6760 ns    Log    INFO      in transmitter_1,                Axi Stream Send.  TData: 0001009B  TStrb: 1111  TKeep: 1111  TID: 00  TDest: 0  TUser: 0  TLast: 0  Operation# 155
%%  6780 ns    Log    PASSED    in receiver_1: Data Check,       Operation# 155  Received.  Data: 0001009B  TID: 00  TDest: 0  TUser: 0  TLast: 0
%%  6780 ns    Log    INFO      in transmitter_1,                Axi Stream Send.  TData: 0001009C  TStrb: 1111  TKeep: 1111  TID: 00  TDest: 0  TUser: 0  TLast: 0  Operation# 156
%%  6790 ns    Log    PASSED    in receiver_1: Data Check,       Operation# 156  Received.  Data: 0001009C  TID: 00  TDest: 0  TUser: 0  TLast: 0
%%  6790 ns    Log    INFO      in transmitter_1,                Axi Stream Send.  TData: 0001009D  TStrb: 1111  TKeep: 1111  TID: 00  TDest: 0  TUser: 0  TLast: 0  Operation# 157
%%  6800 ns    Log    PASSED    in receiver_1: Data Check,       Operation# 157  Received.  Data: 0001009D  TID: 00  TDest: 0  TUser: 0  TLast: 0
%%  6800 ns    Log    INFO      in transmitter_1,                Axi Stream Send.  TData: 0001009E  TStrb: 1111  TKeep: 1111  TID: 00  TDest: 0  TUser: 0  TLast: 0  Operation# 158
%%  6870 ns    Log    PASSED    in receiver_1: Data Check,       Operation# 158  Received.  Data: 0001009E  TID: 00  TDest: 0  TUser: 0  TLast: 0
%%  6920 ns    Log    INFO      in transmitter_1,                Axi Stream Send.  TData: 0001009F  TStrb: 1111  TKeep: 1111  TID: 00  TDest: 0  TUser: 0  TLast: 0  Operation# 159
%%  6930 ns    Log    PASSED    in receiver_1: Data Check,       Operation# 159  Received.  Data: 0001009F  TID: 00  TDest: 0  TUser: 0  TLast: 0
%%  6930 ns    Log    INFO      in transmitter_1,                Axi Stream Send.  TData: 000100A0  TStrb: 1111  TKeep: 1111  TID: 00  TDest: 0  TUser: 0  TLast: 0  Operation# 160
%%  6940 ns    Log    PASSED    in receiver_1: Data Check,       Operation# 160  Received.  Data: 000100A0  TID: 00  TDest: 0  TUser: 0  TLast: 0
%%  6950 ns    Log    INFO      in transmitter_1,                Axi Stream Send.  TData: 000100A1  TStrb: 1111  TKeep: 1111  TID: 00  TDest: 0  TUser: 0  TLast: 0  Operation# 161
%%  8250 ns    Log    PASSED    in receiver_1: Data Check,       Operation# 161  Received.  Data: 000100A1  TID: 00  TDest: 0  TUser: 0  TLast: 0
%%  8250 ns    Log    INFO      in transmitter_1,                Axi Stream Send.  TData: 000100A2  TStrb: 1111  TKeep: 1111  TID: 00  TDest: 0  TUser: 0  TLast: 0  Operation# 162
%%  8260 ns    Log    PASSED    in receiver_1: Data Check,       Operation# 162  Received.  Data: 000100A2  TID: 00  TDest: 0  TUser: 0  TLast: 0
%%  8260 ns    Log    INFO      in transmitter_1,                Axi Stream Send.  TData: 000100A3  TStrb: 1111  TKeep: 1111  TID: 00  TDest: 0  TUser: 0  TLast: 0  Operation# 163
%%  8270 ns    Log    PASSED    in receiver_1: Data Check,       Operation# 163  Received.  Data: 000100A3  TID: 00  TDest: 0  TUser: 0  TLast: 0
%%  8270 ns    Log    INFO      in transmitter_1,                Axi Stream Send.  TData: 000100A4  TStrb: 1111  TKeep: 1111  TID: 00  TDest: 0  TUser: 0  TLast: 0  Operation# 164
%%  8280 ns    Log    PASSED    in receiver_1: Data Check,       Operation# 164  Received.  Data: 000100A4  TID: 00  TDest: 0  TUser: 0  TLast: 0
%%  8280 ns    Log    INFO      in transmitter_1,                Axi Stream Send.  TData: 000100A5  TStrb: 1111  TKeep: 1111  TID: 00  TDest: 0  TUser: 0  TLast: 0  Operation# 165
%%  8290 ns    Log    PASSED    in receiver_1: Data Check,       Operation# 165  Received.  Data: 000100A5  TID: 00  TDest: 0  TUser: 0  TLast: 0
%%  8290 ns    Log    INFO      in transmitter_1,                Axi Stream Send.  TData: 000100A6  TStrb: 1111  TKeep: 1111  TID: 00  TDest: 0  TUser: 0  TLast: 0  Operation# 166
%%  8300 ns    Log    PASSED    in receiver_1: Data Check,       Operation# 166  Received.  Data: 000100A6  TID: 00  TDest: 0  TUser: 0  TLast: 0
%%  8300 ns    Log    INFO      in transmitter_1,                Axi Stream Send.  TData: 000100A7  TStrb: 1111  TKeep: 1111  TID: 00  TDest: 0  TUser: 0  TLast: 0  Operation# 167
%%  8310 ns    Log    PASSED    in receiver_1: Data Check,       Operation# 167  Received.  Data: 000100A7  TID: 00  TDest: 0  TUser: 0  TLast: 0
%%  8330 ns    Log    INFO      in transmitter_1,                Axi Stream Send.  TData: 000100A8  TStrb: 1111  TKeep: 1111  TID: 00  TDest: 0  TUser: 0  TLast: 0  Operation# 168
%%  8340 ns    Log    PASSED    in receiver_1: Data Check,       Operation# 168  Received.  Data: 000100A8  TID: 00  TDest: 0  TUser: 0  TLast: 0
%%  8340 ns    Log    INFO      in transmitter_1,                Axi Stream Send.  TData: 000100A9  TStrb: 1111  TKeep: 1111  TID: 00  TDest: 0  TUser: 0  TLast: 0  Operation# 169
%%  8370 ns    Log    PASSED    in receiver_1: Data Check,       Operation# 169  Received.  Data: 000100A9  TID: 00  TDest: 0  TUser: 0  TLast: 0
%%  8370 ns    Log    INFO      in transmitter_1,                Axi Stream Send.  TData: 000100AA  TStrb: 1111  TKeep: 1111  TID: 00  TDest: 0  TUser: 0  TLast: 0  Operation# 170
%%  8380 ns    Log    PASSED    in receiver_1: Data Check,       Operation# 170  Received.  Data: 000100AA  TID: 00  TDest: 0  TUser: 0  TLast: 0
%%  8460 ns    Log    INFO      in transmitter_1,                Axi Stream Send.  TData: 000100AB  TStrb: 1111  TKeep: 1111  TID: 00  TDest: 0  TUser: 0  TLast: 0  Operation# 171
%%  8470 ns    Log    PASSED    in receiver_1: Data Check,       Operation# 171  Received.  Data: 000100AB  TID: 00  TDest: 0  TUser: 0  TLast: 0
%%  8480 ns    Log    INFO      in transmitter_1,                Axi Stream Send.  TData: 000100AC  TStrb: 1111  TKeep: 1111  TID: 00  TDest: 0  TUser: 0  TLast: 0  Operation# 172
%%  8490 ns    Log    PASSED    in receiver_1: Data Check,       Operation# 172  Received.  Data: 000100AC  TID: 00  TDest: 0  TUser: 0  TLast: 0
%%  8490 ns    Log    INFO      in transmitter_1,                Axi Stream Send.  TData: 000100AD  TStrb: 1111  TKeep: 1111  TID: 00  TDest: 0  TUser: 0  TLast: 0  Operation# 173
%%  8570 ns    Log    PASSED    in receiver_1: Data Check,       Operation# 173  Received.  Data: 000100AD  TID: 00  TDest: 0  TUser: 0  TLast: 0
%%  8570 ns    Log    INFO      in transmitter_1,                Axi Stream Send.  TData: 000100AE  TStrb: 1111  TKeep: 1111  TID: 00  TDest: 0  TUser: 0  TLast: 0  Operation# 174
%%  8580 ns    Log    PASSED    in receiver_1: Data Check,       Operation# 174  Received.  Data: 000100AE  TID: 00  TDest: 0  TUser: 0  TLast: 0
%%  8600 ns    Log    INFO      in transmitter_1,                Axi Stream Send.  TData: 000100AF  TStrb: 1111  TKeep: 1111  TID: 00  TDest: 0  TUser: 0  TLast: 0  Operation# 175
%%  8610 ns    Log    PASSED    in receiver_1: Data Check,       Operation# 175  Received.  Data: 000100AF  TID: 00  TDest: 0  TUser: 0  TLast: 0
%%  8610 ns    Log    INFO      in transmitter_1,                Axi Stream Send.  TData: 000100B0  TStrb: 1111  TKeep: 1111  TID: 00  TDest: 0  TUser: 0  TLast: 0  Operation# 176
%%  8620 ns    Log    PASSED    in receiver_1: Data Check,       Operation# 176  Received.  Data: 000100B0  TID: 00  TDest: 0  TUser: 0  TLast: 0
%%  8620 ns    Log    INFO      in transmitter_1,                Axi Stream Send.  TData: 000100B1  TStrb: 1111  TKeep: 1111  TID: 00  TDest: 0  TUser: 0  TLast: 0  Operation# 177
%%  8630 ns    Log    PASSED    in receiver_1: Data Check,       Operation# 177  Received.  Data: 000100B1  TID: 00  TDest: 0  TUser: 0  TLast: 0
%%  8630 ns    Log    INFO      in transmitter_1,                Axi Stream Send.  TData: 000100B2  TStrb: 1111  TKeep: 1111  TID: 00  TDest: 0  TUser: 0  TLast: 0  Operation# 178
%%  8640 ns    Log    PASSED    in receiver_1: Data Check,       Operation# 178  Received.  Data: 000100B2  TID: 00  TDest: 0  TUser: 0  TLast: 0
%%  8650 ns    Log    INFO      in transmitter_1,                Axi Stream Send.  TData: 000100B3  TStrb: 1111  TKeep: 1111  TID: 00  TDest: 0  TUser: 0  TLast: 0  Operation# 179
%%  8660 ns    Log    PASSED    in receiver_1: Data Check,       Operation# 179  Received.  Data: 000100B3  TID: 00  TDest: 0  TUser: 0  TLast: 0
%%  9780 ns    Log    INFO      in transmitter_1,                Axi Stream Send.  TData: 000100B4  TStrb: 1111  TKeep: 1111  TID: 00  TDest: 0  TUser: 0  TLast: 0  Operation# 180
%%  9790 ns    Log    PASSED    in receiver_1: Data Check,       Operation# 180  Received.  Data: 000100B4  TID: 00  TDest: 0  TUser: 0  TLast: 0
%%  9790 ns    Log    INFO      in transmitter_1,                Axi Stream Send.  TData: 000100B5  TStrb: 1111  TKeep: 1111  TID: 00  TDest: 0  TUser: 0  TLast: 0  Operation# 181
%%  9800 ns    Log    PASSED    in receiver_1: Data Check,       Operation# 181  Received.  Data: 000100B5  TID: 00  TDest: 0  TUser: 0  TLast: 0
%%  9800 ns    Log    INFO      in transmitter_1,                Axi Stream Send.  TData: 000100B6  TStrb: 1111  TKeep: 1111  TID: 00  TDest: 0  TUser: 0  TLast: 0  Operation# 182
%%  9810 ns    Log    PASSED    in receiver_1: Data Check,       Operation# 182  Received.  Data: 000100B6  TID: 00  TDest: 0  TUser: 0  TLast: 0
%%  9810 ns    Log    INFO      in transmitter_1,                Axi Stream Send.  TData: 000100B7  TStrb: 1111  TKeep: 1111  TID: 00  TDest: 0  TUser: 0  TLast: 0  Operation# 183
%%  9820 ns    Log    PASSED    in receiver_1: Data Check,       Operation# 183  Received.  Data: 000100B7  TID: 00  TDest: 0  TUser: 0  TLast: 0
%%  9820 ns    Log    INFO      in transmitter_1,                Axi Stream Send.  TData: 000100B8  TStrb: 1111  TKeep: 1111  TID: 00  TDest: 0  TUser: 0  TLast: 0  Operation# 184
%%  9830 ns    Log    PASSED    in receiver_1: Data Check,       Operation# 184  Received.  Data: 000100B8  TID: 00  TDest: 0  TUser: 0  TLast: 0
%%  9890 ns    Log    INFO      in transmitter_1,                Axi Stream Send.  TData: 000100B9  TStrb: 1111  TKeep: 1111  TID: 00  TDest: 0  TUser: 0  TLast: 0  Operation# 185
%%  9900 ns    Log    PASSED    in receiver_1: Data Check,       Operation# 185  Received.  Data: 000100B9  TID: 00  TDest: 0  TUser: 0  TLast: 0
%%  9900 ns    Log    INFO      in transmitter_1,                Axi Stream Send.  TData: 000100BA  TStrb: 1111  TKeep: 1111  TID: 00  TDest: 0  TUser: 0  TLast: 0  Operation# 186
%%  9910 ns    Log    PASSED    in receiver_1: Data Check,       Operation# 186  Received.  Data: 000100BA  TID: 00  TDest: 0  TUser: 0  TLast: 0
%%  9910 ns    Log    INFO      in transmitter_1,                Axi Stream Send.  TData: 000100BB  TStrb: 1111  TKeep: 1111  TID: 00  TDest: 0  TUser: 0  TLast: 0  Operation# 187
%%  9920 ns    Log    PASSED    in receiver_1: Data Check,       Operation# 187  Received.  Data: 000100BB  TID: 00  TDest: 0  TUser: 0  TLast: 0
%%  9920 ns    Log    INFO      in transmitter_1,                Axi Stream Send.  TData: 000100BC  TStrb: 1111  TKeep: 1111  TID: 00  TDest: 0  TUser: 0  TLast: 0  Operation# 188
%%  9940 ns    Log    PASSED    in receiver_1: Data Check,       Operation# 188  Received.  Data: 000100BC  TID: 00  TDest: 0  TUser: 0  TLast: 0
%%  9950 ns    Log    INFO      in transmitter_1,                Axi Stream Send.  TData: 000100BD  TStrb: 1111  TKeep: 1111  TID: 00  TDest: 0  TUser: 0  TLast: 0  Operation# 189
%%  9960 ns    Log    PASSED    in receiver_1: Data Check,       Operation# 189  Received.  Data: 000100BD  TID: 00  TDest: 0  TUser: 0  TLast: 0
%%  9960 ns    Log    INFO      in transmitter_1,                Axi Stream Send.  TData: 000100BE  TStrb: 1111  TKeep: 1111  TID: 00  TDest: 0  TUser: 0  TLast: 0  Operation# 190
%%  9970 ns    Log    PASSED    in receiver_1: Data Check,       Operation# 190  Received.  Data: 000100BE  TID: 00  TDest: 0  TUser: 0  TLast: 0
%%  9970 ns    Log    INFO      in transmitter_1,                Axi Stream Send.  TData: 000100BF  TStrb: 1111  TKeep: 1111  TID: 00  TDest: 0  TUser: 0  TLast: 0  Operation# 191
%%  9980 ns    Log    PASSED    in receiver_1: Data Check,       Operation# 191  Received.  Data: 000100BF  TID: 00  TDest: 0  TUser: 0  TLast: 0
%%  9980 ns    Log    INFO      in transmitter_1,                Axi Stream Send.  TData: 000100C0  TStrb: 1111  TKeep: 1111  TID: 00  TDest: 0  TUser: 0  TLast: 0  Operation# 192
%%  9990 ns    Log    PASSED    in receiver_1: Data Check,       Operation# 192  Received.  Data: 000100C0  TID: 00  TDest: 0  TUser: 0  TLast: 0
%% 10050 ns    Log    INFO      in transmitter_1,                Axi Stream Send.  TData: 000100C1  TStrb: 1111  TKeep: 1111  TID: 00  TDest: 0  TUser: 0  TLast: 0  Operation# 193
%% 10060 ns    Log    PASSED    in receiver_1: Data Check,       Operation# 193  Received.  Data: 000100C1  TID: 00  TDest: 0  TUser: 0  TLast: 0
%% 10060 ns    Log    INFO      in transmitter_1,                Axi Stream Send.  TData: 000100C2  TStrb: 1111  TKeep: 1111  TID: 00  TDest: 0  TUser: 0  TLast: 0  Operation# 194
%% 10070 ns    Log    PASSED    in receiver_1: Data Check,       Operation# 194  Received.  Data: 000100C2  TID: 00  TDest: 0  TUser: 0  TLast: 0
%% 10070 ns    Log    INFO      in transmitter_1,                Axi Stream Send.  TData: 000100C3  TStrb: 1111  TKeep: 1111  TID: 00  TDest: 0  TUser: 0  TLast: 0  Operation# 195
%% 10090 ns    Log    PASSED    in receiver_1: Data Check,       Operation# 195  Received.  Data: 000100C3  TID: 00  TDest: 0  TUser: 0  TLast: 0
%% 10090 ns    Log    INFO      in transmitter_1,                Axi Stream Send.  TData: 000100C4  TStrb: 1111  TKeep: 1111  TID: 00  TDest: 0  TUser: 0  TLast: 0  Operation# 196
%% 10100 ns    Log    PASSED    in receiver_1: Data Check,       Operation# 196  Received.  Data: 000100C4  TID: 00  TDest: 0  TUser: 0  TLast: 0
%% 11310 ns    Log    INFO      in transmitter_1,                Axi Stream Send.  TData: 000100C5  TStrb: 1111  TKeep: 1111  TID: 00  TDest: 0  TUser: 0  TLast: 0  Operation# 197
%% 11320 ns    Log    PASSED    in receiver_1: Data Check,       Operation# 197  Received.  Data: 000100C5  TID: 00  TDest: 0  TUser: 0  TLast: 0
%% 11320 ns    Log    INFO      in transmitter_1,                Axi Stream Send.  TData: 000100C6  TStrb: 1111  TKeep: 1111  TID: 00  TDest: 0  TUser: 0  TLast: 0  Operation# 198
%% 11340 ns    Log    PASSED    in receiver_1: Data Check,       Operation# 198  Received.  Data: 000100C6  TID: 00  TDest: 0  TUser: 0  TLast: 0
%% 11340 ns    Log    INFO      in transmitter_1,                Axi Stream Send.  TData: 000100C7  TStrb: 1111  TKeep: 1111  TID: 00  TDest: 0  TUser: 0  TLast: 0  Operation# 199
%% 11350 ns    Log    PASSED    in receiver_1: Data Check,       Operation# 199  Received.  Data: 000100C7  TID: 00  TDest: 0  TUser: 0  TLast: 0
%% 11360 ns    Log    INFO      in transmitter_1,                Axi Stream Send.  TData: 000100C8  TStrb: 1111  TKeep: 1111  TID: 00  TDest: 0  TUser: 0  TLast: 0  Operation# 200
%% 11370 ns    Log    PASSED    in receiver_1: Data Check,       Operation# 200  Received.  Data: 000100C8  TID: 00  TDest: 0  TUser: 0  TLast: 0
%% 11370 ns    Log    INFO      in transmitter_1,                Axi Stream Send.  TData: 000100C9  TStrb: 1111  TKeep: 1111  TID: 00  TDest: 0  TUser: 0  TLast: 0  Operation# 201
%% 11380 ns    Log    PASSED    in receiver_1: Data Check,       Operation# 201  Received.  Data: 000100C9  TID: 00  TDest: 0  TUser: 0  TLast: 0
%% 11380 ns    Log    INFO      in transmitter_1,                Axi Stream Send.  TData: 000100CA  TStrb: 1111  TKeep: 1111  TID: 00  TDest: 0  TUser: 0  TLast: 0  Operation# 202
%% 11390 ns    Log    PASSED    in receiver_1: Data Check,       Operation# 202  Received.  Data: 000100CA  TID: 00  TDest: 0  TUser: 0  TLast: 0
%% 11400 ns    Log    INFO      in transmitter_1,                Axi Stream Send.  TData: 000100CB  TStrb: 1111  TKeep: 1111  TID: 00  TDest: 0  TUser: 0  TLast: 0  Operation# 203
%% 11410 ns    Log    PASSED    in receiver_1: Data Check,       Operation# 203  Received.  Data: 000100CB  TID: 00  TDest: 0  TUser: 0  TLast: 0
%% 11430 ns    Log    INFO      in transmitter_1,                Axi Stream Send.  TData: 000100CC  TStrb: 1111  TKeep: 1111  TID: 00  TDest: 0  TUser: 0  TLast: 0  Operation# 204
%% 11440 ns    Log    PASSED    in receiver_1: Data Check,       Operation# 204  Received.  Data: 000100CC  TID: 00  TDest: 0  TUser: 0  TLast: 0
%% 11440 ns    Log    INFO      in transmitter_1,                Axi Stream Send.  TData: 000100CD  TStrb: 1111  TKeep: 1111  TID: 00  TDest: 0  TUser: 0  TLast: 0  Operation# 205
%% 11450 ns    Log    PASSED    in receiver_1: Data Check,       Operation# 205  Received.  Data: 000100CD  TID: 00  TDest: 0  TUser: 0  TLast: 0
%% 12540 ns    Log    INFO      in transmitter_1,                Axi Stream Send.  TData: 000100CE  TStrb: 1111  TKeep: 1111  TID: 00  TDest: 0  TUser: 0  TLast: 0  Operation# 206
%% 12550 ns    Log    PASSED    in receiver_1: Data Check,       Operation# 206  Received.  Data: 000100CE  TID: 00  TDest: 0  TUser: 0  TLast: 0
%% 12550 ns    Log    INFO      in transmitter_1,                Axi Stream Send.  TData: 000100CF  TStrb: 1111  TKeep: 1111  TID: 00  TDest: 0  TUser: 0  TLast: 0  Operation# 207
%% 12560 ns    Log    PASSED    in receiver_1: Data Check,       Operation# 207  Received.  Data: 000100CF  TID: 00  TDest: 0  TUser: 0  TLast: 0
%% 12560 ns    Log    INFO      in transmitter_1,                Axi Stream Send.  TData: 000100D0  TStrb: 1111  TKeep: 1111  TID: 00  TDest: 0  TUser: 0  TLast: 0  Operation# 208
%% 12570 ns    Log    PASSED    in receiver_1: Data Check,       Operation# 208  Received.  Data: 000100D0  TID: 00  TDest: 0  TUser: 0  TLast: 0
%% 12570 ns    Log    INFO      in transmitter_1,                Axi Stream Send.  TData: 000100D1  TStrb: 1111  TKeep: 1111  TID: 00  TDest: 0  TUser: 0  TLast: 0  Operation# 209
%% 12580 ns    Log    PASSED    in receiver_1: Data Check,       Operation# 209  Received.  Data: 000100D1  TID: 00  TDest: 0  TUser: 0  TLast: 0
%% 12580 ns    Log    INFO      in transmitter_1,                Axi Stream Send.  TData: 000100D2  TStrb: 1111  TKeep: 1111  TID: 00  TDest: 0  TUser: 0  TLast: 0  Operation# 210
%% 12590 ns    Log    PASSED    in receiver_1: Data Check,       Operation# 210  Received.  Data: 000100D2  TID: 00  TDest: 0  TUser: 0  TLast: 0
%% 12600 ns    Log    INFO      in transmitter_1,                Axi Stream Send.  TData: 000100D3  TStrb: 1111  TKeep: 1111  TID: 00  TDest: 0  TUser: 0  TLast: 0  Operation# 211
%% 12610 ns    Log    PASSED    in receiver_1: Data Check,       Operation# 211  Received.  Data: 000100D3  TID: 00  TDest: 0  TUser: 0  TLast: 0
%% 12610 ns    Log    INFO      in transmitter_1,                Axi Stream Send.  TData: 000100D4  TStrb: 1111  TKeep: 1111  TID: 00  TDest: 0  TUser: 0  TLast: 0  Operation# 212
%% 12620 ns    Log    PASSED    in receiver_1: Data Check,       Operation# 212  Received.  Data: 000100D4  TID: 00  TDest: 0  TUser: 0  TLast: 0
%% 12620 ns    Log    INFO      in transmitter_1,                Axi Stream Send.  TData: 000100D5  TStrb: 1111  TKeep: 1111  TID: 00  TDest: 0  TUser: 0  TLast: 0  Operation# 213
%% 12630 ns    Log    PASSED    in receiver_1: Data Check,       Operation# 213  Received.  Data: 000100D5  TID: 00  TDest: 0  TUser: 0  TLast: 0
%% 12630 ns    Log    INFO      in transmitter_1,                Axi Stream Send.  TData: 000100D6  TStrb: 1111  TKeep: 1111  TID: 00  TDest: 0  TUser: 0  TLast: 0  Operation# 214
%% 12640 ns    Log    PASSED    in receiver_1: Data Check,       Operation# 214  Received.  Data: 000100D6  TID: 00  TDest: 0  TUser: 0  TLast: 0
%% 12640 ns    Log    INFO      in transmitter_1,                Axi Stream Send.  TData: 000100D7  TStrb: 1111  TKeep: 1111  TID: 00  TDest: 0  TUser: 0  TLast: 0  Operation# 215
%% 12650 ns    Log    PASSED    in receiver_1: Data Check,       Operation# 215  Received.  Data: 000100D7  TID: 00  TDest: 0  TUser: 0  TLast: 0
%% 12650 ns    Log    INFO      in transmitter_1,                Axi Stream Send.  TData: 000100D8  TStrb: 1111  TKeep: 1111  TID: 00  TDest: 0  TUser: 0  TLast: 0  Operation# 216
%% 12660 ns    Log    PASSED    in receiver_1: Data Check,       Operation# 216  Received.  Data: 000100D8  TID: 00  TDest: 0  TUser: 0  TLast: 0
%% 12660 ns    Log    INFO      in transmitter_1,                Axi Stream Send.  TData: 000100D9  TStrb: 1111  TKeep: 1111  TID: 00  TDest: 0  TUser: 0  TLast: 0  Operation# 217
%% 12670 ns    Log    PASSED    in receiver_1: Data Check,       Operation# 217  Received.  Data: 000100D9  TID: 00  TDest: 0  TUser: 0  TLast: 0
%% 12670 ns    Log    INFO      in transmitter_1,                Axi Stream Send.  TData: 000100DA  TStrb: 1111  TKeep: 1111  TID: 00  TDest: 0  TUser: 0  TLast: 0  Operation# 218
%% 12680 ns    Log    PASSED    in receiver_1: Data Check,       Operation# 218  Received.  Data: 000100DA  TID: 00  TDest: 0  TUser: 0  TLast: 0
%% 12680 ns    Log    INFO      in transmitter_1,                Axi Stream Send.  TData: 000100DB  TStrb: 1111  TKeep: 1111  TID: 00  TDest: 0  TUser: 0  TLast: 0  Operation# 219
%% 12690 ns    Log    PASSED    in receiver_1: Data Check,       Operation# 219  Received.  Data: 000100DB  TID: 00  TDest: 0  TUser: 0  TLast: 0
%% 12690 ns    Log    INFO      in transmitter_1,                Axi Stream Send.  TData: 000100DC  TStrb: 1111  TKeep: 1111  TID: 00  TDest: 0  TUser: 0  TLast: 0  Operation# 220
%% 12720 ns    Log    PASSED    in receiver_1: Data Check,       Operation# 220  Received.  Data: 000100DC  TID: 00  TDest: 0  TUser: 0  TLast: 0
%% 12720 ns    Log    INFO      in transmitter_1,                Axi Stream Send.  TData: 000100DD  TStrb: 1111  TKeep: 1111  TID: 00  TDest: 0  TUser: 0  TLast: 0  Operation# 221
%% 12730 ns    Log    PASSED    in receiver_1: Data Check,       Operation# 221  Received.  Data: 000100DD  TID: 00  TDest: 0  TUser: 0  TLast: 0
%% 12740 ns    Log    INFO      in transmitter_1,                Axi Stream Send.  TData: 000100DE  TStrb: 1111  TKeep: 1111  TID: 00  TDest: 0  TUser: 0  TLast: 0  Operation# 222
%% 12750 ns    Log    PASSED    in receiver_1: Data Check,       Operation# 222  Received.  Data: 000100DE  TID: 00  TDest: 0  TUser: 0  TLast: 0
%% 12750 ns    Log    INFO      in transmitter_1,                Axi Stream Send.  TData: 000100DF  TStrb: 1111  TKeep: 1111  TID: 00  TDest: 0  TUser: 0  TLast: 0  Operation# 223
%% 12760 ns    Log    PASSED    in receiver_1: Data Check,       Operation# 223  Received.  Data: 000100DF  TID: 00  TDest: 0  TUser: 0  TLast: 0
%% 12760 ns    Log    INFO      in transmitter_1,                Axi Stream Send.  TData: 000100E0  TStrb: 1111  TKeep: 1111  TID: 00  TDest: 0  TUser: 0  TLast: 0  Operation# 224
%% 12780 ns    Log    PASSED    in receiver_1: Data Check,       Operation# 224  Received.  Data: 000100E0  TID: 00  TDest: 0  TUser: 0  TLast: 0
%% 12790 ns    Log    INFO      in transmitter_1,                Axi Stream Send.  TData: 000100E1  TStrb: 1111  TKeep: 1111  TID: 00  TDest: 0  TUser: 0  TLast: 0  Operation# 225
%% 12820 ns    Log    PASSED    in receiver_1: Data Check,       Operation# 225  Received.  Data: 000100E1  TID: 00  TDest: 0  TUser: 0  TLast: 0
%% 12820 ns    Log    INFO      in transmitter_1,                Axi Stream Send.  TData: 000100E2  TStrb: 1111  TKeep: 1111  TID: 00  TDest: 0  TUser: 0  TLast: 0  Operation# 226
%% 12830 ns    Log    PASSED    in receiver_1: Data Check,       Operation# 226  Received.  Data: 000100E2  TID: 00  TDest: 0  TUser: 0  TLast: 0
%% 12830 ns    Log    INFO      in transmitter_1,                Axi Stream Send.  TData: 000100E3  TStrb: 1111  TKeep: 1111  TID: 00  TDest: 0  TUser: 0  TLast: 0  Operation# 227
%% 12840 ns    Log    PASSED    in receiver_1: Data Check,       Operation# 227  Received.  Data: 000100E3  TID: 00  TDest: 0  TUser: 0  TLast: 0
%% 12840 ns    Log    INFO      in transmitter_1,                Axi Stream Send.  TData: 000100E4  TStrb: 1111  TKeep: 1111  TID: 00  TDest: 0  TUser: 0  TLast: 0  Operation# 228
%% 12850 ns    Log    PASSED    in receiver_1: Data Check,       Operation# 228  Received.  Data: 000100E4  TID: 00  TDest: 0  TUser: 0  TLast: 0
%% 12870 ns    Log    INFO      in transmitter_1,                Axi Stream Send.  TData: 000100E5  TStrb: 1111  TKeep: 1111  TID: 00  TDest: 0  TUser: 0  TLast: 0  Operation# 229
%% 12880 ns    Log    PASSED    in receiver_1: Data Check,       Operation# 229  Received.  Data: 000100E5  TID: 00  TDest: 0  TUser: 0  TLast: 0
%% 12880 ns    Log    INFO      in transmitter_1,                Axi Stream Send.  TData: 000100E6  TStrb: 1111  TKeep: 1111  TID: 00  TDest: 0  TUser: 0  TLast: 0  Operation# 230
%% 12890 ns    Log    PASSED    in receiver_1: Data Check,       Operation# 230  Received.  Data: 000100E6  TID: 00  TDest: 0  TUser: 0  TLast: 0
%% 12890 ns    Log    INFO      in transmitter_1,                Axi Stream Send.  TData: 000100E7  TStrb: 1111  TKeep: 1111  TID: 00  TDest: 0  TUser: 0  TLast: 0  Operation# 231
%% 12920 ns    Log    PASSED    in receiver_1: Data Check,       Operation# 231  Received.  Data: 000100E7  TID: 00  TDest: 0  TUser: 0  TLast: 0
%% 12930 ns    Log    INFO      in transmitter_1,                Axi Stream Send.  TData: 000100E8  TStrb: 1111  TKeep: 1111  TID: 00  TDest: 0  TUser: 0  TLast: 0  Operation# 232
%% 12940 ns    Log    PASSED    in receiver_1: Data Check,       Operation# 232  Received.  Data: 000100E8  TID: 00  TDest: 0  TUser: 0  TLast: 0
%% 12940 ns    Log    INFO      in transmitter_1,                Axi Stream Send.  TData: 000100E9  TStrb: 1111  TKeep: 1111  TID: 00  TDest: 0  TUser: 0  TLast: 0  Operation# 233
%% 12950 ns    Log    PASSED    in receiver_1: Data Check,       Operation# 233  Received.  Data: 000100E9  TID: 00  TDest: 0  TUser: 0  TLast: 0
%% 12950 ns    Log    INFO      in transmitter_1,                Axi Stream Send.  TData: 000100EA  TStrb: 1111  TKeep: 1111  TID: 00  TDest: 0  TUser: 0  TLast: 0  Operation# 234
%% 12960 ns    Log    PASSED    in receiver_1: Data Check,       Operation# 234  Received.  Data: 000100EA  TID: 00  TDest: 0  TUser: 0  TLast: 0
%% 12970 ns    Log    INFO      in transmitter_1,                Axi Stream Send.  TData: 000100EB  TStrb: 1111  TKeep: 1111  TID: 00  TDest: 0  TUser: 0  TLast: 0  Operation# 235
%% 12980 ns    Log    PASSED    in receiver_1: Data Check,       Operation# 235  Received.  Data: 000100EB  TID: 00  TDest: 0  TUser: 0  TLast: 0
%% 12980 ns    Log    INFO      in transmitter_1,                Axi Stream Send.  TData: 000100EC  TStrb: 1111  TKeep: 1111  TID: 00  TDest: 0  TUser: 0  TLast: 0  Operation# 236
%% 12990 ns    Log    PASSED    in receiver_1: Data Check,       Operation# 236  Received.  Data: 000100EC  TID: 00  TDest: 0  TUser: 0  TLast: 0
%% 13010 ns    Log    INFO      in transmitter_1,                Axi Stream Send.  TData: 000100ED  TStrb: 1111  TKeep: 1111  TID: 00  TDest: 0  TUser: 0  TLast: 0  Operation# 237
%% 13020 ns    Log    PASSED    in receiver_1: Data Check,       Operation# 237  Received.  Data: 000100ED  TID: 00  TDest: 0  TUser: 0  TLast: 0
%% 13030 ns    Log    INFO      in transmitter_1,                Axi Stream Send.  TData: 000100EE  TStrb: 1111  TKeep: 1111  TID: 00  TDest: 0  TUser: 0  TLast: 0  Operation# 238
%% 13040 ns    Log    PASSED    in receiver_1: Data Check,       Operation# 238  Received.  Data: 000100EE  TID: 00  TDest: 0  TUser: 0  TLast: 0
%% 13040 ns    Log    INFO      in transmitter_1,                Axi Stream Send.  TData: 000100EF  TStrb: 1111  TKeep: 1111  TID: 00  TDest: 0  TUser: 0  TLast: 0  Operation# 239
%% 13050 ns    Log    PASSED    in receiver_1: Data Check,       Operation# 239  Received.  Data: 000100EF  TID: 00  TDest: 0  TUser: 0  TLast: 0
%% 13050 ns    Log    INFO      in transmitter_1,                Axi Stream Send.  TData: 000100F0  TStrb: 1111  TKeep: 1111  TID: 00  TDest: 0  TUser: 0  TLast: 0  Operation# 240
%% 13060 ns    Log    PASSED    in receiver_1: Data Check,       Operation# 240  Received.  Data: 000100F0  TID: 00  TDest: 0  TUser: 0  TLast: 0
%% 13060 ns    Log    INFO      in transmitter_1,                Axi Stream Send.  TData: 000100F1  TStrb: 1111  TKeep: 1111  TID: 00  TDest: 0  TUser: 0  TLast: 0  Operation# 241
%% 13070 ns    Log    PASSED    in receiver_1: Data Check,       Operation# 241  Received.  Data: 000100F1  TID: 00  TDest: 0  TUser: 0  TLast: 0
%% 13070 ns    Log    INFO      in transmitter_1,                Axi Stream Send.  TData: 000100F2  TStrb: 1111  TKeep: 1111  TID: 00  TDest: 0  TUser: 0  TLast: 0  Operation# 242
%% 13080 ns    Log    PASSED    in receiver_1: Data Check,       Operation# 242  Received.  Data: 000100F2  TID: 00  TDest: 0  TUser: 0  TLast: 0
%% 13080 ns    Log    INFO      in transmitter_1,                Axi Stream Send.  TData: 000100F3  TStrb: 1111  TKeep: 1111  TID: 00  TDest: 0  TUser: 0  TLast: 0  Operation# 243
%% 13100 ns    Log    PASSED    in receiver_1: Data Check,       Operation# 243  Received.  Data: 000100F3  TID: 00  TDest: 0  TUser: 0  TLast: 0
%% 13100 ns    Log    INFO      in transmitter_1,                Axi Stream Send.  TData: 000100F4  TStrb: 1111  TKeep: 1111  TID: 00  TDest: 0  TUser: 0  TLast: 0  Operation# 244
%% 13110 ns    Log    PASSED    in receiver_1: Data Check,       Operation# 244  Received.  Data: 000100F4  TID: 00  TDest: 0  TUser: 0  TLast: 0
%% 13110 ns    Log    INFO      in transmitter_1,                Axi Stream Send.  TData: 000100F5  TStrb: 1111  TKeep: 1111  TID: 00  TDest: 0  TUser: 0  TLast: 0  Operation# 245
%% 13120 ns    Log    PASSED    in receiver_1: Data Check,       Operation# 245  Received.  Data: 000100F5  TID: 00  TDest: 0  TUser: 0  TLast: 0
%% 13140 ns    Log    INFO      in transmitter_1,                Axi Stream Send.  TData: 000100F6  TStrb: 1111  TKeep: 1111  TID: 00  TDest: 0  TUser: 0  TLast: 0  Operation# 246
%% 13150 ns    Log    PASSED    in receiver_1: Data Check,       Operation# 246  Received.  Data: 000100F6  TID: 00  TDest: 0  TUser: 0  TLast: 0
%% 13150 ns    Log    INFO      in transmitter_1,                Axi Stream Send.  TData: 000100F7  TStrb: 1111  TKeep: 1111  TID: 00  TDest: 0  TUser: 0  TLast: 0  Operation# 247
%% 13160 ns    Log    PASSED    in receiver_1: Data Check,       Operation# 247  Received.  Data: 000100F7  TID: 00  TDest: 0  TUser: 0  TLast: 0
%% 13160 ns    Log    INFO      in transmitter_1,                Axi Stream Send.  TData: 000100F8  TStrb: 1111  TKeep: 1111  TID: 00  TDest: 0  TUser: 0  TLast: 0  Operation# 248
%% 13180 ns    Log    PASSED    in receiver_1: Data Check,       Operation# 248  Received.  Data: 000100F8  TID: 00  TDest: 0  TUser: 0  TLast: 0
%% 13180 ns    Log    INFO      in transmitter_1,                Axi Stream Send.  TData: 000100F9  TStrb: 1111  TKeep: 1111  TID: 00  TDest: 0  TUser: 0  TLast: 0  Operation# 249
%% 13200 ns    Log    PASSED    in receiver_1: Data Check,       Operation# 249  Received.  Data: 000100F9  TID: 00  TDest: 0  TUser: 0  TLast: 0
%% 13200 ns    Log    INFO      in transmitter_1,                Axi Stream Send.  TData: 000100FA  TStrb: 1111  TKeep: 1111  TID: 00  TDest: 0  TUser: 0  TLast: 0  Operation# 250
%% 13210 ns    Log    PASSED    in receiver_1: Data Check,       Operation# 250  Received.  Data: 000100FA  TID: 00  TDest: 0  TUser: 0  TLast: 0
%% 13210 ns    Log    INFO      in transmitter_1,                Axi Stream Send.  TData: 000100FB  TStrb: 1111  TKeep: 1111  TID: 00  TDest: 0  TUser: 0  TLast: 0  Operation# 251
%% 13240 ns    Log    PASSED    in receiver_1: Data Check,       Operation# 251  Received.  Data: 000100FB  TID: 00  TDest: 0  TUser: 0  TLast: 0
%% 13240 ns    Log    INFO      in transmitter_1,                Axi Stream Send.  TData: 000100FC  TStrb: 1111  TKeep: 1111  TID: 00  TDest: 0  TUser: 0  TLast: 0  Operation# 252
%% 13270 ns    Log    PASSED    in receiver_1: Data Check,       Operation# 252  Received.  Data: 000100FC  TID: 00  TDest: 0  TUser: 0  TLast: 0
%% 13270 ns    Log    INFO      in transmitter_1,                Axi Stream Send.  TData: 000100FD  TStrb: 1111  TKeep: 1111  TID: 00  TDest: 0  TUser: 0  TLast: 0  Operation# 253
%% 13280 ns    Log    PASSED    in receiver_1: Data Check,       Operation# 253  Received.  Data: 000100FD  TID: 00  TDest: 0  TUser: 0  TLast: 0
%% 13280 ns    Log    INFO      in transmitter_1,                Axi Stream Send.  TData: 000100FE  TStrb: 1111  TKeep: 1111  TID: 00  TDest: 0  TUser: 0  TLast: 0  Operation# 254
%% 13290 ns    Log    PASSED    in receiver_1: Data Check,       Operation# 254  Received.  Data: 000100FE  TID: 00  TDest: 0  TUser: 0  TLast: 0
%% 13290 ns    Log    INFO      in transmitter_1,                Axi Stream Send.  TData: 000100FF  TStrb: 1111  TKeep: 1111  TID: 00  TDest: 0  TUser: 0  TLast: 0  Operation# 255
%% 13300 ns    Log    PASSED    in receiver_1: Data Check,       Operation# 255  Received.  Data: 000100FF  TID: 00  TDest: 0  TUser: 0  TLast: 0
%% 13300 ns    Log    INFO      in transmitter_1,                Axi Stream Send.  TData: 00010100  TStrb: 1111  TKeep: 1111  TID: 00  TDest: 0  TUser: 0  TLast: 0  Operation# 256
%% 13320 ns    Log    PASSED    in receiver_1: Data Check,       Operation# 256  Received.  Data: 00010100  TID: 00  TDest: 0  TUser: 0  TLast: 0
%% 13320 ns    Log    ALWAYS    in Default,                      SendBurstIncrement 8 bursts of size 8
%% 13320 ns    Log    INFO      in transmitter_1,                Axi Stream Send.  TData: 00011000  TStrb: 1111  TKeep: 1111  TID: 00  TDest: 0  TUser: 0  TLast: 0  Operation# 257
%% 13330 ns    Log    INFO      in transmitter_1,                Axi Stream Send.  TData: 00011001  TStrb: 1111  TKeep: 1111  TID: 00  TDest: 0  TUser: 0  TLast: 0  Operation# 258
%% 13340 ns    Log    INFO      in transmitter_1,                Axi Stream Send.  TData: 00011002  TStrb: 1111  TKeep: 1111  TID: 00  TDest: 0  TUser: 0  TLast: 0  Operation# 259
%% 13350 ns    Log    INFO      in transmitter_1,                Axi Stream Send.  TData: 00011003  TStrb: 1111  TKeep: 1111  TID: 00  TDest: 0  TUser: 0  TLast: 0  Operation# 260
%% 13360 ns    Log    INFO      in transmitter_1,                Axi Stream Send.  TData: 00011004  TStrb: 1111  TKeep: 1111  TID: 00  TDest: 0  TUser: 0  TLast: 0  Operation# 261
%% 13370 ns    Log    INFO      in transmitter_1,                Axi Stream Send.  TData: 00011005  TStrb: 1111  TKeep: 1111  TID: 00  TDest: 0  TUser: 0  TLast: 0  Operation# 262
%% 13380 ns    Log    INFO      in transmitter_1,                Axi Stream Send.  TData: 00011006  TStrb: 1111  TKeep: 1111  TID: 00  TDest: 0  TUser: 0  TLast: 0  Operation# 263
%% 13390 ns    Log    INFO      in transmitter_1,                Axi Stream Send.  TData: 00011007  TStrb: 1111  TKeep: 1111  TID: 00  TDest: 0  TUser: 0  TLast: 1  Operation# 264
%% 13400 ns    Log    PASSED    in receiver_1: RxBurstFifo,      Received: 00011000   Item Number: 1
%% 13400 ns    Log    PASSED    in receiver_1: RxBurstFifo,      Received: 00011001   Item Number: 2
%% 13400 ns    Log    PASSED    in receiver_1: RxBurstFifo,      Received: 00011002   Item Number: 3
%% 13400 ns    Log    PASSED    in receiver_1: RxBurstFifo,      Received: 00011003   Item Number: 4
%% 13400 ns    Log    PASSED    in receiver_1: RxBurstFifo,      Received: 00011004   Item Number: 5
%% 13400 ns    Log    PASSED    in receiver_1: RxBurstFifo,      Received: 00011005   Item Number: 6
%% 13400 ns    Log    PASSED    in receiver_1: RxBurstFifo,      Received: 00011006   Item Number: 7
%% 13400 ns    Log    PASSED    in receiver_1: RxBurstFifo,      Received: 00011007   Item Number: 8
%% 13400 ns    Log    INFO      in receiver_1,                   Burst Check.  Operation# 257  Last Data: 00011007  TID: 00  TDest: 0  TUser: 0  TLast: 1
%% 13400 ns    Log    PASSED    in receiver_1,                   Burst Check WordCount Received : 8
%% 13400 ns    Log    PASSED    in receiver_1,                   ID Received : 00
%% 13400 ns    Log    PASSED    in receiver_1,                   DEST Received : 0
%% 13400 ns    Log    PASSED    in receiver_1,                   USER Received : 0
%% 13400 ns    Log    PASSED    in receiver_1,                   Last Received : 1
%% 13400 ns    Log    INFO      in transmitter_1,                Axi Stream Send.  TData: 00012000  TStrb: 1111  TKeep: 1111  TID: 00  TDest: 0  TUser: 0  TLast: 0  Operation# 265
%% 13410 ns    Log    INFO      in transmitter_1,                Axi Stream Send.  TData: 00012001  TStrb: 1111  TKeep: 1111  TID: 00  TDest: 0  TUser: 0  TLast: 0  Operation# 266
%% 13420 ns    Log    INFO      in transmitter_1,                Axi Stream Send.  TData: 00012002  TStrb: 1111  TKeep: 1111  TID: 00  TDest: 0  TUser: 0  TLast: 0  Operation# 267
%% 13430 ns    Log    INFO      in transmitter_1,                Axi Stream Send.  TData: 00012003  TStrb: 1111  TKeep: 1111  TID: 00  TDest: 0  TUser: 0  TLast: 0  Operation# 268
%% 13440 ns    Log    INFO      in transmitter_1,                Axi Stream Send.  TData: 00012004  TStrb: 1111  TKeep: 1111  TID: 00  TDest: 0  TUser: 0  TLast: 0  Operation# 269
%% 13470 ns    Log    INFO      in transmitter_1,                Axi Stream Send.  TData: 00012005  TStrb: 1111  TKeep: 1111  TID: 00  TDest: 0  TUser: 0  TLast: 0  Operation# 270
%% 13500 ns    Log    INFO      in transmitter_1,                Axi Stream Send.  TData: 00012006  TStrb: 1111  TKeep: 1111  TID: 00  TDest: 0  TUser: 0  TLast: 0  Operation# 271
%% 13510 ns    Log    INFO      in transmitter_1,                Axi Stream Send.  TData: 00012007  TStrb: 1111  TKeep: 1111  TID: 00  TDest: 0  TUser: 0  TLast: 1  Operation# 272
%% 13520 ns    Log    PASSED    in receiver_1: RxBurstFifo,      Received: 00012000   Item Number: 9
%% 13520 ns    Log    PASSED    in receiver_1: RxBurstFifo,      Received: 00012001   Item Number: 10
%% 13520 ns    Log    PASSED    in receiver_1: RxBurstFifo,      Received: 00012002   Item Number: 11
%% 13520 ns    Log    PASSED    in receiver_1: RxBurstFifo,      Received: 00012003   Item Number: 12
%% 13520 ns    Log    PASSED    in receiver_1: RxBurstFifo,      Received: 00012004   Item Number: 13
%% 13520 ns    Log    PASSED    in receiver_1: RxBurstFifo,      Received: 00012005   Item Number: 14
%% 13520 ns    Log    PASSED    in receiver_1: RxBurstFifo,      Received: 00012006   Item Number: 15
%% 13520 ns    Log    PASSED    in receiver_1: RxBurstFifo,      Received: 00012007   Item Number: 16
%% 13520 ns    Log    INFO      in receiver_1,                   Burst Check.  Operation# 258  Last Data: 00012007  TID: 00  TDest: 0  TUser: 0  TLast: 1
%% 13520 ns    Log    PASSED    in receiver_1,                   Burst Check WordCount Received : 8
%% 13520 ns    Log    PASSED    in receiver_1,                   ID Received : 00
%% 13520 ns    Log    PASSED    in receiver_1,                   DEST Received : 0
%% 13520 ns    Log    PASSED    in receiver_1,                   USER Received : 0
%% 13520 ns    Log    PASSED    in receiver_1,                   Last Received : 1
%% 13520 ns    Log    INFO      in transmitter_1,                Axi Stream Send.  TData: 00013000  TStrb: 1111  TKeep: 1111  TID: 00  TDest: 0  TUser: 0  TLast: 0  Operation# 273
%% 13530 ns    Log    INFO      in transmitter_1,                Axi Stream Send.  TData: 00013001  TStrb: 1111  TKeep: 1111  TID: 00  TDest: 0  TUser: 0  TLast: 0  Operation# 274
%% 13540 ns    Log    INFO      in transmitter_1,                Axi Stream Send.  TData: 00013002  TStrb: 1111  TKeep: 1111  TID: 00  TDest: 0  TUser: 0  TLast: 0  Operation# 275
%% 13550 ns    Log    INFO      in transmitter_1,                Axi Stream Send.  TData: 00013003  TStrb: 1111  TKeep: 1111  TID: 00  TDest: 0  TUser: 0  TLast: 0  Operation# 276
%% 13560 ns    Log    INFO      in transmitter_1,                Axi Stream Send.  TData: 00013004  TStrb: 1111  TKeep: 1111  TID: 00  TDest: 0  TUser: 0  TLast: 0  Operation# 277
%% 13580 ns    Log    INFO      in transmitter_1,                Axi Stream Send.  TData: 00013005  TStrb: 1111  TKeep: 1111  TID: 00  TDest: 0  TUser: 0  TLast: 0  Operation# 278
%% 13590 ns    Log    INFO      in transmitter_1,                Axi Stream Send.  TData: 00013006  TStrb: 1111  TKeep: 1111  TID: 00  TDest: 0  TUser: 0  TLast: 0  Operation# 279
%% 13600 ns    Log    INFO      in transmitter_1,                Axi Stream Send.  TData: 00013007  TStrb: 1111  TKeep: 1111  TID: 00  TDest: 0  TUser: 0  TLast: 1  Operation# 280
%% 13610 ns    Log    PASSED    in receiver_1: RxBurstFifo,      Received: 00013000   Item Number: 17
%% 13610 ns    Log    PASSED    in receiver_1: RxBurstFifo,      Received: 00013001   Item Number: 18
%% 13610 ns    Log    PASSED    in receiver_1: RxBurstFifo,      Received: 00013002   Item Number: 19
%% 13610 ns    Log    PASSED    in receiver_1: RxBurstFifo,      Received: 00013003   Item Number: 20
%% 13610 ns    Log    PASSED    in receiver_1: RxBurstFifo,      Received: 00013004   Item Number: 21
%% 13610 ns    Log    PASSED    in receiver_1: RxBurstFifo,      Received: 00013005   Item Number: 22
%% 13610 ns    Log    PASSED    in receiver_1: RxBurstFifo,      Received: 00013006   Item Number: 23
%% 13610 ns    Log    PASSED    in receiver_1: RxBurstFifo,      Received: 00013007   Item Number: 24
%% 13610 ns    Log    INFO      in receiver_1,                   Burst Check.  Operation# 259  Last Data: 00013007  TID: 00  TDest: 0  TUser: 0  TLast: 1
%% 13610 ns    Log    PASSED    in receiver_1,                   Burst Check WordCount Received : 8
%% 13610 ns    Log    PASSED    in receiver_1,                   ID Received : 00
%% 13610 ns    Log    PASSED    in receiver_1,                   DEST Received : 0
%% 13610 ns    Log    PASSED    in receiver_1,                   USER Received : 0
%% 13610 ns    Log    PASSED    in receiver_1,                   Last Received : 1
%% 13610 ns    Log    INFO      in transmitter_1,                Axi Stream Send.  TData: 00014000  TStrb: 1111  TKeep: 1111  TID: 00  TDest: 0  TUser: 0  TLast: 0  Operation# 281
%% 13620 ns    Log    INFO      in transmitter_1,                Axi Stream Send.  TData: 00014001  TStrb: 1111  TKeep: 1111  TID: 00  TDest: 0  TUser: 0  TLast: 0  Operation# 282
%% 13630 ns    Log    INFO      in transmitter_1,                Axi Stream Send.  TData: 00014002  TStrb: 1111  TKeep: 1111  TID: 00  TDest: 0  TUser: 0  TLast: 0  Operation# 283
%% 13640 ns    Log    INFO      in transmitter_1,                Axi Stream Send.  TData: 00014003  TStrb: 1111  TKeep: 1111  TID: 00  TDest: 0  TUser: 0  TLast: 0  Operation# 284
%% 13650 ns    Log    INFO      in transmitter_1,                Axi Stream Send.  TData: 00014004  TStrb: 1111  TKeep: 1111  TID: 00  TDest: 0  TUser: 0  TLast: 0  Operation# 285
%% 13660 ns    Log    INFO      in transmitter_1,                Axi Stream Send.  TData: 00014005  TStrb: 1111  TKeep: 1111  TID: 00  TDest: 0  TUser: 0  TLast: 0  Operation# 286
%% 13670 ns    Log    INFO      in transmitter_1,                Axi Stream Send.  TData: 00014006  TStrb: 1111  TKeep: 1111  TID: 00  TDest: 0  TUser: 0  TLast: 0  Operation# 287
%% 13760 ns    Log    INFO      in transmitter_1,                Axi Stream Send.  TData: 00014007  TStrb: 1111  TKeep: 1111  TID: 00  TDest: 0  TUser: 0  TLast: 1  Operation# 288
%% 13780 ns    Log    PASSED    in receiver_1: RxBurstFifo,      Received: 00014000   Item Number: 25
%% 13780 ns    Log    PASSED    in receiver_1: RxBurstFifo,      Received: 00014001   Item Number: 26
%% 13780 ns    Log    PASSED    in receiver_1: RxBurstFifo,      Received: 00014002   Item Number: 27
%% 13780 ns    Log    PASSED    in receiver_1: RxBurstFifo,      Received: 00014003   Item Number: 28
%% 13780 ns    Log    PASSED    in receiver_1: RxBurstFifo,      Received: 00014004   Item Number: 29
%% 13780 ns    Log    PASSED    in receiver_1: RxBurstFifo,      Received: 00014005   Item Number: 30
%% 13780 ns    Log    PASSED    in receiver_1: RxBurstFifo,      Received: 00014006   Item Number: 31
%% 13780 ns    Log    PASSED    in receiver_1: RxBurstFifo,      Received: 00014007   Item Number: 32
%% 13780 ns    Log    INFO      in receiver_1,                   Burst Check.  Operation# 260  Last Data: 00014007  TID: 00  TDest: 0  TUser: 0  TLast: 1
%% 13780 ns    Log    PASSED    in receiver_1,                   Burst Check WordCount Received : 8
%% 13780 ns    Log    PASSED    in receiver_1,                   ID Received : 00
%% 13780 ns    Log    PASSED    in receiver_1,                   DEST Received : 0
%% 13780 ns    Log    PASSED    in receiver_1,                   USER Received : 0
%% 13780 ns    Log    PASSED    in receiver_1,                   Last Received : 1
%% 13780 ns    Log    INFO      in transmitter_1,                Axi Stream Send.  TData: 00015000  TStrb: 1111  TKeep: 1111  TID: 00  TDest: 0  TUser: 0  TLast: 0  Operation# 289
%% 13810 ns    Log    INFO      in transmitter_1,                Axi Stream Send.  TData: 00015001  TStrb: 1111  TKeep: 1111  TID: 00  TDest: 0  TUser: 0  TLast: 0  Operation# 290
%% 13830 ns    Log    INFO      in transmitter_1,                Axi Stream Send.  TData: 00015002  TStrb: 1111  TKeep: 1111  TID: 00  TDest: 0  TUser: 0  TLast: 0  Operation# 291
%% 13860 ns    Log    INFO      in transmitter_1,                Axi Stream Send.  TData: 00015003  TStrb: 1111  TKeep: 1111  TID: 00  TDest: 0  TUser: 0  TLast: 0  Operation# 292
%% 13890 ns    Log    INFO      in transmitter_1,                Axi Stream Send.  TData: 00015004  TStrb: 1111  TKeep: 1111  TID: 00  TDest: 0  TUser: 0  TLast: 0  Operation# 293
%% 13900 ns    Log    INFO      in transmitter_1,                Axi Stream Send.  TData: 00015005  TStrb: 1111  TKeep: 1111  TID: 00  TDest: 0  TUser: 0  TLast: 0  Operation# 294
%% 13920 ns    Log    INFO      in transmitter_1,                Axi Stream Send.  TData: 00015006  TStrb: 1111  TKeep: 1111  TID: 00  TDest: 0  TUser: 0  TLast: 0  Operation# 295
%% 13930 ns    Log    INFO      in transmitter_1,                Axi Stream Send.  TData: 00015007  TStrb: 1111  TKeep: 1111  TID: 00  TDest: 0  TUser: 0  TLast: 1  Operation# 296
%% 13940 ns    Log    PASSED    in receiver_1: RxBurstFifo,      Received: 00015000   Item Number: 33
%% 13940 ns    Log    PASSED    in receiver_1: RxBurstFifo,      Received: 00015001   Item Number: 34
%% 13940 ns    Log    PASSED    in receiver_1: RxBurstFifo,      Received: 00015002   Item Number: 35
%% 13940 ns    Log    PASSED    in receiver_1: RxBurstFifo,      Received: 00015003   Item Number: 36
%% 13940 ns    Log    PASSED    in receiver_1: RxBurstFifo,      Received: 00015004   Item Number: 37
%% 13940 ns    Log    PASSED    in receiver_1: RxBurstFifo,      Received: 00015005   Item Number: 38
%% 13940 ns    Log    PASSED    in receiver_1: RxBurstFifo,      Received: 00015006   Item Number: 39
%% 13940 ns    Log    PASSED    in receiver_1: RxBurstFifo,      Received: 00015007   Item Number: 40
%% 13940 ns    Log    INFO      in receiver_1,                   Burst Check.  Operation# 261  Last Data: 00015007  TID: 00  TDest: 0  TUser: 0  TLast: 1
%% 13940 ns    Log    PASSED    in receiver_1,                   Burst Check WordCount Received : 8
%% 13940 ns    Log    PASSED    in receiver_1,                   ID Received : 00
%% 13940 ns    Log    PASSED    in receiver_1,                   DEST Received : 0
%% 13940 ns    Log    PASSED    in receiver_1,                   USER Received : 0
%% 13940 ns    Log    PASSED    in receiver_1,                   Last Received : 1
%% 13940 ns    Log    INFO      in transmitter_1,                Axi Stream Send.  TData: 00016000  TStrb: 1111  TKeep: 1111  TID: 00  TDest: 0  TUser: 0  TLast: 0  Operation# 297
%% 13970 ns    Log    INFO      in transmitter_1,                Axi Stream Send.  TData: 00016001  TStrb: 1111  TKeep: 1111  TID: 00  TDest: 0  TUser: 0  TLast: 0  Operation# 298
%% 14030 ns    Log    INFO      in transmitter_1,                Axi Stream Send.  TData: 00016002  TStrb: 1111  TKeep: 1111  TID: 00  TDest: 0  TUser: 0  TLast: 0  Operation# 299
%% 14040 ns    Log    INFO      in transmitter_1,                Axi Stream Send.  TData: 00016003  TStrb: 1111  TKeep: 1111  TID: 00  TDest: 0  TUser: 0  TLast: 0  Operation# 300
%% 14050 ns    Log    INFO      in transmitter_1,                Axi Stream Send.  TData: 00016004  TStrb: 1111  TKeep: 1111  TID: 00  TDest: 0  TUser: 0  TLast: 0  Operation# 301
%% 14060 ns    Log    INFO      in transmitter_1,                Axi Stream Send.  TData: 00016005  TStrb: 1111  TKeep: 1111  TID: 00  TDest: 0  TUser: 0  TLast: 0  Operation# 302
%% 14070 ns    Log    INFO      in transmitter_1,                Axi Stream Send.  TData: 00016006  TStrb: 1111  TKeep: 1111  TID: 00  TDest: 0  TUser: 0  TLast: 0  Operation# 303
%% 14080 ns    Log    INFO      in transmitter_1,                Axi Stream Send.  TData: 00016007  TStrb: 1111  TKeep: 1111  TID: 00  TDest: 0  TUser: 0  TLast: 1  Operation# 304
%% 14090 ns    Log    PASSED    in receiver_1: RxBurstFifo,      Received: 00016000   Item Number: 41
%% 14090 ns    Log    PASSED    in receiver_1: RxBurstFifo,      Received: 00016001   Item Number: 42
%% 14090 ns    Log    PASSED    in receiver_1: RxBurstFifo,      Received: 00016002   Item Number: 43
%% 14090 ns    Log    PASSED    in receiver_1: RxBurstFifo,      Received: 00016003   Item Number: 44
%% 14090 ns    Log    PASSED    in receiver_1: RxBurstFifo,      Received: 00016004   Item Number: 45
%% 14090 ns    Log    PASSED    in receiver_1: RxBurstFifo,      Received: 00016005   Item Number: 46
%% 14090 ns    Log    PASSED    in receiver_1: RxBurstFifo,      Received: 00016006   Item Number: 47
%% 14090 ns    Log    PASSED    in receiver_1: RxBurstFifo,      Received: 00016007   Item Number: 48
