%%    110 ns    Log    INFO      in transmitter_1,                Axi Stream Send.  TData: 00000001  TStrb: 1111  TKeep: 1111  TID: 00  TDest: 1  TUser: 2  TLast: 0  Operation# 1
%%    120 ns    Log    INFO      in transmitter_1,                Axi Stream Send.  TData: 00000002  TStrb: 1111  TKeep: 1111  TID: 00  TDest: 1  TUser: 2  TLast: 0  Operation# 2
%%    130 ns    Log    INFO      in transmitter_1,                Axi Stream Send.  TData: 00000003  TStrb: 1111  TKeep: 1111  TID: 00  TDest: 1  TUser: 2  TLast: 0  Operation# 3
%%    140 ns    Log    INFO      in transmitter_1,                Axi Stream Send.  TData: 00000004  TStrb: 1111  TKeep: 1111  TID: 00  TDest: 1  TUser: 2  TLast: 0  Operation# 4
%%    150 ns    Log    INFO      in transmitter_1,                Axi Stream Send.  TData: 00000005  TStrb: 1111  TKeep: 1111  TID: 00  TDest: 1  TUser: 2  TLast: 0  Operation# 5
%%    160 ns    Log    INFO      in transmitter_1,                Axi Stream Send.  TData: 00000006  TStrb: 1111  TKeep: 1111  TID: 00  TDest: 1  TUser: 2  TLast: 0  Operation# 6
%%    170 ns    Log    INFO      in transmitter_1,                Axi Stream Send.  TData: 00000007  TStrb: 1111  TKeep: 1111  TID: 00  TDest: 1  TUser: 2  TLast: 0  Operation# 7
%%    180 ns    Log    INFO      in transmitter_1,                Axi Stream Send.  TData: 00000008  TStrb: 1111  TKeep: 1111  TID: 00  TDest: 1  TUser: 2  TLast: 0  Operation# 8
%%    190 ns    Log    INFO      in transmitter_1,                Axi Stream Send.  TData: 00000009  TStrb: 1111  TKeep: 1111  TID: 00  TDest: 1  TUser: 2  TLast: 0  Operation# 9
%%    200 ns    Log    INFO      in transmitter_1,                Axi Stream Send.  TData: 0000000A  TStrb: 1111  TKeep: 1111  TID: 00  TDest: 1  TUser: 2  TLast: 0  Operation# 10
%%    210 ns    Log    INFO      in transmitter_1,                Axi Stream Send.  TData: 0000000B  TStrb: 1111  TKeep: 1111  TID: 00  TDest: 1  TUser: 2  TLast: 0  Operation# 11
%%    220 ns    Log    INFO      in transmitter_1,                Axi Stream Send.  TData: 0000000C  TStrb: 1111  TKeep: 1111  TID: 00  TDest: 1  TUser: 2  TLast: 0  Operation# 12
%%    230 ns    Log    INFO      in transmitter_1,                Axi Stream Send.  TData: 0000000D  TStrb: 1111  TKeep: 1111  TID: 00  TDest: 1  TUser: 2  TLast: 0  Operation# 13
%%    240 ns    Log    INFO      in transmitter_1,                Axi Stream Send.  TData: 0000000E  TStrb: 1111  TKeep: 1111  TID: 00  TDest: 1  TUser: 2  TLast: 0  Operation# 14
%%    250 ns    Log    INFO      in transmitter_1,                Axi Stream Send.  TData: 0000000F  TStrb: 1111  TKeep: 1111  TID: 00  TDest: 1  TUser: 2  TLast: 0  Operation# 15
%%    260 ns    Log    INFO      in transmitter_1,                Axi Stream Send.  TData: 00000010  TStrb: 1111  TKeep: 1111  TID: 00  TDest: 1  TUser: 2  TLast: 0  Operation# 16
%%    270 ns    Log    INFO      in transmitter_1,                Axi Stream Send.  TData: 00000011  TStrb: 1111  TKeep: 1111  TID: 00  TDest: 1  TUser: 2  TLast: 0  Operation# 17
%%    280 ns    Log    INFO      in transmitter_1,                Axi Stream Send.  TData: 00000012  TStrb: 1111  TKeep: 1111  TID: 00  TDest: 1  TUser: 2  TLast: 0  Operation# 18
%%    290 ns    Log    INFO      in transmitter_1,                Axi Stream Send.  TData: 00000013  TStrb: 1111  TKeep: 1111  TID: 00  TDest: 1  TUser: 2  TLast: 0  Operation# 19
%%    300 ns    Log    INFO      in transmitter_1,                Axi Stream Send.  TData: 00000014  TStrb: 1111  TKeep: 1111  TID: 00  TDest: 1  TUser: 2  TLast: 0  Operation# 20
%%    310 ns    Log    INFO      in transmitter_1,                Axi Stream Send.  TData: 00000015  TStrb: 1111  TKeep: 1111  TID: 00  TDest: 1  TUser: 2  TLast: 0  Operation# 21
%%    320 ns    Log    INFO      in transmitter_1,                Axi Stream Send.  TData: 00000016  TStrb: 1111  TKeep: 1111  TID: 00  TDest: 1  TUser: 2  TLast: 0  Operation# 22
%%    330 ns    Log    INFO      in transmitter_1,                Axi Stream Send.  TData: 00000017  TStrb: 1111  TKeep: 1111  TID: 00  TDest: 1  TUser: 2  TLast: 0  Operation# 23
%%    340 ns    Log    INFO      in transmitter_1,                Axi Stream Send.  TData: 00000018  TStrb: 1111  TKeep: 1111  TID: 00  TDest: 1  TUser: 2  TLast: 0  Operation# 24
%%    350 ns    Log    INFO      in transmitter_1,                Axi Stream Send.  TData: 00000019  TStrb: 1111  TKeep: 1111  TID: 00  TDest: 1  TUser: 2  TLast: 0  Operation# 25
%%    360 ns    Log    INFO      in transmitter_1,                Axi Stream Send.  TData: 0000001A  TStrb: 1111  TKeep: 1111  TID: 00  TDest: 1  TUser: 2  TLast: 0  Operation# 26
%%    370 ns    Log    INFO      in transmitter_1,                Axi Stream Send.  TData: 0000001B  TStrb: 1111  TKeep: 1111  TID: 00  TDest: 1  TUser: 2  TLast: 0  Operation# 27
%%    380 ns    Log    INFO      in transmitter_1,                Axi Stream Send.  TData: 0000001C  TStrb: 1111  TKeep: 1111  TID: 00  TDest: 1  TUser: 2  TLast: 0  Operation# 28
%%    390 ns    Log    INFO      in transmitter_1,                Axi Stream Send.  TData: 0000001D  TStrb: 1111  TKeep: 1111  TID: 00  TDest: 1  TUser: 2  TLast: 0  Operation# 29
%%    400 ns    Log    INFO      in transmitter_1,                Axi Stream Send.  TData: 0000001E  TStrb: 1111  TKeep: 1111  TID: 00  TDest: 1  TUser: 2  TLast: 0  Operation# 30
%%    410 ns    Log    INFO      in transmitter_1,                Axi Stream Send.  TData: 0000001F  TStrb: 1111  TKeep: 1111  TID: 00  TDest: 1  TUser: 2  TLast: 0  Operation# 31
%%    420 ns    Log    INFO      in transmitter_1,                Axi Stream Send.  TData: 00000020  TStrb: 1111  TKeep: 1111  TID: 00  TDest: 1  TUser: 2  TLast: 0  Operation# 32
%%    430 ns    Log    INFO      in transmitter_1,                Axi Stream Send.  TData: 00000021  TStrb: 1111  TKeep: 1111  TID: 00  TDest: 1  TUser: 2  TLast: 0  Operation# 33
%%    440 ns    Log    INFO      in transmitter_1,                Axi Stream Send.  TData: 00000022  TStrb: 1111  TKeep: 1111  TID: 00  TDest: 1  TUser: 2  TLast: 0  Operation# 34
%%    450 ns    Log    INFO      in transmitter_1,                Axi Stream Send.  TData: 00000023  TStrb: 1111  TKeep: 1111  TID: 00  TDest: 1  TUser: 2  TLast: 0  Operation# 35
%%    460 ns    Log    INFO      in transmitter_1,                Axi Stream Send.  TData: 00000024  TStrb: 1111  TKeep: 1111  TID: 00  TDest: 1  TUser: 2  TLast: 0  Operation# 36
%%    470 ns    Log    INFO      in transmitter_1,                Axi Stream Send.  TData: 00000025  TStrb: 1111  TKeep: 1111  TID: 00  TDest: 1  TUser: 2  TLast: 0  Operation# 37
%%    480 ns    Log    INFO      in transmitter_1,                Axi Stream Send.  TData: 00000026  TStrb: 1111  TKeep: 1111  TID: 00  TDest: 1  TUser: 2  TLast: 0  Operation# 38
%%    490 ns    Log    INFO      in transmitter_1,                Axi Stream Send.  TData: 00000027  TStrb: 1111  TKeep: 1111  TID: 00  TDest: 1  TUser: 2  TLast: 0  Operation# 39
%%    500 ns    Log    INFO      in transmitter_1,                Axi Stream Send.  TData: 00000028  TStrb: 1111  TKeep: 1111  TID: 00  TDest: 1  TUser: 2  TLast: 0  Operation# 40
%%    510 ns    Log    INFO      in transmitter_1,                Axi Stream Send.  TData: 00000029  TStrb: 1111  TKeep: 1111  TID: 00  TDest: 1  TUser: 2  TLast: 0  Operation# 41
%%    520 ns    Log    INFO      in transmitter_1,                Axi Stream Send.  TData: 0000002A  TStrb: 1111  TKeep: 1111  TID: 00  TDest: 1  TUser: 2  TLast: 0  Operation# 42
%%    530 ns    Log    INFO      in transmitter_1,                Axi Stream Send.  TData: 0000002B  TStrb: 1111  TKeep: 1111  TID: 00  TDest: 1  TUser: 2  TLast: 0  Operation# 43
%%    540 ns    Log    INFO      in transmitter_1,                Axi Stream Send.  TData: 0000002C  TStrb: 1111  TKeep: 1111  TID: 00  TDest: 1  TUser: 2  TLast: 0  Operation# 44
%%    550 ns    Log    INFO      in transmitter_1,                Axi Stream Send.  TData: 0000002D  TStrb: 1111  TKeep: 1111  TID: 00  TDest: 1  TUser: 2  TLast: 0  Operation# 45
%%    560 ns    Log    INFO      in transmitter_1,                Axi Stream Send.  TData: 0000002E  TStrb: 1111  TKeep: 1111  TID: 00  TDest: 1  TUser: 2  TLast: 0  Operation# 46
%%    570 ns    Log    INFO      in transmitter_1,                Axi Stream Send.  TData: 0000002F  TStrb: 1111  TKeep: 1111  TID: 00  TDest: 1  TUser: 2  TLast: 0  Operation# 47
%%    580 ns    Log    INFO      in transmitter_1,                Axi Stream Send.  TData: 00000030  TStrb: 1111  TKeep: 1111  TID: 00  TDest: 1  TUser: 2  TLast: 0  Operation# 48
%%    590 ns    Log    INFO      in transmitter_1,                Axi Stream Send.  TData: 00000031  TStrb: 1111  TKeep: 1111  TID: 00  TDest: 1  TUser: 2  TLast: 0  Operation# 49
%%    600 ns    Log    INFO      in transmitter_1,                Axi Stream Send.  TData: 00000032  TStrb: 1111  TKeep: 1111  TID: 00  TDest: 1  TUser: 2  TLast: 0  Operation# 50
%%    610 ns    Log    INFO      in transmitter_1,                Axi Stream Send.  TData: 00000033  TStrb: 1111  TKeep: 1111  TID: 00  TDest: 1  TUser: 2  TLast: 0  Operation# 51
%%    620 ns    Log    INFO      in transmitter_1,                Axi Stream Send.  TData: 00000034  TStrb: 1111  TKeep: 1111  TID: 00  TDest: 1  TUser: 2  TLast: 0  Operation# 52
%%    630 ns    Log    INFO      in transmitter_1,                Axi Stream Send.  TData: 00000035  TStrb: 1111  TKeep: 1111  TID: 00  TDest: 1  TUser: 2  TLast: 0  Operation# 53
%%    640 ns    Log    INFO      in transmitter_1,                Axi Stream Send.  TData: 00000036  TStrb: 1111  TKeep: 1111  TID: 00  TDest: 1  TUser: 2  TLast: 0  Operation# 54
%%    650 ns    Log    INFO      in transmitter_1,                Axi Stream Send.  TData: 00000037  TStrb: 1111  TKeep: 1111  TID: 00  TDest: 1  TUser: 2  TLast: 0  Operation# 55
%%    660 ns    Log    INFO      in transmitter_1,                Axi Stream Send.  TData: 00000038  TStrb: 1111  TKeep: 1111  TID: 00  TDest: 1  TUser: 2  TLast: 0  Operation# 56
%%    670 ns    Log    INFO      in transmitter_1,                Axi Stream Send.  TData: 00000039  TStrb: 1111  TKeep: 1111  TID: 00  TDest: 1  TUser: 2  TLast: 0  Operation# 57
%%    680 ns    Log    INFO      in transmitter_1,                Axi Stream Send.  TData: 0000003A  TStrb: 1111  TKeep: 1111  TID: 00  TDest: 1  TUser: 2  TLast: 0  Operation# 58
%%    690 ns    Log    INFO      in transmitter_1,                Axi Stream Send.  TData: 0000003B  TStrb: 1111  TKeep: 1111  TID: 00  TDest: 1  TUser: 2  TLast: 0  Operation# 59
%%    700 ns    Log    INFO      in transmitter_1,                Axi Stream Send.  TData: 0000003C  TStrb: 1111  TKeep: 1111  TID: 00  TDest: 1  TUser: 2  TLast: 0  Operation# 60
%%    710 ns    Log    INFO      in transmitter_1,                Axi Stream Send.  TData: 0000003D  TStrb: 1111  TKeep: 1111  TID: 00  TDest: 1  TUser: 2  TLast: 0  Operation# 61
%%    720 ns    Log    INFO      in transmitter_1,                Axi Stream Send.  TData: 0000003E  TStrb: 1111  TKeep: 1111  TID: 00  TDest: 1  TUser: 2  TLast: 0  Operation# 62
%%    730 ns    Log    INFO      in transmitter_1,                Axi Stream Send.  TData: 0000003F  TStrb: 1111  TKeep: 1111  TID: 00  TDest: 1  TUser: 2  TLast: 0  Operation# 63
%%    740 ns    Log    INFO      in transmitter_1,                Axi Stream Send.  TData: 00000040  TStrb: 1111  TKeep: 1111  TID: 00  TDest: 1  TUser: 2  TLast: 1  Operation# 64
%%    750 ns    Log    INFO      in receiver_1,                   Burst Receive.  Operation# 1  Last Data: 00000040  TID: 00  TDest: 1  TUser: 2  TLast: 1
%%    750 ns    Log    INFO      in transmitter_1,                Axi Stream Send.  TData: 00000041  TStrb: 1111  TKeep: 1111  TID: 00  TDest: 1  TUser: 2  TLast: 0  Operation# 65
%%    750 ns    Log    PASSED    in Default,                      TryCount 72
%%    750 ns    Log    PASSED    in Default,                      Receiver: NumBytes Received Received : 256
%%    750 ns    Log    PASSED    in Default,                      Receiver, ID:  Received : 00
%%    750 ns    Log    PASSED    in Default,                      Receiver, Dest:  Received : 1
%%    750 ns    Log    PASSED    in Default,                      Receiver, User:  Received : 2
%%    750 ns    Log    PASSED    in Default,                      Receiver:  Received : 00000001
%%    750 ns    Log    PASSED    in Default,                      Receiver:  Received : 00000002
%%    750 ns    Log    PASSED    in Default,                      Receiver:  Received : 00000003
%%    750 ns    Log    PASSED    in Default,                      Receiver:  Received : 00000004
%%    750 ns    Log    PASSED    in Default,                      Receiver:  Received : 00000005
%%    750 ns    Log    PASSED    in Default,                      Receiver:  Received : 00000006
%%    750 ns    Log    PASSED    in Default,                      Receiver:  Received : 00000007
%%    750 ns    Log    PASSED    in Default,                      Receiver:  Received : 00000008
%%    750 ns    Log    PASSED    in Default,                      Receiver:  Received : 00000009
%%    750 ns    Log    PASSED    in Default,                      Receiver:  Received : 0000000A
%%    750 ns    Log    PASSED    in Default,                      Receiver:  Received : 0000000B
%%    750 ns    Log    PASSED    in Default,                      Receiver:  Received : 0000000C
%%    750 ns    Log    PASSED    in Default,                      Receiver:  Received : 0000000D
%%    750 ns    Log    PASSED    in Default,                      Receiver:  Received : 0000000E
%%    750 ns    Log    PASSED    in Default,                      Receiver:  Received : 0000000F
%%    750 ns    Log    PASSED    in Default,                      Receiver:  Received : 00000010
%%    750 ns    Log    PASSED    in Default,                      Receiver:  Received : 00000011
%%    750 ns    Log    PASSED    in Default,                      Receiver:  Received : 00000012
%%    750 ns    Log    PASSED    in Default,                      Receiver:  Received : 00000013
%%    750 ns    Log    PASSED    in Default,                      Receiver:  Received : 00000014
%%    750 ns    Log    PASSED    in Default,                      Receiver:  Received : 00000015
%%    750 ns    Log    PASSED    in Default,                      Receiver:  Received : 00000016
%%    750 ns    Log    PASSED    in Default,                      Receiver:  Received : 00000017
%%    750 ns    Log    PASSED    in Default,                      Receiver:  Received : 00000018
%%    750 ns    Log    PASSED    in Default,                      Receiver:  Received : 00000019
%%    750 ns    Log    PASSED    in Default,                      Receiver:  Received : 0000001A
%%    750 ns    Log    PASSED    in Default,                      Receiver:  Received : 0000001B
%%    750 ns    Log    PASSED    in Default,                      Receiver:  Received : 0000001C
%%    750 ns    Log    PASSED    in Default,                      Receiver:  Received : 0000001D
%%    750 ns    Log    PASSED    in Default,                      Receiver:  Received : 0000001E
%%    750 ns    Log    PASSED    in Default,                      Receiver:  Received : 0000001F
%%    750 ns    Log    PASSED    in Default,                      Receiver:  Received : 00000020
%%    750 ns    Log    PASSED    in Default,                      Receiver:  Received : 00000021
%%    750 ns    Log    PASSED    in Default,                      Receiver:  Received : 00000022
%%    750 ns    Log    PASSED    in Default,                      Receiver:  Received : 00000023
%%    750 ns    Log    PASSED    in Default,                      Receiver:  Received : 00000024
%%    750 ns    Log    PASSED    in Default,                      Receiver:  Received : 00000025
%%    750 ns    Log    PASSED    in Default,                      Receiver:  Received : 00000026
%%    750 ns    Log    PASSED    in Default,                      Receiver:  Received : 00000027
%%    750 ns    Log    PASSED    in Default,                      Receiver:  Received : 00000028
%%    750 ns    Log    PASSED    in Default,                      Receiver:  Received : 00000029
%%    750 ns    Log    PASSED    in Default,                      Receiver:  Received : 0000002A
%%    750 ns    Log    PASSED    in Default,                      Receiver:  Received : 0000002B
%%    750 ns    Log    PASSED    in Default,                      Receiver:  Received : 0000002C
%%    750 ns    Log    PASSED    in Default,                      Receiver:  Received : 0000002D
%%    750 ns    Log    PASSED    in Default,                      Receiver:  Received : 0000002E
%%    750 ns    Log    PASSED    in Default,                      Receiver:  Received : 0000002F
%%    750 ns    Log    PASSED    in Default,                      Receiver:  Received : 00000030
%%    750 ns    Log    PASSED    in Default,                      Receiver:  Received : 00000031
%%    750 ns    Log    PASSED    in Default,                      Receiver:  Received : 00000032
%%    750 ns    Log    PASSED    in Default,                      Receiver:  Received : 00000033
%%    750 ns    Log    PASSED    in Default,                      Receiver:  Received : 00000034
%%    750 ns    Log    PASSED    in Default,                      Receiver:  Received : 00000035
%%    750 ns    Log    PASSED    in Default,                      Receiver:  Received : 00000036
%%    750 ns    Log    PASSED    in Default,                      Receiver:  Received : 00000037
%%    750 ns    Log    PASSED    in Default,                      Receiver:  Received : 00000038
%%    750 ns    Log    PASSED    in Default,                      Receiver:  Received : 00000039
%%    750 ns    Log    PASSED    in Default,                      Receiver:  Received : 0000003A
%%    750 ns    Log    PASSED    in Default,                      Receiver:  Received : 0000003B
%%    750 ns    Log    PASSED    in Default,                      Receiver:  Received : 0000003C
%%    750 ns    Log    PASSED    in Default,                      Receiver:  Received : 0000003D
%%    750 ns    Log    PASSED    in Default,                      Receiver:  Received : 0000003E
%%    750 ns    Log    PASSED    in Default,                      Receiver:  Received : 0000003F
%%    750 ns    Log    PASSED    in Default,                      Receiver:  Received : 00000040
%%    760 ns    Log    INFO      in transmitter_1,                Axi Stream Send.  TData: 00000042  TStrb: 1111  TKeep: 1111  TID: 00  TDest: 1  TUser: 2  TLast: 0  Operation# 66
%%    770 ns    Log    INFO      in transmitter_1,                Axi Stream Send.  TData: 00000043  TStrb: 1111  TKeep: 1111  TID: 00  TDest: 1  TUser: 2  TLast: 0  Operation# 67
%%    780 ns    Log    INFO      in transmitter_1,                Axi Stream Send.  TData: 00000044  TStrb: 1111  TKeep: 1111  TID: 00  TDest: 1  TUser: 2  TLast: 0  Operation# 68
%%    790 ns    Log    INFO      in transmitter_1,                Axi Stream Send.  TData: 00000045  TStrb: 1111  TKeep: 1111  TID: 00  TDest: 1  TUser: 2  TLast: 0  Operation# 69
%%    800 ns    Log    INFO      in transmitter_1,                Axi Stream Send.  TData: 00000046  TStrb: 1111  TKeep: 1111  TID: 00  TDest: 1  TUser: 2  TLast: 0  Operation# 70
%%    810 ns    Log    INFO      in transmitter_1,                Axi Stream Send.  TData: 00000047  TStrb: 1111  TKeep: 1111  TID: 00  TDest: 1  TUser: 2  TLast: 0  Operation# 71
%%    820 ns    Log    INFO      in transmitter_1,                Axi Stream Send.  TData: 00000048  TStrb: 1111  TKeep: 1111  TID: 00  TDest: 1  TUser: 2  TLast: 0  Operation# 72
%%    830 ns    Log    INFO      in transmitter_1,                Axi Stream Send.  TData: 00000049  TStrb: 1111  TKeep: 1111  TID: 00  TDest: 1  TUser: 2  TLast: 0  Operation# 73
%%    840 ns    Log    INFO      in transmitter_1,                Axi Stream Send.  TData: 0000004A  TStrb: 1111  TKeep: 1111  TID: 00  TDest: 1  TUser: 2  TLast: 0  Operation# 74
%%    850 ns    Log    INFO      in transmitter_1,                Axi Stream Send.  TData: 0000004B  TStrb: 1111  TKeep: 1111  TID: 00  TDest: 1  TUser: 2  TLast: 0  Operation# 75
%%    860 ns    Log    INFO      in transmitter_1,                Axi Stream Send.  TData: 0000004C  TStrb: 1111  TKeep: 1111  TID: 00  TDest: 1  TUser: 2  TLast: 0  Operation# 76
%%    870 ns    Log    INFO      in transmitter_1,                Axi Stream Send.  TData: 0000004D  TStrb: 1111  TKeep: 1111  TID: 00  TDest: 1  TUser: 2  TLast: 0  Operation# 77
%%    880 ns    Log    INFO      in transmitter_1,                Axi Stream Send.  TData: 0000004E  TStrb: 1111  TKeep: 1111  TID: 00  TDest: 1  TUser: 2  TLast: 0  Operation# 78
%%    890 ns    Log    INFO      in transmitter_1,                Axi Stream Send.  TData: 0000004F  TStrb: 1111  TKeep: 1111  TID: 00  TDest: 1  TUser: 2  TLast: 0  Operation# 79
%%    900 ns    Log    INFO      in transmitter_1,                Axi Stream Send.  TData: 00000050  TStrb: 1111  TKeep: 1111  TID: 00  TDest: 1  TUser: 2  TLast: 0  Operation# 80
%%    910 ns    Log    INFO      in transmitter_1,                Axi Stream Send.  TData: 00000051  TStrb: 1111  TKeep: 1111  TID: 00  TDest: 1  TUser: 2  TLast: 0  Operation# 81
%%    920 ns    Log    INFO      in transmitter_1,                Axi Stream Send.  TData: 00000052  TStrb: 1111  TKeep: 1111  TID: 00  TDest: 1  TUser: 2  TLast: 0  Operation# 82
%%    930 ns    Log    INFO      in transmitter_1,                Axi Stream Send.  TData: 00000053  TStrb: 1111  TKeep: 1111  TID: 00  TDest: 1  TUser: 2  TLast: 0  Operation# 83
%%    940 ns    Log    INFO      in transmitter_1,                Axi Stream Send.  TData: 00000054  TStrb: 1111  TKeep: 1111  TID: 00  TDest: 1  TUser: 2  TLast: 0  Operation# 84
%%    950 ns    Log    INFO      in transmitter_1,                Axi Stream Send.  TData: 00000055  TStrb: 1111  TKeep: 1111  TID: 00  TDest: 1  TUser: 2  TLast: 0  Operation# 85
%%    960 ns    Log    INFO      in transmitter_1,                Axi Stream Send.  TData: 00000056  TStrb: 1111  TKeep: 1111  TID: 00  TDest: 1  TUser: 2  TLast: 0  Operation# 86
%%    970 ns    Log    INFO      in transmitter_1,                Axi Stream Send.  TData: 00000057  TStrb: 1111  TKeep: 1111  TID: 00  TDest: 1  TUser: 2  TLast: 0  Operation# 87
%%    980 ns    Log    INFO      in transmitter_1,                Axi Stream Send.  TData: 00000058  TStrb: 1111  TKeep: 1111  TID: 00  TDest: 1  TUser: 2  TLast: 0  Operation# 88
%%    990 ns    Log    INFO      in transmitter_1,                Axi Stream Send.  TData: 00000059  TStrb: 1111  TKeep: 1111  TID: 00  TDest: 1  TUser: 2  TLast: 0  Operation# 89
%%   1000 ns    Log    INFO      in transmitter_1,                Axi Stream Send.  TData: 0000005A  TStrb: 1111  TKeep: 1111  TID: 00  TDest: 1  TUser: 2  TLast: 0  Operation# 90
%%   1010 ns    Log    INFO      in transmitter_1,                Axi Stream Send.  TData: 0000005B  TStrb: 1111  TKeep: 1111  TID: 00  TDest: 1  TUser: 2  TLast: 0  Operation# 91
%%   1020 ns    Log    INFO      in transmitter_1,                Axi Stream Send.  TData: 0000005C  TStrb: 1111  TKeep: 1111  TID: 00  TDest: 1  TUser: 2  TLast: 0  Operation# 92
%%   1030 ns    Log    INFO      in transmitter_1,                Axi Stream Send.  TData: 0000005D  TStrb: 1111  TKeep: 1111  TID: 00  TDest: 1  TUser: 2  TLast: 0  Operation# 93
%%   1040 ns    Log    INFO      in transmitter_1,                Axi Stream Send.  TData: 0000005E  TStrb: 1111  TKeep: 1111  TID: 00  TDest: 1  TUser: 2  TLast: 0  Operation# 94
%%   1050 ns    Log    INFO      in transmitter_1,                Axi Stream Send.  TData: 0000005F  TStrb: 1111  TKeep: 1111  TID: 00  TDest: 1  TUser: 2  TLast: 0  Operation# 95
%%   1060 ns    Log    INFO      in transmitter_1,                Axi Stream Send.  TData: 00000060  TStrb: 1111  TKeep: 1111  TID: 00  TDest: 1  TUser: 2  TLast: 0  Operation# 96
%%   1070 ns    Log    INFO      in transmitter_1,                Axi Stream Send.  TData: 00000061  TStrb: 1111  TKeep: 1111  TID: 00  TDest: 1  TUser: 2  TLast: 0  Operation# 97
%%   1080 ns    Log    INFO      in transmitter_1,                Axi Stream Send.  TData: 00000062  TStrb: 1111  TKeep: 1111  TID: 00  TDest: 1  TUser: 2  TLast: 0  Operation# 98
%%   1090 ns    Log    INFO      in transmitter_1,                Axi Stream Send.  TData: 00000063  TStrb: 1111  TKeep: 1111  TID: 00  TDest: 1  TUser: 2  TLast: 0  Operation# 99
%%   1100 ns    Log    INFO      in transmitter_1,                Axi Stream Send.  TData: 00000064  TStrb: 1111  TKeep: 1111  TID: 00  TDest: 1  TUser: 2  TLast: 0  Operation# 100
%%   1110 ns    Log    INFO      in transmitter_1,                Axi Stream Send.  TData: 00000065  TStrb: 1111  TKeep: 1111  TID: 00  TDest: 1  TUser: 2  TLast: 0  Operation# 101
%%   1120 ns    Log    INFO      in transmitter_1,                Axi Stream Send.  TData: 00000066  TStrb: 1111  TKeep: 1111  TID: 00  TDest: 1  TUser: 2  TLast: 0  Operation# 102
%%   1130 ns    Log    INFO      in transmitter_1,                Axi Stream Send.  TData: 00000067  TStrb: 1111  TKeep: 1111  TID: 00  TDest: 1  TUser: 2  TLast: 0  Operation# 103
%%   1140 ns    Log    INFO      in transmitter_1,                Axi Stream Send.  TData: 00000068  TStrb: 1111  TKeep: 1111  TID: 00  TDest: 1  TUser: 2  TLast: 0  Operation# 104
%%   1150 ns    Log    INFO      in transmitter_1,                Axi Stream Send.  TData: 00000069  TStrb: 1111  TKeep: 1111  TID: 00  TDest: 1  TUser: 2  TLast: 0  Operation# 105
%%   1160 ns    Log    INFO      in transmitter_1,                Axi Stream Send.  TData: 0000006A  TStrb: 1111  TKeep: 1111  TID: 00  TDest: 1  TUser: 2  TLast: 0  Operation# 106
%%   1170 ns    Log    INFO      in transmitter_1,                Axi Stream Send.  TData: 0000006B  TStrb: 1111  TKeep: 1111  TID: 00  TDest: 1  TUser: 2  TLast: 0  Operation# 107
%%   1180 ns    Log    INFO      in transmitter_1,                Axi Stream Send.  TData: 0000006C  TStrb: 1111  TKeep: 1111  TID: 00  TDest: 1  TUser: 2  TLast: 0  Operation# 108
%%   1190 ns    Log    INFO      in transmitter_1,                Axi Stream Send.  TData: 0000006D  TStrb: 1111  TKeep: 1111  TID: 00  TDest: 1  TUser: 2  TLast: 0  Operation# 109
%%   1200 ns    Log    INFO      in transmitter_1,                Axi Stream Send.  TData: 0000006E  TStrb: 1111  TKeep: 1111  TID: 00  TDest: 1  TUser: 2  TLast: 0  Operation# 110
%%   1210 ns    Log    INFO      in transmitter_1,                Axi Stream Send.  TData: 0000006F  TStrb: 1111  TKeep: 1111  TID: 00  TDest: 1  TUser: 2  TLast: 0  Operation# 111
%%   1220 ns    Log    INFO      in transmitter_1,                Axi Stream Send.  TData: 00000070  TStrb: 1111  TKeep: 1111  TID: 00  TDest: 1  TUser: 2  TLast: 0  Operation# 112
%%   1230 ns    Log    INFO      in transmitter_1,                Axi Stream Send.  TData: 00000071  TStrb: 1111  TKeep: 1111  TID: 00  TDest: 1  TUser: 2  TLast: 0  Operation# 113
%%   1240 ns    Log    INFO      in transmitter_1,                Axi Stream Send.  TData: 00000072  TStrb: 1111  TKeep: 1111  TID: 00  TDest: 1  TUser: 2  TLast: 0  Operation# 114
%%   1250 ns    Log    INFO      in transmitter_1,                Axi Stream Send.  TData: 00000073  TStrb: 1111  TKeep: 1111  TID: 00  TDest: 1  TUser: 2  TLast: 0  Operation# 115
%%   1260 ns    Log    INFO      in transmitter_1,                Axi Stream Send.  TData: 00000074  TStrb: 1111  TKeep: 1111  TID: 00  TDest: 1  TUser: 2  TLast: 0  Operation# 116
%%   1270 ns    Log    INFO      in transmitter_1,                Axi Stream Send.  TData: 00000075  TStrb: 1111  TKeep: 1111  TID: 00  TDest: 1  TUser: 2  TLast: 0  Operation# 117
%%   1280 ns    Log    INFO      in transmitter_1,                Axi Stream Send.  TData: 00000076  TStrb: 1111  TKeep: 1111  TID: 00  TDest: 1  TUser: 2  TLast: 0  Operation# 118
%%   1290 ns    Log    INFO      in transmitter_1,                Axi Stream Send.  TData: 00000077  TStrb: 1111  TKeep: 1111  TID: 00  TDest: 1  TUser: 2  TLast: 0  Operation# 119
%%   1300 ns    Log    INFO      in transmitter_1,                Axi Stream Send.  TData: 00000078  TStrb: 1111  TKeep: 1111  TID: 00  TDest: 1  TUser: 2  TLast: 0  Operation# 120
%%   1310 ns    Log    INFO      in transmitter_1,                Axi Stream Send.  TData: 00000079  TStrb: 1111  TKeep: 1111  TID: 00  TDest: 1  TUser: 2  TLast: 0  Operation# 121
%%   1320 ns    Log    INFO      in transmitter_1,                Axi Stream Send.  TData: 0000007A  TStrb: 1111  TKeep: 1111  TID: 00  TDest: 1  TUser: 2  TLast: 0  Operation# 122
%%   1330 ns    Log    INFO      in transmitter_1,                Axi Stream Send.  TData: 0000007B  TStrb: 1111  TKeep: 1111  TID: 00  TDest: 1  TUser: 2  TLast: 0  Operation# 123
%%   1340 ns    Log    INFO      in transmitter_1,                Axi Stream Send.  TData: 0000007C  TStrb: 1111  TKeep: 1111  TID: 00  TDest: 1  TUser: 2  TLast: 0  Operation# 124
%%   1350 ns    Log    INFO      in transmitter_1,                Axi Stream Send.  TData: 0000007D  TStrb: 1111  TKeep: 1111  TID: 00  TDest: 1  TUser: 2  TLast: 0  Operation# 125
%%   1360 ns    Log    INFO      in transmitter_1,                Axi Stream Send.  TData: 0000007E  TStrb: 1111  TKeep: 1111  TID: 00  TDest: 1  TUser: 2  TLast: 0  Operation# 126
%%   1370 ns    Log    INFO      in transmitter_1,                Axi Stream Send.  TData: 0000007F  TStrb: 1111  TKeep: 1111  TID: 00  TDest: 1  TUser: 2  TLast: 0  Operation# 127
%%   1380 ns    Log    INFO      in transmitter_1,                Axi Stream Send.  TData: 00000080  TStrb: 1111  TKeep: 1111  TID: 00  TDest: 1  TUser: 2  TLast: 0  Operation# 128
%%   1390 ns    Log    INFO      in transmitter_1,                Axi Stream Send.  TData: 00000081  TStrb: 1111  TKeep: 1111  TID: 00  TDest: 1  TUser: 2  TLast: 1  Operation# 129
%%   1400 ns    Log    INFO      in transmitter_1,                Axi Stream Send.  TData: 00000082  TStrb: 1111  TKeep: 1111  TID: 01  TDest: 2  TUser: 3  TLast: 0  Operation# 130
%%   1400 ns    Log    INFO      in receiver_1,                   Burst Receive.  Operation# 2  Last Data: 00000081  TID: 00  TDest: 1  TUser: 2  TLast: 1
%%   1400 ns    Log    PASSED    in Default,                      TryCount 65
%%   1400 ns    Log    PASSED    in Default,                      Receiver: NumBytes Received Received : 260
%%   1400 ns    Log    PASSED    in Default,                      Receiver, ID:  Received : 00
%%   1400 ns    Log    PASSED    in Default,                      Receiver, Dest:  Received : 1
%%   1400 ns    Log    PASSED    in Default,                      Receiver, User:  Received : 2
%%   1400 ns    Log    PASSED    in Default,                      Receiver:  Received : 00000041
%%   1400 ns    Log    PASSED    in Default,                      Receiver:  Received : 00000042
%%   1400 ns    Log    PASSED    in Default,                      Receiver:  Received : 00000043
%%   1400 ns    Log    PASSED    in Default,                      Receiver:  Received : 00000044
%%   1400 ns    Log    PASSED    in Default,                      Receiver:  Received : 00000045
%%   1400 ns    Log    PASSED    in Default,                      Receiver:  Received : 00000046
%%   1400 ns    Log    PASSED    in Default,                      Receiver:  Received : 00000047
%%   1400 ns    Log    PASSED    in Default,                      Receiver:  Received : 00000048
%%   1400 ns    Log    PASSED    in Default,                      Receiver:  Received : 00000049
%%   1400 ns    Log    PASSED    in Default,                      Receiver:  Received : 0000004A
%%   1400 ns    Log    PASSED    in Default,                      Receiver:  Received : 0000004B
%%   1400 ns    Log    PASSED    in Default,                      Receiver:  Received : 0000004C
%%   1400 ns    Log    PASSED    in Default,                      Receiver:  Received : 0000004D
%%   1400 ns    Log    PASSED    in Default,                      Receiver:  Received : 0000004E
%%   1400 ns    Log    PASSED    in Default,                      Receiver:  Received : 0000004F
%%   1400 ns    Log    PASSED    in Default,                      Receiver:  Received : 00000050
%%   1400 ns    Log    PASSED    in Default,                      Receiver:  Received : 00000051
%%   1400 ns    Log    PASSED    in Default,                      Receiver:  Received : 00000052
%%   1400 ns    Log    PASSED    in Default,                      Receiver:  Received : 00000053
%%   1400 ns    Log    PASSED    in Default,                      Receiver:  Received : 00000054
%%   1400 ns    Log    PASSED    in Default,                      Receiver:  Received : 00000055
%%   1400 ns    Log    PASSED    in Default,                      Receiver:  Received : 00000056
%%   1400 ns    Log    PASSED    in Default,                      Receiver:  Received : 00000057
%%   1400 ns    Log    PASSED    in Default,                      Receiver:  Received : 00000058
%%   1400 ns    Log    PASSED    in Default,                      Receiver:  Received : 00000059
%%   1400 ns    Log    PASSED    in Default,                      Receiver:  Received : 0000005A
%%   1400 ns    Log    PASSED    in Default,                      Receiver:  Received : 0000005B
%%   1400 ns    Log    PASSED    in Default,                      Receiver:  Received : 0000005C
%%   1400 ns    Log    PASSED    in Default,                      Receiver:  Received : 0000005D
%%   1400 ns    Log    PASSED    in Default,                      Receiver:  Received : 0000005E
%%   1400 ns    Log    PASSED    in Default,                      Receiver:  Received : 0000005F
%%   1400 ns    Log    PASSED    in Default,                      Receiver:  Received : 00000060
%%   1400 ns    Log    PASSED    in Default,                      Receiver:  Received : 00000061
%%   1400 ns    Log    PASSED    in Default,                      Receiver:  Received : 00000062
%%   1400 ns    Log    PASSED    in Default,                      Receiver:  Received : 00000063
%%   1400 ns    Log    PASSED    in Default,                      Receiver:  Received : 00000064
%%   1400 ns    Log    PASSED    in Default,                      Receiver:  Received : 00000065
%%   1400 ns    Log    PASSED    in Default,                      Receiver:  Received : 00000066
%%   1400 ns    Log    PASSED    in Default,                      Receiver:  Received : 00000067
%%   1400 ns    Log    PASSED    in Default,                      Receiver:  Received : 00000068
%%   1400 ns    Log    PASSED    in Default,                      Receiver:  Received : 00000069
%%   1400 ns    Log    PASSED    in Default,                      Receiver:  Received : 0000006A
%%   1400 ns    Log    PASSED    in Default,                      Receiver:  Received : 0000006B
%%   1400 ns    Log    PASSED    in Default,                      Receiver:  Received : 0000006C
%%   1400 ns    Log    PASSED    in Default,                      Receiver:  Received : 0000006D
%%   1400 ns    Log    PASSED    in Default,                      Receiver:  Received : 0000006E
%%   1400 ns    Log    PASSED    in Default,                      Receiver:  Received : 0000006F
%%   1400 ns    Log    PASSED    in Default,                      Receiver:  Received : 00000070
%%   1400 ns    Log    PASSED    in Default,                      Receiver:  Received : 00000071
%%   1400 ns    Log    PASSED    in Default,                      Receiver:  Received : 00000072
%%   1400 ns    Log    PASSED    in Default,                      Receiver:  Received : 00000073
%%   1400 ns    Log    PASSED    in Default,                      Receiver:  Received : 00000074
%%   1400 ns    Log    PASSED    in Default,                      Receiver:  Received : 00000075
%%   1400 ns    Log    PASSED    in Default,                      Receiver:  Received : 00000076
%%   1400 ns    Log    PASSED    in Default,                      Receiver:  Received : 00000077
%%   1400 ns    Log    PASSED    in Default,                      Receiver:  Received : 00000078
%%   1400 ns    Log    PASSED    in Default,                      Receiver:  Received : 00000079
%%   1400 ns    Log    PASSED    in Default,                      Receiver:  Received : 0000007A
%%   1400 ns    Log    PASSED    in Default,                      Receiver:  Received : 0000007B
%%   1400 ns    Log    PASSED    in Default,                      Receiver:  Received : 0000007C
%%   1400 ns    Log    PASSED    in Default,                      Receiver:  Received : 0000007D
%%   1400 ns    Log    PASSED    in Default,                      Receiver:  Received : 0000007E
%%   1400 ns    Log    PASSED    in Default,                      Receiver:  Received : 0000007F
%%   1400 ns    Log    PASSED    in Default,                      Receiver:  Received : 00000080
%%   1400 ns    Log    PASSED    in Default,                      Receiver:  Received : 00000081
%%   1410 ns    Log    INFO      in transmitter_1,                Axi Stream Send.  TData: 00000083  TStrb: 1111  TKeep: 1111  TID: 01  TDest: 2  TUser: 3  TLast: 0  Operation# 131
%%   1420 ns    Log    INFO      in transmitter_1,                Axi Stream Send.  TData: 00000084  TStrb: 1111  TKeep: 1111  TID: 01  TDest: 2  TUser: 3  TLast: 0  Operation# 132
%%   1430 ns    Log    INFO      in transmitter_1,                Axi Stream Send.  TData: 00000085  TStrb: 1111  TKeep: 1111  TID: 01  TDest: 2  TUser: 3  TLast: 0  Operation# 133
%%   1440 ns    Log    INFO      in transmitter_1,                Axi Stream Send.  TData: 00000086  TStrb: 1111  TKeep: 1111  TID: 01  TDest: 2  TUser: 3  TLast: 0  Operation# 134
%%   1450 ns    Log    INFO      in transmitter_1,                Axi Stream Send.  TData: 00000087  TStrb: 1111  TKeep: 1111  TID: 01  TDest: 2  TUser: 3  TLast: 0  Operation# 135
%%   1460 ns    Log    INFO      in transmitter_1,                Axi Stream Send.  TData: 00000088  TStrb: 1111  TKeep: 1111  TID: 01  TDest: 2  TUser: 3  TLast: 0  Operation# 136
%%   1470 ns    Log    INFO      in transmitter_1,                Axi Stream Send.  TData: 00000089  TStrb: 1111  TKeep: 1111  TID: 01  TDest: 2  TUser: 3  TLast: 0  Operation# 137
%%   1480 ns    Log    INFO      in transmitter_1,                Axi Stream Send.  TData: 0000008A  TStrb: 1111  TKeep: 1111  TID: 01  TDest: 2  TUser: 3  TLast: 0  Operation# 138
%%   1490 ns    Log    INFO      in transmitter_1,                Axi Stream Send.  TData: 0000008B  TStrb: 1111  TKeep: 1111  TID: 01  TDest: 2  TUser: 3  TLast: 0  Operation# 139
%%   1500 ns    Log    INFO      in transmitter_1,                Axi Stream Send.  TData: 0000008C  TStrb: 1111  TKeep: 1111  TID: 01  TDest: 2  TUser: 3  TLast: 0  Operation# 140
%%   1510 ns    Log    INFO      in transmitter_1,                Axi Stream Send.  TData: 0000008D  TStrb: 1111  TKeep: 1111  TID: 01  TDest: 2  TUser: 3  TLast: 0  Operation# 141
%%   1520 ns    Log    INFO      in transmitter_1,                Axi Stream Send.  TData: 0000008E  TStrb: 1111  TKeep: 1111  TID: 01  TDest: 2  TUser: 3  TLast: 0  Operation# 142
%%   1530 ns    Log    INFO      in transmitter_1,                Axi Stream Send.  TData: 0000008F  TStrb: 1111  TKeep: 1111  TID: 01  TDest: 2  TUser: 3  TLast: 0  Operation# 143
%%   1540 ns    Log    INFO      in transmitter_1,                Axi Stream Send.  TData: 00000090  TStrb: 1111  TKeep: 1111  TID: 01  TDest: 2  TUser: 3  TLast: 0  Operation# 144
%%   1550 ns    Log    INFO      in transmitter_1,                Axi Stream Send.  TData: 00000091  TStrb: 1111  TKeep: 1111  TID: 01  TDest: 2  TUser: 3  TLast: 0  Operation# 145
%%   1560 ns    Log    INFO      in transmitter_1,                Axi Stream Send.  TData: 00000092  TStrb: 1111  TKeep: 1111  TID: 01  TDest: 2  TUser: 3  TLast: 0  Operation# 146
%%   1570 ns    Log    INFO      in transmitter_1,                Axi Stream Send.  TData: 00000093  TStrb: 1111  TKeep: 1111  TID: 01  TDest: 2  TUser: 3  TLast: 0  Operation# 147
%%   1580 ns    Log    INFO      in transmitter_1,                Axi Stream Send.  TData: 00000094  TStrb: 1111  TKeep: 1111  TID: 01  TDest: 2  TUser: 3  TLast: 0  Operation# 148
%%   1590 ns    Log    INFO      in transmitter_1,                Axi Stream Send.  TData: 00000095  TStrb: 1111  TKeep: 1111  TID: 01  TDest: 2  TUser: 3  TLast: 0  Operation# 149
%%   1600 ns    Log    INFO      in transmitter_1,                Axi Stream Send.  TData: 00000096  TStrb: 1111  TKeep: 1111  TID: 01  TDest: 2  TUser: 3  TLast: 0  Operation# 150
%%   1610 ns    Log    INFO      in transmitter_1,                Axi Stream Send.  TData: 00000097  TStrb: 1111  TKeep: 1111  TID: 01  TDest: 2  TUser: 3  TLast: 0  Operation# 151
%%   1620 ns    Log    INFO      in transmitter_1,                Axi Stream Send.  TData: 00000098  TStrb: 1111  TKeep: 1111  TID: 01  TDest: 2  TUser: 3  TLast: 0  Operation# 152
%%   1630 ns    Log    INFO      in transmitter_1,                Axi Stream Send.  TData: 00000099  TStrb: 1111  TKeep: 1111  TID: 01  TDest: 2  TUser: 3  TLast: 0  Operation# 153
%%   1640 ns    Log    INFO      in transmitter_1,                Axi Stream Send.  TData: 0000009A  TStrb: 1111  TKeep: 1111  TID: 01  TDest: 2  TUser: 3  TLast: 0  Operation# 154
%%   1650 ns    Log    INFO      in transmitter_1,                Axi Stream Send.  TData: 0000009B  TStrb: 1111  TKeep: 1111  TID: 01  TDest: 2  TUser: 3  TLast: 0  Operation# 155
%%   1660 ns    Log    INFO      in transmitter_1,                Axi Stream Send.  TData: 0000009C  TStrb: 1111  TKeep: 1111  TID: 01  TDest: 2  TUser: 3  TLast: 0  Operation# 156
%%   1670 ns    Log    INFO      in transmitter_1,                Axi Stream Send.  TData: 0000009D  TStrb: 1111  TKeep: 1111  TID: 01  TDest: 2  TUser: 3  TLast: 0  Operation# 157
%%   1680 ns    Log    INFO      in transmitter_1,                Axi Stream Send.  TData: 0000009E  TStrb: 1111  TKeep: 1111  TID: 01  TDest: 2  TUser: 3  TLast: 0  Operation# 158
%%   1690 ns    Log    INFO      in transmitter_1,                Axi Stream Send.  TData: 0000009F  TStrb: 1111  TKeep: 1111  TID: 01  TDest: 2  TUser: 3  TLast: 0  Operation# 159
%%   1700 ns    Log    INFO      in transmitter_1,                Axi Stream Send.  TData: 000000A0  TStrb: 1111  TKeep: 1111  TID: 01  TDest: 2  TUser: 3  TLast: 0  Operation# 160
%%   1710 ns    Log    INFO      in transmitter_1,                Axi Stream Send.  TData: 000000A1  TStrb: 1111  TKeep: 1111  TID: 01  TDest: 2  TUser: 3  TLast: 0  Operation# 161
%%   1720 ns    Log    INFO      in transmitter_1,                Axi Stream Send.  TData: 000000A2  TStrb: 1111  TKeep: 1111  TID: 01  TDest: 2  TUser: 3  TLast: 0  Operation# 162
%%   1730 ns    Log    INFO      in transmitter_1,                Axi Stream Send.  TData: 000000A3  TStrb: 1111  TKeep: 1111  TID: 01  TDest: 2  TUser: 3  TLast: 0  Operation# 163
%%   1740 ns    Log    INFO      in transmitter_1,                Axi Stream Send.  TData: 000000A4  TStrb: 1111  TKeep: 1111  TID: 01  TDest: 2  TUser: 3  TLast: 0  Operation# 164
%%   1750 ns    Log    INFO      in transmitter_1,                Axi Stream Send.  TData: 000000A5  TStrb: 1111  TKeep: 1111  TID: 01  TDest: 2  TUser: 3  TLast: 0  Operation# 165
%%   1760 ns    Log    INFO      in transmitter_1,                Axi Stream Send.  TData: 000000A6  TStrb: 1111  TKeep: 1111  TID: 01  TDest: 2  TUser: 3  TLast: 0  Operation# 166
%%   1770 ns    Log    INFO      in transmitter_1,                Axi Stream Send.  TData: 000000A7  TStrb: 1111  TKeep: 1111  TID: 01  TDest: 2  TUser: 3  TLast: 0  Operation# 167
%%   1780 ns    Log    INFO      in transmitter_1,                Axi Stream Send.  TData: 000000A8  TStrb: 1111  TKeep: 1111  TID: 01  TDest: 2  TUser: 3  TLast: 0  Operation# 168
%%   1790 ns    Log    INFO      in transmitter_1,                Axi Stream Send.  TData: 000000A9  TStrb: 1111  TKeep: 1111  TID: 01  TDest: 2  TUser: 3  TLast: 0  Operation# 169
%%   1800 ns    Log    INFO      in transmitter_1,                Axi Stream Send.  TData: 000000AA  TStrb: 1111  TKeep: 1111  TID: 01  TDest: 2  TUser: 3  TLast: 0  Operation# 170
%%   1810 ns    Log    INFO      in transmitter_1,                Axi Stream Send.  TData: 000000AB  TStrb: 1111  TKeep: 1111  TID: 01  TDest: 2  TUser: 3  TLast: 0  Operation# 171
%%   1820 ns    Log    INFO      in transmitter_1,                Axi Stream Send.  TData: 000000AC  TStrb: 1111  TKeep: 1111  TID: 01  TDest: 2  TUser: 3  TLast: 0  Operation# 172
%%   1830 ns    Log    INFO      in transmitter_1,                Axi Stream Send.  TData: 000000AD  TStrb: 1111  TKeep: 1111  TID: 01  TDest: 2  TUser: 3  TLast: 0  Operation# 173
%%   1840 ns    Log    INFO      in transmitter_1,                Axi Stream Send.  TData: 000000AE  TStrb: 1111  TKeep: 1111  TID: 01  TDest: 2  TUser: 3  TLast: 0  Operation# 174
%%   1850 ns    Log    INFO      in transmitter_1,                Axi Stream Send.  TData: 000000AF  TStrb: 1111  TKeep: 1111  TID: 01  TDest: 2  TUser: 3  TLast: 0  Operation# 175
%%   1860 ns    Log    INFO      in transmitter_1,                Axi Stream Send.  TData: 000000B0  TStrb: 1111  TKeep: 1111  TID: 01  TDest: 2  TUser: 3  TLast: 0  Operation# 176
%%   1870 ns    Log    INFO      in transmitter_1,                Axi Stream Send.  TData: 000000B1  TStrb: 1111  TKeep: 1111  TID: 01  TDest: 2  TUser: 3  TLast: 0  Operation# 177
%%   1880 ns    Log    INFO      in transmitter_1,                Axi Stream Send.  TData: 000000B2  TStrb: 1111  TKeep: 1111  TID: 01  TDest: 2  TUser: 3  TLast: 0  Operation# 178
%%   1890 ns    Log    INFO      in transmitter_1,                Axi Stream Send.  TData: 000000B3  TStrb: 1111  TKeep: 1111  TID: 01  TDest: 2  TUser: 3  TLast: 0  Operation# 179
%%   1900 ns    Log    INFO      in transmitter_1,                Axi Stream Send.  TData: 000000B4  TStrb: 1111  TKeep: 1111  TID: 01  TDest: 2  TUser: 3  TLast: 0  Operation# 180
%%   1910 ns    Log    INFO      in transmitter_1,                Axi Stream Send.  TData: 000000B5  TStrb: 1111  TKeep: 1111  TID: 01  TDest: 2  TUser: 3  TLast: 0  Operation# 181
%%   1920 ns    Log    INFO      in transmitter_1,                Axi Stream Send.  TData: 000000B6  TStrb: 1111  TKeep: 1111  TID: 01  TDest: 2  TUser: 3  TLast: 0  Operation# 182
%%   1930 ns    Log    INFO      in transmitter_1,                Axi Stream Send.  TData: 000000B7  TStrb: 1111  TKeep: 1111  TID: 01  TDest: 2  TUser: 3  TLast: 0  Operation# 183
%%   1940 ns    Log    INFO      in transmitter_1,                Axi Stream Send.  TData: 000000B8  TStrb: 1111  TKeep: 1111  TID: 01  TDest: 2  TUser: 3  TLast: 0  Operation# 184
%%   1950 ns    Log    INFO      in transmitter_1,                Axi Stream Send.  TData: 000000B9  TStrb: 1111  TKeep: 1111  TID: 01  TDest: 2  TUser: 3  TLast: 0  Operation# 185
%%   1960 ns    Log    INFO      in transmitter_1,                Axi Stream Send.  TData: 000000BA  TStrb: 1111  TKeep: 1111  TID: 01  TDest: 2  TUser: 3  TLast: 0  Operation# 186
%%   1970 ns    Log    INFO      in transmitter_1,                Axi Stream Send.  TData: 000000BB  TStrb: 1111  TKeep: 1111  TID: 01  TDest: 2  TUser: 3  TLast: 0  Operation# 187
%%   1980 ns    Log    INFO      in transmitter_1,                Axi Stream Send.  TData: 000000BC  TStrb: 1111  TKeep: 1111  TID: 01  TDest: 2  TUser: 3  TLast: 0  Operation# 188
%%   1990 ns    Log    INFO      in transmitter_1,                Axi Stream Send.  TData: 000000BD  TStrb: 1111  TKeep: 1111  TID: 01  TDest: 2  TUser: 3  TLast: 0  Operation# 189
%%   2000 ns    Log    INFO      in transmitter_1,                Axi Stream Send.  TData: 000000BE  TStrb: 1111  TKeep: 1111  TID: 01  TDest: 2  TUser: 3  TLast: 0  Operation# 190
%%   2010 ns    Log    INFO      in transmitter_1,                Axi Stream Send.  TData: 000000BF  TStrb: 1111  TKeep: 1111  TID: 01  TDest: 2  TUser: 3  TLast: 0  Operation# 191
%%   2020 ns    Log    INFO      in transmitter_1,                Axi Stream Send.  TData: 000000C0  TStrb: 1111  TKeep: 1111  TID: 01  TDest: 2  TUser: 3  TLast: 0  Operation# 192
%%   2030 ns    Log    INFO      in transmitter_1,                Axi Stream Send.  TData: 000000C1  TStrb: 1111  TKeep: 1111  TID: 01  TDest: 2  TUser: 3  TLast: 0  Operation# 193
%%   2040 ns    Log    INFO      in transmitter_1,                Axi Stream Send.  TData: 000000C2  TStrb: 1111  TKeep: 1111  TID: 01  TDest: 2  TUser: 3  TLast: 0  Operation# 194
%%   2050 ns    Log    INFO      in transmitter_1,                Axi Stream Send.  TData: 000000C3  TStrb: 1111  TKeep: 1111  TID: 01  TDest: 2  TUser: 3  TLast: 1  Operation# 195
%%   2060 ns    Log    INFO      in transmitter_1,                Axi Stream Send.  TData: 000000C4  TStrb: 1111  TKeep: 1111  TID: 01  TDest: 2  TUser: 3  TLast: 0  Operation# 196
%%   2060 ns    Log    INFO      in receiver_1,                   Burst Receive.  Operation# 3  Last Data: 000000C3  TID: 01  TDest: 2  TUser: 3  TLast: 1
%%   2060 ns    Log    PASSED    in Default,                      TryCount 66
%%   2060 ns    Log    PASSED    in Default,                      Receiver: NumBytes Received Received : 264
%%   2060 ns    Log    PASSED    in Default,                      Receiver, ID:  Received : 01
%%   2060 ns    Log    PASSED    in Default,                      Receiver, Dest:  Received : 2
%%   2060 ns    Log    PASSED    in Default,                      Receiver, User:  Received : 3
%%   2060 ns    Log    PASSED    in Default,                      Receiver:  Received : 00000082
%%   2060 ns    Log    PASSED    in Default,                      Receiver:  Received : 00000083
%%   2060 ns    Log    PASSED    in Default,                      Receiver:  Received : 00000084
%%   2060 ns    Log    PASSED    in Default,                      Receiver:  Received : 00000085
%%   2060 ns    Log    PASSED    in Default,                      Receiver:  Received : 00000086
%%   2060 ns    Log    PASSED    in Default,                      Receiver:  Received : 00000087
%%   2060 ns    Log    PASSED    in Default,                      Receiver:  Received : 00000088
%%   2060 ns    Log    PASSED    in Default,                      Receiver:  Received : 00000089
%%   2060 ns    Log    PASSED    in Default,                      Receiver:  Received : 0000008A
%%   2060 ns    Log    PASSED    in Default,                      Receiver:  Received : 0000008B
%%   2060 ns    Log    PASSED    in Default,                      Receiver:  Received : 0000008C
%%   2060 ns    Log    PASSED    in Default,                      Receiver:  Received : 0000008D
%%   2060 ns    Log    PASSED    in Default,                      Receiver:  Received : 0000008E
%%   2060 ns    Log    PASSED    in Default,                      Receiver:  Received : 0000008F
%%   2060 ns    Log    PASSED    in Default,                      Receiver:  Received : 00000090
%%   2060 ns    Log    PASSED    in Default,                      Receiver:  Received : 00000091
%%   2060 ns    Log    PASSED    in Default,                      Receiver:  Received : 00000092
%%   2060 ns    Log    PASSED    in Default,                      Receiver:  Received : 00000093
%%   2060 ns    Log    PASSED    in Default,                      Receiver:  Received : 00000094
%%   2060 ns    Log    PASSED    in Default,                      Receiver:  Received : 00000095
%%   2060 ns    Log    PASSED    in Default,                      Receiver:  Received : 00000096
%%   2060 ns    Log    PASSED    in Default,                      Receiver:  Received : 00000097
%%   2060 ns    Log    PASSED    in Default,                      Receiver:  Received : 00000098
%%   2060 ns    Log    PASSED    in Default,                      Receiver:  Received : 00000099
%%   2060 ns    Log    PASSED    in Default,                      Receiver:  Received : 0000009A
%%   2060 ns    Log    PASSED    in Default,                      Receiver:  Received : 0000009B
%%   2060 ns    Log    PASSED    in Default,                      Receiver:  Received : 0000009C
%%   2060 ns    Log    PASSED    in Default,                      Receiver:  Received : 0000009D
%%   2060 ns    Log    PASSED    in Default,                      Receiver:  Received : 0000009E
%%   2060 ns    Log    PASSED    in Default,                      Receiver:  Received : 0000009F
%%   2060 ns    Log    PASSED    in Default,                      Receiver:  Received : 000000A0
%%   2060 ns    Log    PASSED    in Default,                      Receiver:  Received : 000000A1
%%   2060 ns    Log    PASSED    in Default,                      Receiver:  Received : 000000A2
%%   2060 ns    Log    PASSED    in Default,                      Receiver:  Received : 000000A3
%%   2060 ns    Log    PASSED    in Default,                      Receiver:  Received : 000000A4
%%   2060 ns    Log    PASSED    in Default,                      Receiver:  Received : 000000A5
%%   2060 ns    Log    PASSED    in Default,                      Receiver:  Received : 000000A6
%%   2060 ns    Log    PASSED    in Default,                      Receiver:  Received : 000000A7
%%   2060 ns    Log    PASSED    in Default,                      Receiver:  Received : 000000A8
%%   2060 ns    Log    PASSED    in Default,                      Receiver:  Received : 000000A9
%%   2060 ns    Log    PASSED    in Default,                      Receiver:  Received : 000000AA
%%   2060 ns    Log    PASSED    in Default,                      Receiver:  Received : 000000AB
%%   2060 ns    Log    PASSED    in Default,                      Receiver:  Received : 000000AC
%%   2060 ns    Log    PASSED    in Default,                      Receiver:  Received : 000000AD
%%   2060 ns    Log    PASSED    in Default,                      Receiver:  Received : 000000AE
%%   2060 ns    Log    PASSED    in Default,                      Receiver:  Received : 000000AF
%%   2060 ns    Log    PASSED    in Default,                      Receiver:  Received : 000000B0
%%   2060 ns    Log    PASSED    in Default,                      Receiver:  Received : 000000B1
%%   2060 ns    Log    PASSED    in Default,                      Receiver:  Received : 000000B2
%%   2060 ns    Log    PASSED    in Default,                      Receiver:  Received : 000000B3
%%   2060 ns    Log    PASSED    in Default,                      Receiver:  Received : 000000B4
%%   2060 ns    Log    PASSED    in Default,                      Receiver:  Received : 000000B5
%%   2060 ns    Log    PASSED    in Default,                      Receiver:  Received : 000000B6
%%   2060 ns    Log    PASSED    in Default,                      Receiver:  Received : 000000B7
%%   2060 ns    Log    PASSED    in Default,                      Receiver:  Received : 000000B8
%%   2060 ns    Log    PASSED    in Default,                      Receiver:  Received : 000000B9
%%   2060 ns    Log    PASSED    in Default,                      Receiver:  Received : 000000BA
%%   2060 ns    Log    PASSED    in Default,                      Receiver:  Received : 000000BB
%%   2060 ns    Log    PASSED    in Default,                      Receiver:  Received : 000000BC
%%   2060 ns    Log    PASSED    in Default,                      Receiver:  Received : 000000BD
%%   2060 ns    Log    PASSED    in Default,                      Receiver:  Received : 000000BE
%%   2060 ns    Log    PASSED    in Default,                      Receiver:  Received : 000000BF
%%   2060 ns    Log    PASSED    in Default,                      Receiver:  Received : 000000C0
%%   2060 ns    Log    PASSED    in Default,                      Receiver:  Received : 000000C1
%%   2060 ns    Log    PASSED    in Default,                      Receiver:  Received : 000000C2
%%   2060 ns    Log    PASSED    in Default,                      Receiver:  Received : 000000C3
%%   2070 ns    Log    INFO      in transmitter_1,                Axi Stream Send.  TData: 000000C5  TStrb: 1111  TKeep: 1111  TID: 01  TDest: 2  TUser: 3  TLast: 0  Operation# 197
%%   2080 ns    Log    INFO      in transmitter_1,                Axi Stream Send.  TData: 000000C6  TStrb: 1111  TKeep: 1111  TID: 01  TDest: 2  TUser: 3  TLast: 0  Operation# 198
%%   2090 ns    Log    INFO      in transmitter_1,                Axi Stream Send.  TData: 000000C7  TStrb: 1111  TKeep: 1111  TID: 01  TDest: 2  TUser: 3  TLast: 0  Operation# 199
%%   2100 ns    Log    INFO      in transmitter_1,                Axi Stream Send.  TData: 000000C8  TStrb: 1111  TKeep: 1111  TID: 01  TDest: 2  TUser: 3  TLast: 0  Operation# 200
%%   2110 ns    Log    INFO      in transmitter_1,                Axi Stream Send.  TData: 000000C9  TStrb: 1111  TKeep: 1111  TID: 01  TDest: 2  TUser: 3  TLast: 0  Operation# 201
%%   2120 ns    Log    INFO      in transmitter_1,                Axi Stream Send.  TData: 000000CA  TStrb: 1111  TKeep: 1111  TID: 01  TDest: 2  TUser: 3  TLast: 0  Operation# 202
%%   2130 ns    Log    INFO      in transmitter_1,                Axi Stream Send.  TData: 000000CB  TStrb: 1111  TKeep: 1111  TID: 01  TDest: 2  TUser: 3  TLast: 0  Operation# 203
%%   2140 ns    Log    INFO      in transmitter_1,                Axi Stream Send.  TData: 000000CC  TStrb: 1111  TKeep: 1111  TID: 01  TDest: 2  TUser: 3  TLast: 0  Operation# 204
%%   2150 ns    Log    INFO      in transmitter_1,                Axi Stream Send.  TData: 000000CD  TStrb: 1111  TKeep: 1111  TID: 01  TDest: 2  TUser: 3  TLast: 0  Operation# 205
%%   2160 ns    Log    INFO      in transmitter_1,                Axi Stream Send.  TData: 000000CE  TStrb: 1111  TKeep: 1111  TID: 01  TDest: 2  TUser: 3  TLast: 0  Operation# 206
%%   2170 ns    Log    INFO      in transmitter_1,                Axi Stream Send.  TData: 000000CF  TStrb: 1111  TKeep: 1111  TID: 01  TDest: 2  TUser: 3  TLast: 0  Operation# 207
%%   2180 ns    Log    INFO      in transmitter_1,                Axi Stream Send.  TData: 000000D0  TStrb: 1111  TKeep: 1111  TID: 01  TDest: 2  TUser: 3  TLast: 0  Operation# 208
%%   2190 ns    Log    INFO      in transmitter_1,                Axi Stream Send.  TData: 000000D1  TStrb: 1111  TKeep: 1111  TID: 01  TDest: 2  TUser: 3  TLast: 0  Operation# 209
%%   2200 ns    Log    INFO      in transmitter_1,                Axi Stream Send.  TData: 000000D2  TStrb: 1111  TKeep: 1111  TID: 01  TDest: 2  TUser: 3  TLast: 0  Operation# 210
%%   2210 ns    Log    INFO      in transmitter_1,                Axi Stream Send.  TData: 000000D3  TStrb: 1111  TKeep: 1111  TID: 01  TDest: 2  TUser: 3  TLast: 0  Operation# 211
%%   2220 ns    Log    INFO      in transmitter_1,                Axi Stream Send.  TData: 000000D4  TStrb: 1111  TKeep: 1111  TID: 01  TDest: 2  TUser: 3  TLast: 0  Operation# 212
%%   2230 ns    Log    INFO      in transmitter_1,                Axi Stream Send.  TData: 000000D5  TStrb: 1111  TKeep: 1111  TID: 01  TDest: 2  TUser: 3  TLast: 0  Operation# 213
%%   2240 ns    Log    INFO      in transmitter_1,                Axi Stream Send.  TData: 000000D6  TStrb: 1111  TKeep: 1111  TID: 01  TDest: 2  TUser: 3  TLast: 0  Operation# 214
%%   2250 ns    Log    INFO      in transmitter_1,                Axi Stream Send.  TData: 000000D7  TStrb: 1111  TKeep: 1111  TID: 01  TDest: 2  TUser: 3  TLast: 0  Operation# 215
%%   2260 ns    Log    INFO      in transmitter_1,                Axi Stream Send.  TData: 000000D8  TStrb: 1111  TKeep: 1111  TID: 01  TDest: 2  TUser: 3  TLast: 0  Operation# 216
%%   2270 ns    Log    INFO      in transmitter_1,                Axi Stream Send.  TData: 000000D9  TStrb: 1111  TKeep: 1111  TID: 01  TDest: 2  TUser: 3  TLast: 0  Operation# 217
%%   2280 ns    Log    INFO      in transmitter_1,                Axi Stream Send.  TData: 000000DA  TStrb: 1111  TKeep: 1111  TID: 01  TDest: 2  TUser: 3  TLast: 0  Operation# 218
%%   2290 ns    Log    INFO      in transmitter_1,                Axi Stream Send.  TData: 000000DB  TStrb: 1111  TKeep: 1111  TID: 01  TDest: 2  TUser: 3  TLast: 0  Operation# 219
%%   2300 ns    Log    INFO      in transmitter_1,                Axi Stream Send.  TData: 000000DC  TStrb: 1111  TKeep: 1111  TID: 01  TDest: 2  TUser: 3  TLast: 0  Operation# 220
%%   2310 ns    Log    INFO      in transmitter_1,                Axi Stream Send.  TData: 000000DD  TStrb: 1111  TKeep: 1111  TID: 01  TDest: 2  TUser: 3  TLast: 0  Operation# 221
%%   2320 ns    Log    INFO      in transmitter_1,                Axi Stream Send.  TData: 000000DE  TStrb: 1111  TKeep: 1111  TID: 01  TDest: 2  TUser: 3  TLast: 0  Operation# 222
%%   2330 ns    Log    INFO      in transmitter_1,                Axi Stream Send.  TData: 000000DF  TStrb: 1111  TKeep: 1111  TID: 01  TDest: 2  TUser: 3  TLast: 0  Operation# 223
%%   2340 ns    Log    INFO      in transmitter_1,                Axi Stream Send.  TData: 000000E0  TStrb: 1111  TKeep: 1111  TID: 01  TDest: 2  TUser: 3  TLast: 0  Operation# 224
%%   2350 ns    Log    INFO      in transmitter_1,                Axi Stream Send.  TData: 000000E1  TStrb: 1111  TKeep: 1111  TID: 01  TDest: 2  TUser: 3  TLast: 0  Operation# 225
%%   2360 ns    Log    INFO      in transmitter_1,                Axi Stream Send.  TData: 000000E2  TStrb: 1111  TKeep: 1111  TID: 01  TDest: 2  TUser: 3  TLast: 0  Operation# 226
%%   2370 ns    Log    INFO      in transmitter_1,                Axi Stream Send.  TData: 000000E3  TStrb: 1111  TKeep: 1111  TID: 01  TDest: 2  TUser: 3  TLast: 0  Operation# 227
%%   2380 ns    Log    INFO      in transmitter_1,                Axi Stream Send.  TData: 000000E4  TStrb: 1111  TKeep: 1111  TID: 01  TDest: 2  TUser: 3  TLast: 0  Operation# 228
%%   2390 ns    Log    INFO      in transmitter_1,                Axi Stream Send.  TData: 000000E5  TStrb: 1111  TKeep: 1111  TID: 01  TDest: 2  TUser: 3  TLast: 0  Operation# 229
%%   2400 ns    Log    INFO      in transmitter_1,                Axi Stream Send.  TData: 000000E6  TStrb: 1111  TKeep: 1111  TID: 01  TDest: 2  TUser: 3  TLast: 0  Operation# 230
%%   2410 ns    Log    INFO      in transmitter_1,                Axi Stream Send.  TData: 000000E7  TStrb: 1111  TKeep: 1111  TID: 01  TDest: 2  TUser: 3  TLast: 0  Operation# 231
%%   2420 ns    Log    INFO      in transmitter_1,                Axi Stream Send.  TData: 000000E8  TStrb: 1111  TKeep: 1111  TID: 01  TDest: 2  TUser: 3  TLast: 0  Operation# 232
%%   2430 ns    Log    INFO      in transmitter_1,                Axi Stream Send.  TData: 000000E9  TStrb: 1111  TKeep: 1111  TID: 01  TDest: 2  TUser: 3  TLast: 0  Operation# 233
%%   2440 ns    Log    INFO      in transmitter_1,                Axi Stream Send.  TData: 000000EA  TStrb: 1111  TKeep: 1111  TID: 01  TDest: 2  TUser: 3  TLast: 0  Operation# 234
%%   2450 ns    Log    INFO      in transmitter_1,                Axi Stream Send.  TData: 000000EB  TStrb: 1111  TKeep: 1111  TID: 01  TDest: 2  TUser: 3  TLast: 0  Operation# 235
%%   2460 ns    Log    INFO      in transmitter_1,                Axi Stream Send.  TData: 000000EC  TStrb: 1111  TKeep: 1111  TID: 01  TDest: 2  TUser: 3  TLast: 0  Operation# 236
%%   2470 ns    Log    INFO      in transmitter_1,                Axi Stream Send.  TData: 000000ED  TStrb: 1111  TKeep: 1111  TID: 01  TDest: 2  TUser: 3  TLast: 0  Operation# 237
%%   2480 ns    Log    INFO      in transmitter_1,                Axi Stream Send.  TData: 000000EE  TStrb: 1111  TKeep: 1111  TID: 01  TDest: 2  TUser: 3  TLast: 0  Operation# 238
%%   2490 ns    Log    INFO      in transmitter_1,                Axi Stream Send.  TData: 000000EF  TStrb: 1111  TKeep: 1111  TID: 01  TDest: 2  TUser: 3  TLast: 0  Operation# 239
%%   2500 ns    Log    INFO      in transmitter_1,                Axi Stream Send.  TData: 000000F0  TStrb: 1111  TKeep: 1111  TID: 01  TDest: 2  TUser: 3  TLast: 0  Operation# 240
%%   2510 ns    Log    INFO      in transmitter_1,                Axi Stream Send.  TData: 000000F1  TStrb: 1111  TKeep: 1111  TID: 01  TDest: 2  TUser: 3  TLast: 0  Operation# 241
%%   2520 ns    Log    INFO      in transmitter_1,                Axi Stream Send.  TData: 000000F2  TStrb: 1111  TKeep: 1111  TID: 01  TDest: 2  TUser: 3  TLast: 0  Operation# 242
%%   2530 ns    Log    INFO      in transmitter_1,                Axi Stream Send.  TData: 000000F3  TStrb: 1111  TKeep: 1111  TID: 01  TDest: 2  TUser: 3  TLast: 0  Operation# 243
%%   2540 ns    Log    INFO      in transmitter_1,                Axi Stream Send.  TData: 000000F4  TStrb: 1111  TKeep: 1111  TID: 01  TDest: 2  TUser: 3  TLast: 0  Operation# 244
%%   2550 ns    Log    INFO      in transmitter_1,                Axi Stream Send.  TData: 000000F5  TStrb: 1111  TKeep: 1111  TID: 01  TDest: 2  TUser: 3  TLast: 0  Operation# 245
%%   2560 ns    Log    INFO      in transmitter_1,                Axi Stream Send.  TData: 000000F6  TStrb: 1111  TKeep: 1111  TID: 01  TDest: 2  TUser: 3  TLast: 0  Operation# 246
%%   2570 ns    Log    INFO      in transmitter_1,                Axi Stream Send.  TData: 000000F7  TStrb: 1111  TKeep: 1111  TID: 01  TDest: 2  TUser: 3  TLast: 0  Operation# 247
%%   2580 ns    Log    INFO      in transmitter_1,                Axi Stream Send.  TData: 000000F8  TStrb: 1111  TKeep: 1111  TID: 01  TDest: 2  TUser: 3  TLast: 0  Operation# 248
%%   2590 ns    Log    INFO      in transmitter_1,                Axi Stream Send.  TData: 000000F9  TStrb: 1111  TKeep: 1111  TID: 01  TDest: 2  TUser: 3  TLast: 0  Operation# 249
%%   2600 ns    Log    INFO      in transmitter_1,                Axi Stream Send.  TData: 000000FA  TStrb: 1111  TKeep: 1111  TID: 01  TDest: 2  TUser: 3  TLast: 0  Operation# 250
%%   2610 ns    Log    INFO      in transmitter_1,                Axi Stream Send.  TData: 000000FB  TStrb: 1111  TKeep: 1111  TID: 01  TDest: 2  TUser: 3  TLast: 0  Operation# 251
%%   2620 ns    Log    INFO      in transmitter_1,                Axi Stream Send.  TData: 000000FC  TStrb: 1111  TKeep: 1111  TID: 01  TDest: 2  TUser: 3  TLast: 0  Operation# 252
%%   2630 ns    Log    INFO      in transmitter_1,                Axi Stream Send.  TData: 000000FD  TStrb: 1111  TKeep: 1111  TID: 01  TDest: 2  TUser: 3  TLast: 0  Operation# 253
%%   2640 ns    Log    INFO      in transmitter_1,                Axi Stream Send.  TData: 000000FE  TStrb: 1111  TKeep: 1111  TID: 01  TDest: 2  TUser: 3  TLast: 0  Operation# 254
%%   2650 ns    Log    INFO      in transmitter_1,                Axi Stream Send.  TData: 000000FF  TStrb: 1111  TKeep: 1111  TID: 01  TDest: 2  TUser: 3  TLast: 0  Operation# 255
%%   2660 ns    Log    INFO      in transmitter_1,                Axi Stream Send.  TData: 00000100  TStrb: 1111  TKeep: 1111  TID: 01  TDest: 2  TUser: 3  TLast: 0  Operation# 256
%%   2670 ns    Log    INFO      in transmitter_1,                Axi Stream Send.  TData: 00000101  TStrb: 1111  TKeep: 1111  TID: 01  TDest: 2  TUser: 3  TLast: 0  Operation# 257
%%   2680 ns    Log    INFO      in transmitter_1,                Axi Stream Send.  TData: 00000102  TStrb: 1111  TKeep: 1111  TID: 01  TDest: 2  TUser: 3  TLast: 0  Operation# 258
%%   2690 ns    Log    INFO      in transmitter_1,                Axi Stream Send.  TData: 00000103  TStrb: 1111  TKeep: 1111  TID: 01  TDest: 2  TUser: 3  TLast: 0  Operation# 259
%%   2700 ns    Log    INFO      in transmitter_1,                Axi Stream Send.  TData: 00000104  TStrb: 1111  TKeep: 1111  TID: 01  TDest: 2  TUser: 3  TLast: 0  Operation# 260
%%   2710 ns    Log    INFO      in transmitter_1,                Axi Stream Send.  TData: 00000105  TStrb: 1111  TKeep: 1111  TID: 01  TDest: 2  TUser: 3  TLast: 0  Operation# 261
%%   2720 ns    Log    INFO      in transmitter_1,                Axi Stream Send.  TData: 00000106  TStrb: 1111  TKeep: 1111  TID: 01  TDest: 2  TUser: 3  TLast: 1  Operation# 262
%%   2730 ns    Log    INFO      in transmitter_1,                Axi Stream Send.  TData: 00000107  TStrb: 1111  TKeep: 1111  TID: 02  TDest: 3  TUser: 4  TLast: 0  Operation# 263
%%   2730 ns    Log    INFO      in receiver_1,                   Burst Receive.  Operation# 4  Last Data: 00000106  TID: 01  TDest: 2  TUser: 3  TLast: 1
%%   2730 ns    Log    PASSED    in Default,                      TryCount 67
%%   2730 ns    Log    PASSED    in Default,                      Receiver: NumBytes Received Received : 268
%%   2730 ns    Log    PASSED    in Default,                      Receiver, ID:  Received : 01
%%   2730 ns    Log    PASSED    in Default,                      Receiver, Dest:  Received : 2
%%   2730 ns    Log    PASSED    in Default,                      Receiver, User:  Received : 3
%%   2730 ns    Log    PASSED    in Default,                      Receiver:  Received : 000000C4
%%   2730 ns    Log    PASSED    in Default,                      Receiver:  Received : 000000C5
%%   2730 ns    Log    PASSED    in Default,                      Receiver:  Received : 000000C6
%%   2730 ns    Log    PASSED    in Default,                      Receiver:  Received : 000000C7
%%   2730 ns    Log    PASSED    in Default,                      Receiver:  Received : 000000C8
%%   2730 ns    Log    PASSED    in Default,                      Receiver:  Received : 000000C9
%%   2730 ns    Log    PASSED    in Default,                      Receiver:  Received : 000000CA
%%   2730 ns    Log    PASSED    in Default,                      Receiver:  Received : 000000CB
%%   2730 ns    Log    PASSED    in Default,                      Receiver:  Received : 000000CC
%%   2730 ns    Log    PASSED    in Default,                      Receiver:  Received : 000000CD
%%   2730 ns    Log    PASSED    in Default,                      Receiver:  Received : 000000CE
%%   2730 ns    Log    PASSED    in Default,                      Receiver:  Received : 000000CF
%%   2730 ns    Log    PASSED    in Default,                      Receiver:  Received : 000000D0
%%   2730 ns    Log    PASSED    in Default,                      Receiver:  Received : 000000D1
%%   2730 ns    Log    PASSED    in Default,                      Receiver:  Received : 000000D2
%%   2730 ns    Log    PASSED    in Default,                      Receiver:  Received : 000000D3
%%   2730 ns    Log    PASSED    in Default,                      Receiver:  Received : 000000D4
%%   2730 ns    Log    PASSED    in Default,                      Receiver:  Received : 000000D5
%%   2730 ns    Log    PASSED    in Default,                      Receiver:  Received : 000000D6
%%   2730 ns    Log    PASSED    in Default,                      Receiver:  Received : 000000D7
%%   2730 ns    Log    PASSED    in Default,                      Receiver:  Received : 000000D8
%%   2730 ns    Log    PASSED    in Default,                      Receiver:  Received : 000000D9
%%   2730 ns    Log    PASSED    in Default,                      Receiver:  Received : 000000DA
%%   2730 ns    Log    PASSED    in Default,                      Receiver:  Received : 000000DB
%%   2730 ns    Log    PASSED    in Default,                      Receiver:  Received : 000000DC
%%   2730 ns    Log    PASSED    in Default,                      Receiver:  Received : 000000DD
%%   2730 ns    Log    PASSED    in Default,                      Receiver:  Received : 000000DE
%%   2730 ns    Log    PASSED    in Default,                      Receiver:  Received : 000000DF
%%   2730 ns    Log    PASSED    in Default,                      Receiver:  Received : 000000E0
%%   2730 ns    Log    PASSED    in Default,                      Receiver:  Received : 000000E1
%%   2730 ns    Log    PASSED    in Default,                      Receiver:  Received : 000000E2
%%   2730 ns    Log    PASSED    in Default,                      Receiver:  Received : 000000E3
%%   2730 ns    Log    PASSED    in Default,                      Receiver:  Received : 000000E4
%%   2730 ns    Log    PASSED    in Default,                      Receiver:  Received : 000000E5
%%   2730 ns    Log    PASSED    in Default,                      Receiver:  Received : 000000E6
%%   2730 ns    Log    PASSED    in Default,                      Receiver:  Received : 000000E7
%%   2730 ns    Log    PASSED    in Default,                      Receiver:  Received : 000000E8
%%   2730 ns    Log    PASSED    in Default,                      Receiver:  Received : 000000E9
%%   2730 ns    Log    PASSED    in Default,                      Receiver:  Received : 000000EA
%%   2730 ns    Log    PASSED    in Default,                      Receiver:  Received : 000000EB
%%   2730 ns    Log    PASSED    in Default,                      Receiver:  Received : 000000EC
%%   2730 ns    Log    PASSED    in Default,                      Receiver:  Received : 000000ED
%%   2730 ns    Log    PASSED    in Default,                      Receiver:  Received : 000000EE
%%   2730 ns    Log    PASSED    in Default,                      Receiver:  Received : 000000EF
%%   2730 ns    Log    PASSED    in Default,                      Receiver:  Received : 000000F0
%%   2730 ns    Log    PASSED    in Default,                      Receiver:  Received : 000000F1
%%   2730 ns    Log    PASSED    in Default,                      Receiver:  Received : 000000F2
%%   2730 ns    Log    PASSED    in Default,                      Receiver:  Received : 000000F3
%%   2730 ns    Log    PASSED    in Default,                      Receiver:  Received : 000000F4
%%   2730 ns    Log    PASSED    in Default,                      Receiver:  Received : 000000F5
%%   2730 ns    Log    PASSED    in Default,                      Receiver:  Received : 000000F6
%%   2730 ns    Log    PASSED    in Default,                      Receiver:  Received : 000000F7
%%   2730 ns    Log    PASSED    in Default,                      Receiver:  Received : 000000F8
%%   2730 ns    Log    PASSED    in Default,                      Receiver:  Received : 000000F9
%%   2730 ns    Log    PASSED    in Default,                      Receiver:  Received : 000000FA
%%   2730 ns    Log    PASSED    in Default,                      Receiver:  Received : 000000FB
%%   2730 ns    Log    PASSED    in Default,                      Receiver:  Received : 000000FC
%%   2730 ns    Log    PASSED    in Default,                      Receiver:  Received : 000000FD
%%   2730 ns    Log    PASSED    in Default,                      Receiver:  Received : 000000FE
%%   2730 ns    Log    PASSED    in Default,                      Receiver:  Received : 000000FF
%%   2730 ns    Log    PASSED    in Default,                      Receiver:  Received : 00000100
%%   2730 ns    Log    PASSED    in Default,                      Receiver:  Received : 00000101
%%   2730 ns    Log    PASSED    in Default,                      Receiver:  Received : 00000102
%%   2730 ns    Log    PASSED    in Default,                      Receiver:  Received : 00000103
%%   2730 ns    Log    PASSED    in Default,                      Receiver:  Received : 00000104
%%   2730 ns    Log    PASSED    in Default,                      Receiver:  Received : 00000105
%%   2730 ns    Log    PASSED    in Default,                      Receiver:  Received : 00000106
%%   2740 ns    Log    INFO      in transmitter_1,                Axi Stream Send.  TData: 00000108  TStrb: 1111  TKeep: 1111  TID: 02  TDest: 3  TUser: 4  TLast: 0  Operation# 264
%%   2750 ns    Log    INFO      in transmitter_1,                Axi Stream Send.  TData: 00000109  TStrb: 1111  TKeep: 1111  TID: 02  TDest: 3  TUser: 4  TLast: 0  Operation# 265
%%   2760 ns    Log    INFO      in transmitter_1,                Axi Stream Send.  TData: 0000010A  TStrb: 1111  TKeep: 1111  TID: 02  TDest: 3  TUser: 4  TLast: 0  Operation# 266
%%   2770 ns    Log    INFO      in transmitter_1,                Axi Stream Send.  TData: 0000010B  TStrb: 1111  TKeep: 1111  TID: 02  TDest: 3  TUser: 4  TLast: 0  Operation# 267
%%   2780 ns    Log    INFO      in transmitter_1,                Axi Stream Send.  TData: 0000010C  TStrb: 1111  TKeep: 1111  TID: 02  TDest: 3  TUser: 4  TLast: 0  Operation# 268
%%   2790 ns    Log    INFO      in transmitter_1,                Axi Stream Send.  TData: 0000010D  TStrb: 1111  TKeep: 1111  TID: 02  TDest: 3  TUser: 4  TLast: 0  Operation# 269
%%   2800 ns    Log    INFO      in transmitter_1,                Axi Stream Send.  TData: 0000010E  TStrb: 1111  TKeep: 1111  TID: 02  TDest: 3  TUser: 4  TLast: 0  Operation# 270
%%   2810 ns    Log    INFO      in transmitter_1,                Axi Stream Send.  TData: 0000010F  TStrb: 1111  TKeep: 1111  TID: 02  TDest: 3  TUser: 4  TLast: 0  Operation# 271
%%   2820 ns    Log    INFO      in transmitter_1,                Axi Stream Send.  TData: 00000110  TStrb: 1111  TKeep: 1111  TID: 02  TDest: 3  TUser: 4  TLast: 0  Operation# 272
%%   2830 ns    Log    INFO      in transmitter_1,                Axi Stream Send.  TData: 00000111  TStrb: 1111  TKeep: 1111  TID: 02  TDest: 3  TUser: 4  TLast: 0  Operation# 273
%%   2840 ns    Log    INFO      in transmitter_1,                Axi Stream Send.  TData: 00000112  TStrb: 1111  TKeep: 1111  TID: 02  TDest: 3  TUser: 4  TLast: 0  Operation# 274
%%   2850 ns    Log    INFO      in transmitter_1,                Axi Stream Send.  TData: 00000113  TStrb: 1111  TKeep: 1111  TID: 02  TDest: 3  TUser: 4  TLast: 0  Operation# 275
%%   2860 ns    Log    INFO      in transmitter_1,                Axi Stream Send.  TData: 00000114  TStrb: 1111  TKeep: 1111  TID: 02  TDest: 3  TUser: 4  TLast: 0  Operation# 276
%%   2870 ns    Log    INFO      in transmitter_1,                Axi Stream Send.  TData: 00000115  TStrb: 1111  TKeep: 1111  TID: 02  TDest: 3  TUser: 4  TLast: 0  Operation# 277
%%   2880 ns    Log    INFO      in transmitter_1,                Axi Stream Send.  TData: 00000116  TStrb: 1111  TKeep: 1111  TID: 02  TDest: 3  TUser: 4  TLast: 0  Operation# 278
%%   2890 ns    Log    INFO      in transmitter_1,                Axi Stream Send.  TData: 00000117  TStrb: 1111  TKeep: 1111  TID: 02  TDest: 3  TUser: 4  TLast: 0  Operation# 279
%%   2900 ns    Log    INFO      in transmitter_1,                Axi Stream Send.  TData: 00000118  TStrb: 1111  TKeep: 1111  TID: 02  TDest: 3  TUser: 4  TLast: 0  Operation# 280
%%   2910 ns    Log    INFO      in transmitter_1,                Axi Stream Send.  TData: 00000119  TStrb: 1111  TKeep: 1111  TID: 02  TDest: 3  TUser: 4  TLast: 0  Operation# 281
%%   2920 ns    Log    INFO      in transmitter_1,                Axi Stream Send.  TData: 0000011A  TStrb: 1111  TKeep: 1111  TID: 02  TDest: 3  TUser: 4  TLast: 0  Operation# 282
%%   2930 ns    Log    INFO      in transmitter_1,                Axi Stream Send.  TData: 0000011B  TStrb: 1111  TKeep: 1111  TID: 02  TDest: 3  TUser: 4  TLast: 0  Operation# 283
%%   2940 ns    Log    INFO      in transmitter_1,                Axi Stream Send.  TData: 0000011C  TStrb: 1111  TKeep: 1111  TID: 02  TDest: 3  TUser: 4  TLast: 0  Operation# 284
%%   2950 ns    Log    INFO      in transmitter_1,                Axi Stream Send.  TData: 0000011D  TStrb: 1111  TKeep: 1111  TID: 02  TDest: 3  TUser: 4  TLast: 0  Operation# 285
%%   2960 ns    Log    INFO      in transmitter_1,                Axi Stream Send.  TData: 0000011E  TStrb: 1111  TKeep: 1111  TID: 02  TDest: 3  TUser: 4  TLast: 0  Operation# 286
%%   2970 ns    Log    INFO      in transmitter_1,                Axi Stream Send.  TData: 0000011F  TStrb: 1111  TKeep: 1111  TID: 02  TDest: 3  TUser: 4  TLast: 0  Operation# 287
%%   2980 ns    Log    INFO      in transmitter_1,                Axi Stream Send.  TData: 00000120  TStrb: 1111  TKeep: 1111  TID: 02  TDest: 3  TUser: 4  TLast: 0  Operation# 288
%%   2990 ns    Log    INFO      in transmitter_1,                Axi Stream Send.  TData: 00000121  TStrb: 1111  TKeep: 1111  TID: 02  TDest: 3  TUser: 4  TLast: 0  Operation# 289
%%   3000 ns    Log    INFO      in transmitter_1,                Axi Stream Send.  TData: 00000122  TStrb: 1111  TKeep: 1111  TID: 02  TDest: 3  TUser: 4  TLast: 0  Operation# 290
%%   3010 ns    Log    INFO      in transmitter_1,                Axi Stream Send.  TData: 00000123  TStrb: 1111  TKeep: 1111  TID: 02  TDest: 3  TUser: 4  TLast: 0  Operation# 291
%%   3020 ns    Log    INFO      in transmitter_1,                Axi Stream Send.  TData: 00000124  TStrb: 1111  TKeep: 1111  TID: 02  TDest: 3  TUser: 4  TLast: 0  Operation# 292
%%   3030 ns    Log    INFO      in transmitter_1,                Axi Stream Send.  TData: 00000125  TStrb: 1111  TKeep: 1111  TID: 02  TDest: 3  TUser: 4  TLast: 0  Operation# 293
%%   3040 ns    Log    INFO      in transmitter_1,                Axi Stream Send.  TData: 00000126  TStrb: 1111  TKeep: 1111  TID: 02  TDest: 3  TUser: 4  TLast: 0  Operation# 294
%%   3050 ns    Log    INFO      in transmitter_1,                Axi Stream Send.  TData: 00000127  TStrb: 1111  TKeep: 1111  TID: 02  TDest: 3  TUser: 4  TLast: 0  Operation# 295
%%   3060 ns    Log    INFO      in transmitter_1,                Axi Stream Send.  TData: 00000128  TStrb: 1111  TKeep: 1111  TID: 02  TDest: 3  TUser: 4  TLast: 0  Operation# 296
%%   3070 ns    Log    INFO      in transmitter_1,                Axi Stream Send.  TData: 00000129  TStrb: 1111  TKeep: 1111  TID: 02  TDest: 3  TUser: 4  TLast: 0  Operation# 297
%%   3080 ns    Log    INFO      in transmitter_1,                Axi Stream Send.  TData: 0000012A  TStrb: 1111  TKeep: 1111  TID: 02  TDest: 3  TUser: 4  TLast: 0  Operation# 298
%%   3090 ns    Log    INFO      in transmitter_1,                Axi Stream Send.  TData: 0000012B  TStrb: 1111  TKeep: 1111  TID: 02  TDest: 3  TUser: 4  TLast: 0  Operation# 299
%%   3100 ns    Log    INFO      in transmitter_1,                Axi Stream Send.  TData: 0000012C  TStrb: 1111  TKeep: 1111  TID: 02  TDest: 3  TUser: 4  TLast: 0  Operation# 300
%%   3110 ns    Log    INFO      in transmitter_1,                Axi Stream Send.  TData: 0000012D  TStrb: 1111  TKeep: 1111  TID: 02  TDest: 3  TUser: 4  TLast: 0  Operation# 301
%%   3120 ns    Log    INFO      in transmitter_1,                Axi Stream Send.  TData: 0000012E  TStrb: 1111  TKeep: 1111  TID: 02  TDest: 3  TUser: 4  TLast: 0  Operation# 302
%%   3130 ns    Log    INFO      in transmitter_1,                Axi Stream Send.  TData: 0000012F  TStrb: 1111  TKeep: 1111  TID: 02  TDest: 3  TUser: 4  TLast: 0  Operation# 303
%%   3140 ns    Log    INFO      in transmitter_1,                Axi Stream Send.  TData: 00000130  TStrb: 1111  TKeep: 1111  TID: 02  TDest: 3  TUser: 4  TLast: 0  Operation# 304
%%   3150 ns    Log    INFO      in transmitter_1,                Axi Stream Send.  TData: 00000131  TStrb: 1111  TKeep: 1111  TID: 02  TDest: 3  TUser: 4  TLast: 0  Operation# 305
%%   3160 ns    Log    INFO      in transmitter_1,                Axi Stream Send.  TData: 00000132  TStrb: 1111  TKeep: 1111  TID: 02  TDest: 3  TUser: 4  TLast: 0  Operation# 306
%%   3170 ns    Log    INFO      in transmitter_1,                Axi Stream Send.  TData: 00000133  TStrb: 1111  TKeep: 1111  TID: 02  TDest: 3  TUser: 4  TLast: 0  Operation# 307
%%   3180 ns    Log    INFO      in transmitter_1,                Axi Stream Send.  TData: 00000134  TStrb: 1111  TKeep: 1111  TID: 02  TDest: 3  TUser: 4  TLast: 0  Operation# 308
%%   3190 ns    Log    INFO      in transmitter_1,                Axi Stream Send.  TData: 00000135  TStrb: 1111  TKeep: 1111  TID: 02  TDest: 3  TUser: 4  TLast: 0  Operation# 309
%%   3200 ns    Log    INFO      in transmitter_1,                Axi Stream Send.  TData: 00000136  TStrb: 1111  TKeep: 1111  TID: 02  TDest: 3  TUser: 4  TLast: 0  Operation# 310
%%   3210 ns    Log    INFO      in transmitter_1,                Axi Stream Send.  TData: 00000137  TStrb: 1111  TKeep: 1111  TID: 02  TDest: 3  TUser: 4  TLast: 0  Operation# 311
%%   3220 ns    Log    INFO      in transmitter_1,                Axi Stream Send.  TData: 00000138  TStrb: 1111  TKeep: 1111  TID: 02  TDest: 3  TUser: 4  TLast: 0  Operation# 312
%%   3230 ns    Log    INFO      in transmitter_1,                Axi Stream Send.  TData: 00000139  TStrb: 1111  TKeep: 1111  TID: 02  TDest: 3  TUser: 4  TLast: 0  Operation# 313
%%   3240 ns    Log    INFO      in transmitter_1,                Axi Stream Send.  TData: 0000013A  TStrb: 1111  TKeep: 1111  TID: 02  TDest: 3  TUser: 4  TLast: 0  Operation# 314
%%   3250 ns    Log    INFO      in transmitter_1,                Axi Stream Send.  TData: 0000013B  TStrb: 1111  TKeep: 1111  TID: 02  TDest: 3  TUser: 4  TLast: 0  Operation# 315
%%   3260 ns    Log    INFO      in transmitter_1,                Axi Stream Send.  TData: 0000013C  TStrb: 1111  TKeep: 1111  TID: 02  TDest: 3  TUser: 4  TLast: 0  Operation# 316
%%   3270 ns    Log    INFO      in transmitter_1,                Axi Stream Send.  TData: 0000013D  TStrb: 1111  TKeep: 1111  TID: 02  TDest: 3  TUser: 4  TLast: 0  Operation# 317
%%   3280 ns    Log    INFO      in transmitter_1,                Axi Stream Send.  TData: 0000013E  TStrb: 1111  TKeep: 1111  TID: 02  TDest: 3  TUser: 4  TLast: 0  Operation# 318
%%   3290 ns    Log    INFO      in transmitter_1,                Axi Stream Send.  TData: 0000013F  TStrb: 1111  TKeep: 1111  TID: 02  TDest: 3  TUser: 4  TLast: 0  Operation# 319
%%   3300 ns    Log    INFO      in transmitter_1,                Axi Stream Send.  TData: 00000140  TStrb: 1111  TKeep: 1111  TID: 02  TDest: 3  TUser: 4  TLast: 0  Operation# 320
%%   3310 ns    Log    INFO      in transmitter_1,                Axi Stream Send.  TData: 00000141  TStrb: 1111  TKeep: 1111  TID: 02  TDest: 3  TUser: 4  TLast: 0  Operation# 321
%%   3320 ns    Log    INFO      in transmitter_1,                Axi Stream Send.  TData: 00000142  TStrb: 1111  TKeep: 1111  TID: 02  TDest: 3  TUser: 4  TLast: 0  Operation# 322
%%   3330 ns    Log    INFO      in transmitter_1,                Axi Stream Send.  TData: 00000143  TStrb: 1111  TKeep: 1111  TID: 02  TDest: 3  TUser: 4  TLast: 0  Operation# 323
%%   3340 ns    Log    INFO      in transmitter_1,                Axi Stream Send.  TData: 00000144  TStrb: 1111  TKeep: 1111  TID: 02  TDest: 3  TUser: 4  TLast: 0  Operation# 324
%%   3350 ns    Log    INFO      in transmitter_1,                Axi Stream Send.  TData: 00000145  TStrb: 1111  TKeep: 1111  TID: 02  TDest: 3  TUser: 4  TLast: 0  Operation# 325
%%   3360 ns    Log    INFO      in transmitter_1,                Axi Stream Send.  TData: 00000146  TStrb: 1111  TKeep: 1111  TID: 02  TDest: 3  TUser: 4  TLast: 0  Operation# 326
%%   3370 ns    Log    INFO      in transmitter_1,                Axi Stream Send.  TData: 00000147  TStrb: 1111  TKeep: 1111  TID: 02  TDest: 3  TUser: 4  TLast: 0  Operation# 327
%%   3380 ns    Log    INFO      in transmitter_1,                Axi Stream Send.  TData: 00000148  TStrb: 1111  TKeep: 1111  TID: 02  TDest: 3  TUser: 4  TLast: 0  Operation# 328
%%   3390 ns    Log    INFO      in transmitter_1,                Axi Stream Send.  TData: 00000149  TStrb: 1111  TKeep: 1111  TID: 02  TDest: 3  TUser: 4  TLast: 0  Operation# 329
%%   3400 ns    Log    INFO      in transmitter_1,                Axi Stream Send.  TData: 0000014A  TStrb: 1111  TKeep: 1111  TID: 02  TDest: 3  TUser: 4  TLast: 1  Operation# 330
%%   3410 ns    Log    INFO      in receiver_1,                   Burst Receive.  Operation# 5  Last Data: 0000014A  TID: 02  TDest: 3  TUser: 4  TLast: 1
%%   3410 ns    Log    INFO      in transmitter_1,                Axi Stream Send.  TData: 0000014B  TStrb: 1111  TKeep: 1111  TID: 02  TDest: 3  TUser: 4  TLast: 0  Operation# 331
%%   3410 ns    Log    PASSED    in Default,                      TryCount 68
%%   3410 ns    Log    PASSED    in Default,                      Receiver: NumBytes Received Received : 272
%%   3410 ns    Log    PASSED    in Default,                      Receiver, ID:  Received : 02
%%   3410 ns    Log    PASSED    in Default,                      Receiver, Dest:  Received : 3
%%   3410 ns    Log    PASSED    in Default,                      Receiver, User:  Received : 4
%%   3410 ns    Log    PASSED    in Default,                      Receiver:  Received : 00000107
%%   3410 ns    Log    PASSED    in Default,                      Receiver:  Received : 00000108
%%   3410 ns    Log    PASSED    in Default,                      Receiver:  Received : 00000109
%%   3410 ns    Log    PASSED    in Default,                      Receiver:  Received : 0000010A
%%   3410 ns    Log    PASSED    in Default,                      Receiver:  Received : 0000010B
%%   3410 ns    Log    PASSED    in Default,                      Receiver:  Received : 0000010C
%%   3410 ns    Log    PASSED    in Default,                      Receiver:  Received : 0000010D
%%   3410 ns    Log    PASSED    in Default,                      Receiver:  Received : 0000010E
%%   3410 ns    Log    PASSED    in Default,                      Receiver:  Received : 0000010F
%%   3410 ns    Log    PASSED    in Default,                      Receiver:  Received : 00000110
%%   3410 ns    Log    PASSED    in Default,                      Receiver:  Received : 00000111
%%   3410 ns    Log    PASSED    in Default,                      Receiver:  Received : 00000112
%%   3410 ns    Log    PASSED    in Default,                      Receiver:  Received : 00000113
%%   3410 ns    Log    PASSED    in Default,                      Receiver:  Received : 00000114
%%   3410 ns    Log    PASSED    in Default,                      Receiver:  Received : 00000115
%%   3410 ns    Log    PASSED    in Default,                      Receiver:  Received : 00000116
%%   3410 ns    Log    PASSED    in Default,                      Receiver:  Received : 00000117
%%   3410 ns    Log    PASSED    in Default,                      Receiver:  Received : 00000118
%%   3410 ns    Log    PASSED    in Default,                      Receiver:  Received : 00000119
%%   3410 ns    Log    PASSED    in Default,                      Receiver:  Received : 0000011A
%%   3410 ns    Log    PASSED    in Default,                      Receiver:  Received : 0000011B
%%   3410 ns    Log    PASSED    in Default,                      Receiver:  Received : 0000011C
%%   3410 ns    Log    PASSED    in Default,                      Receiver:  Received : 0000011D
%%   3410 ns    Log    PASSED    in Default,                      Receiver:  Received : 0000011E
%%   3410 ns    Log    PASSED    in Default,                      Receiver:  Received : 0000011F
%%   3410 ns    Log    PASSED    in Default,                      Receiver:  Received : 00000120
%%   3410 ns    Log    PASSED    in Default,                      Receiver:  Received : 00000121
%%   3410 ns    Log    PASSED    in Default,                      Receiver:  Received : 00000122
%%   3410 ns    Log    PASSED    in Default,                      Receiver:  Received : 00000123
%%   3410 ns    Log    PASSED    in Default,                      Receiver:  Received : 00000124
%%   3410 ns    Log    PASSED    in Default,                      Receiver:  Received : 00000125
%%   3410 ns    Log    PASSED    in Default,                      Receiver:  Received : 00000126
%%   3410 ns    Log    PASSED    in Default,                      Receiver:  Received : 00000127
%%   3410 ns    Log    PASSED    in Default,                      Receiver:  Received : 00000128
%%   3410 ns    Log    PASSED    in Default,                      Receiver:  Received : 00000129
%%   3410 ns    Log    PASSED    in Default,                      Receiver:  Received : 0000012A
%%   3410 ns    Log    PASSED    in Default,                      Receiver:  Received : 0000012B
%%   3410 ns    Log    PASSED    in Default,                      Receiver:  Received : 0000012C
%%   3410 ns    Log    PASSED    in Default,                      Receiver:  Received : 0000012D
%%   3410 ns    Log    PASSED    in Default,                      Receiver:  Received : 0000012E
%%   3410 ns    Log    PASSED    in Default,                      Receiver:  Received : 0000012F
%%   3410 ns    Log    PASSED    in Default,                      Receiver:  Received : 00000130
%%   3410 ns    Log    PASSED    in Default,                      Receiver:  Received : 00000131
%%   3410 ns    Log    PASSED    in Default,                      Receiver:  Received : 00000132
%%   3410 ns    Log    PASSED    in Default,                      Receiver:  Received : 00000133
%%   3410 ns    Log    PASSED    in Default,                      Receiver:  Received : 00000134
%%   3410 ns    Log    PASSED    in Default,                      Receiver:  Received : 00000135
%%   3410 ns    Log    PASSED    in Default,                      Receiver:  Received : 00000136
%%   3410 ns    Log    PASSED    in Default,                      Receiver:  Received : 00000137
%%   3410 ns    Log    PASSED    in Default,                      Receiver:  Received : 00000138
%%   3410 ns    Log    PASSED    in Default,                      Receiver:  Received : 00000139
%%   3410 ns    Log    PASSED    in Default,                      Receiver:  Received : 0000013A
%%   3410 ns    Log    PASSED    in Default,                      Receiver:  Received : 0000013B
%%   3410 ns    Log    PASSED    in Default,                      Receiver:  Received : 0000013C
%%   3410 ns    Log    PASSED    in Default,                      Receiver:  Received : 0000013D
%%   3410 ns    Log    PASSED    in Default,                      Receiver:  Received : 0000013E
%%   3410 ns    Log    PASSED    in Default,                      Receiver:  Received : 0000013F
%%   3410 ns    Log    PASSED    in Default,                      Receiver:  Received : 00000140
%%   3410 ns    Log    PASSED    in Default,                      Receiver:  Received : 00000141
%%   3410 ns    Log    PASSED    in Default,                      Receiver:  Received : 00000142
%%   3410 ns    Log    PASSED    in Default,                      Receiver:  Received : 00000143
%%   3410 ns    Log    PASSED    in Default,                      Receiver:  Received : 00000144
%%   3410 ns    Log    PASSED    in Default,                      Receiver:  Received : 00000145
%%   3410 ns    Log    PASSED    in Default,                      Receiver:  Received : 00000146
%%   3410 ns    Log    PASSED    in Default,                      Receiver:  Received : 00000147
%%   3410 ns    Log    PASSED    in Default,                      Receiver:  Received : 00000148
%%   3410 ns    Log    PASSED    in Default,                      Receiver:  Received : 00000149
%%   3410 ns    Log    PASSED    in Default,                      Receiver:  Received : 0000014A
%%   3420 ns    Log    INFO      in transmitter_1,                Axi Stream Send.  TData: 0000014C  TStrb: 1111  TKeep: 1111  TID: 02  TDest: 3  TUser: 4  TLast: 0  Operation# 332
%%   3430 ns    Log    INFO      in transmitter_1,                Axi Stream Send.  TData: 0000014D  TStrb: 1111  TKeep: 1111  TID: 02  TDest: 3  TUser: 4  TLast: 0  Operation# 333
%%   3440 ns    Log    INFO      in transmitter_1,                Axi Stream Send.  TData: 0000014E  TStrb: 1111  TKeep: 1111  TID: 02  TDest: 3  TUser: 4  TLast: 0  Operation# 334
%%   3450 ns    Log    INFO      in transmitter_1,                Axi Stream Send.  TData: 0000014F  TStrb: 1111  TKeep: 1111  TID: 02  TDest: 3  TUser: 4  TLast: 0  Operation# 335
%%   3460 ns    Log    INFO      in transmitter_1,                Axi Stream Send.  TData: 00000150  TStrb: 1111  TKeep: 1111  TID: 02  TDest: 3  TUser: 4  TLast: 0  Operation# 336
%%   3470 ns    Log    INFO      in transmitter_1,                Axi Stream Send.  TData: 00000151  TStrb: 1111  TKeep: 1111  TID: 02  TDest: 3  TUser: 4  TLast: 0  Operation# 337
%%   3480 ns    Log    INFO      in transmitter_1,                Axi Stream Send.  TData: 00000152  TStrb: 1111  TKeep: 1111  TID: 02  TDest: 3  TUser: 4  TLast: 0  Operation# 338
%%   3490 ns    Log    INFO      in transmitter_1,                Axi Stream Send.  TData: 00000153  TStrb: 1111  TKeep: 1111  TID: 02  TDest: 3  TUser: 4  TLast: 0  Operation# 339
%%   3500 ns    Log    INFO      in transmitter_1,                Axi Stream Send.  TData: 00000154  TStrb: 1111  TKeep: 1111  TID: 02  TDest: 3  TUser: 4  TLast: 0  Operation# 340
%%   3510 ns    Log    INFO      in transmitter_1,                Axi Stream Send.  TData: 00000155  TStrb: 1111  TKeep: 1111  TID: 02  TDest: 3  TUser: 4  TLast: 0  Operation# 341
%%   3520 ns    Log    INFO      in transmitter_1,                Axi Stream Send.  TData: 00000156  TStrb: 1111  TKeep: 1111  TID: 02  TDest: 3  TUser: 4  TLast: 0  Operation# 342
%%   3530 ns    Log    INFO      in transmitter_1,                Axi Stream Send.  TData: 00000157  TStrb: 1111  TKeep: 1111  TID: 02  TDest: 3  TUser: 4  TLast: 0  Operation# 343
%%   3540 ns    Log    INFO      in transmitter_1,                Axi Stream Send.  TData: 00000158  TStrb: 1111  TKeep: 1111  TID: 02  TDest: 3  TUser: 4  TLast: 0  Operation# 344
%%   3550 ns    Log    INFO      in transmitter_1,                Axi Stream Send.  TData: 00000159  TStrb: 1111  TKeep: 1111  TID: 02  TDest: 3  TUser: 4  TLast: 0  Operation# 345
%%   3560 ns    Log    INFO      in transmitter_1,                Axi Stream Send.  TData: 0000015A  TStrb: 1111  TKeep: 1111  TID: 02  TDest: 3  TUser: 4  TLast: 0  Operation# 346
%%   3570 ns    Log    INFO      in transmitter_1,                Axi Stream Send.  TData: 0000015B  TStrb: 1111  TKeep: 1111  TID: 02  TDest: 3  TUser: 4  TLast: 0  Operation# 347
%%   3580 ns    Log    INFO      in transmitter_1,                Axi Stream Send.  TData: 0000015C  TStrb: 1111  TKeep: 1111  TID: 02  TDest: 3  TUser: 4  TLast: 0  Operation# 348
%%   3590 ns    Log    INFO      in transmitter_1,                Axi Stream Send.  TData: 0000015D  TStrb: 1111  TKeep: 1111  TID: 02  TDest: 3  TUser: 4  TLast: 0  Operation# 349
%%   3600 ns    Log    INFO      in transmitter_1,                Axi Stream Send.  TData: 0000015E  TStrb: 1111  TKeep: 1111  TID: 02  TDest: 3  TUser: 4  TLast: 0  Operation# 350
%%   3610 ns    Log    INFO      in transmitter_1,                Axi Stream Send.  TData: 0000015F  TStrb: 1111  TKeep: 1111  TID: 02  TDest: 3  TUser: 4  TLast: 0  Operation# 351
%%   3620 ns    Log    INFO      in transmitter_1,                Axi Stream Send.  TData: 00000160  TStrb: 1111  TKeep: 1111  TID: 02  TDest: 3  TUser: 4  TLast: 0  Operation# 352
%%   3630 ns    Log    INFO      in transmitter_1,                Axi Stream Send.  TData: 00000161  TStrb: 1111  TKeep: 1111  TID: 02  TDest: 3  TUser: 4  TLast: 0  Operation# 353
%%   3640 ns    Log    INFO      in transmitter_1,                Axi Stream Send.  TData: 00000162  TStrb: 1111  TKeep: 1111  TID: 02  TDest: 3  TUser: 4  TLast: 0  Operation# 354
%%   3650 ns    Log    INFO      in transmitter_1,                Axi Stream Send.  TData: 00000163  TStrb: 1111  TKeep: 1111  TID: 02  TDest: 3  TUser: 4  TLast: 0  Operation# 355
%%   3660 ns    Log    INFO      in transmitter_1,                Axi Stream Send.  TData: 00000164  TStrb: 1111  TKeep: 1111  TID: 02  TDest: 3  TUser: 4  TLast: 0  Operation# 356
%%   3670 ns    Log    INFO      in transmitter_1,                Axi Stream Send.  TData: 00000165  TStrb: 1111  TKeep: 1111  TID: 02  TDest: 3  TUser: 4  TLast: 0  Operation# 357
%%   3680 ns    Log    INFO      in transmitter_1,                Axi Stream Send.  TData: 00000166  TStrb: 1111  TKeep: 1111  TID: 02  TDest: 3  TUser: 4  TLast: 0  Operation# 358
