%% Log    ALWAYS    in Default,   Transmit 32 Bytes -- word aligned at 110 ns
%% Log    INFO      in transmitter_1,   Axi Stream Send.  TData: 06050403  TStrb: 1111  TKeep: 1111  TID: 01  TDest: 2  TUser: 3  TLast: 0  Operation# 1 at 110 ns
%% Log    INFO      in transmitter_1,   Axi Stream Send.  TData: 0A090807  TStrb: 1111  TKeep: 1111  TID: 01  TDest: 2  TUser: 3  TLast: 0  Operation# 2 at 120 ns
%% Log    INFO      in transmitter_1,   Axi Stream Send.  TData: 0E0D0C0B  TStrb: 1111  TKeep: 1111  TID: 01  TDest: 2  TUser: 3  TLast: 0  Operation# 3 at 130 ns
%% Log    INFO      in transmitter_1,   Axi Stream Send.  TData: 1211100F  TStrb: 1111  TKeep: 1111  TID: 01  TDest: 2  TUser: 3  TLast: 0  Operation# 4 at 140 ns
%% Log    INFO      in transmitter_1,   Axi Stream Send.  TData: 16151413  TStrb: 1111  TKeep: 1111  TID: 01  TDest: 2  TUser: 3  TLast: 0  Operation# 5 at 150 ns
%% Log    ALWAYS    in Default,   Transmit 30 Bytes -- unaligned at 150 ns
%% Log    INFO      in transmitter_1,   Axi Stream Send.  TData: 1A191817  TStrb: 1111  TKeep: 1111  TID: 01  TDest: 2  TUser: 3  TLast: 0  Operation# 6 at 160 ns
%% Log    INFO      in transmitter_1,   Axi Stream Send.  TData: 1E1D1C1B  TStrb: 1111  TKeep: 1111  TID: 01  TDest: 2  TUser: 3  TLast: 0  Operation# 7 at 170 ns
%% Log    INFO      in transmitter_1,   Axi Stream Send.  TData: 2221201F  TStrb: 1111  TKeep: 1111  TID: 01  TDest: 2  TUser: 3  TLast: 1  Operation# 8 at 180 ns
%% Log    INFO      in transmitter_1,   Axi Stream Send.  TData: 07050301  TStrb: 1111  TKeep: 1111  TID: 02  TDest: 3  TUser: 4  TLast: 0  Operation# 9 at 190 ns
%% Log    ALWAYS    in Default,   Transmit 34 Bytes -- unaligned at 190 ns
%% Log    INFO      in receiver_1,   Burst Receive.  Operation# 1  Last Data: 2221201F  TID: 01  TDest: 2  TUser: 3  TLast: 1 at 190 ns
%% Log    ALWAYS    in Default,   Transmit 32 Bytes. Starting with 0 at 190 ns
%% Log    PASSED    in Default,   TryCount 16 at 190 ns
%% Log    PASSED    in Default,   Receiver: NumBytes Received Received : 32 at 190 ns
%% Log    PASSED    in Default,   Receiver, ID:  Received : 01 at 190 ns
%% Log    PASSED    in Default,   Receiver, Dest:  Received : 2 at 190 ns
%% Log    PASSED    in Default,   Receiver, User:  Received : 3 at 190 ns
%% Log    PASSED    in receiver_1: RxBurstFifo,      Received: 03   Item Number: 1 at 190 ns
%% Log    PASSED    in receiver_1: RxBurstFifo,      Received: 04   Item Number: 2 at 190 ns
%% Log    PASSED    in receiver_1: RxBurstFifo,      Received: 05   Item Number: 3 at 190 ns
%% Log    PASSED    in receiver_1: RxBurstFifo,      Received: 06   Item Number: 4 at 190 ns
%% Log    PASSED    in receiver_1: RxBurstFifo,      Received: 07   Item Number: 5 at 190 ns
%% Log    PASSED    in receiver_1: RxBurstFifo,      Received: 08   Item Number: 6 at 190 ns
%% Log    PASSED    in receiver_1: RxBurstFifo,      Received: 09   Item Number: 7 at 190 ns
%% Log    PASSED    in receiver_1: RxBurstFifo,      Received: 0A   Item Number: 8 at 190 ns
%% Log    PASSED    in receiver_1: RxBurstFifo,      Received: 0B   Item Number: 9 at 190 ns
%% Log    PASSED    in receiver_1: RxBurstFifo,      Received: 0C   Item Number: 10 at 190 ns
%% Log    PASSED    in receiver_1: RxBurstFifo,      Received: 0D   Item Number: 11 at 190 ns
%% Log    PASSED    in receiver_1: RxBurstFifo,      Received: 0E   Item Number: 12 at 190 ns
%% Log    PASSED    in receiver_1: RxBurstFifo,      Received: 0F   Item Number: 13 at 190 ns
%% Log    PASSED    in receiver_1: RxBurstFifo,      Received: 10   Item Number: 14 at 190 ns
%% Log    PASSED    in receiver_1: RxBurstFifo,      Received: 11   Item Number: 15 at 190 ns
%% Log    PASSED    in receiver_1: RxBurstFifo,      Received: 12   Item Number: 16 at 190 ns
%% Log    PASSED    in receiver_1: RxBurstFifo,      Received: 13   Item Number: 17 at 190 ns
%% Log    PASSED    in receiver_1: RxBurstFifo,      Received: 14   Item Number: 18 at 190 ns
%% Log    PASSED    in receiver_1: RxBurstFifo,      Received: 15   Item Number: 19 at 190 ns
%% Log    PASSED    in receiver_1: RxBurstFifo,      Received: 16   Item Number: 20 at 190 ns
%% Log    PASSED    in receiver_1: RxBurstFifo,      Received: 17   Item Number: 21 at 190 ns
%% Log    PASSED    in receiver_1: RxBurstFifo,      Received: 18   Item Number: 22 at 190 ns
%% Log    PASSED    in receiver_1: RxBurstFifo,      Received: 19   Item Number: 23 at 190 ns
%% Log    PASSED    in receiver_1: RxBurstFifo,      Received: 1A   Item Number: 24 at 190 ns
%% Log    PASSED    in receiver_1: RxBurstFifo,      Received: 1B   Item Number: 25 at 190 ns
%% Log    PASSED    in receiver_1: RxBurstFifo,      Received: 1C   Item Number: 26 at 190 ns
%% Log    PASSED    in receiver_1: RxBurstFifo,      Received: 1D   Item Number: 27 at 190 ns
%% Log    PASSED    in receiver_1: RxBurstFifo,      Received: 1E   Item Number: 28 at 190 ns
%% Log    PASSED    in receiver_1: RxBurstFifo,      Received: 1F   Item Number: 29 at 190 ns
%% Log    PASSED    in receiver_1: RxBurstFifo,      Received: 20   Item Number: 30 at 190 ns
%% Log    PASSED    in receiver_1: RxBurstFifo,      Received: 21   Item Number: 31 at 190 ns
%% Log    PASSED    in receiver_1: RxBurstFifo,      Received: 22   Item Number: 32 at 190 ns
%% Log    ALWAYS    in Default,   Transmit 37 Bytes. Starting with 32 at 190 ns
%% Log    ALWAYS    in Default,   Transmit 42 Bytes. Starting with 64 at 190 ns
%% Log    ALWAYS    in Default,   Transmit 47 Bytes. Starting with 96 at 190 ns
%% Log    ALWAYS    in Default,   Transmit 52 Bytes. Starting with 128 at 190 ns
%% Log    ALWAYS    in Default,   Transmit 57 Bytes. Starting with 160 at 190 ns
%% Log    ALWAYS    in Default,   Transmit 62 Bytes. Starting with 192 at 190 ns
%% Log    INFO      in transmitter_1,   Axi Stream Send.  TData: 0F0D0B09  TStrb: 1111  TKeep: 1111  TID: 02  TDest: 3  TUser: 4  TLast: 0  Operation# 10 at 200 ns
%% Log    INFO      in transmitter_1,   Axi Stream Send.  TData: 17151311  TStrb: 1111  TKeep: 1111  TID: 02  TDest: 3  TUser: 4  TLast: 0  Operation# 11 at 210 ns
%% Log    INFO      in transmitter_1,   Axi Stream Send.  TData: 1F1D1B19  TStrb: 1111  TKeep: 1111  TID: 02  TDest: 3  TUser: 4  TLast: 0  Operation# 12 at 220 ns
%% Log    INFO      in transmitter_1,   Axi Stream Send.  TData: 27252321  TStrb: 1111  TKeep: 1111  TID: 02  TDest: 3  TUser: 4  TLast: 0  Operation# 13 at 230 ns
%% Log    INFO      in transmitter_1,   Axi Stream Send.  TData: 2F2D2B29  TStrb: 1111  TKeep: 1111  TID: 02  TDest: 3  TUser: 4  TLast: 0  Operation# 14 at 240 ns
%% Log    INFO      in transmitter_1,   Axi Stream Send.  TData: 37353331  TStrb: 1111  TKeep: 1111  TID: 02  TDest: 3  TUser: 4  TLast: 0  Operation# 15 at 250 ns
%% Log    INFO      in transmitter_1,   Axi Stream Send.  TData: XXXX3B39  TStrb: 0011  TKeep: 0011  TID: 02  TDest: 3  TUser: 4  TLast: 1  Operation# 16 at 260 ns
%% Log    INFO      in transmitter_1,   Axi Stream Send.  TData: 57BDD207  TStrb: 1111  TKeep: 1111  TID: 03  TDest: 4  TUser: 5  TLast: 0  Operation# 17 at 270 ns
%% Log    INFO      in receiver_1,   Burst Receive.  Operation# 2  Last Data: ----3B39  TID: 02  TDest: 3  TUser: 4  TLast: 1 at 270 ns
%% Log    PASSED    in Default,   TryCount 8 at 270 ns
%% Log    PASSED    in Default,   Receiver: NumBytes Received Received : 30 at 270 ns
%% Log    PASSED    in Default,   Receiver, ID:  Received : 02 at 270 ns
%% Log    PASSED    in Default,   Receiver, Dest:  Received : 3 at 270 ns
%% Log    PASSED    in Default,   Receiver, User:  Received : 4 at 270 ns
%% Log    PASSED    in receiver_1: RxBurstFifo,      Received: 01   Item Number: 33 at 270 ns
%% Log    PASSED    in receiver_1: RxBurstFifo,      Received: 03   Item Number: 34 at 270 ns
%% Log    PASSED    in receiver_1: RxBurstFifo,      Received: 05   Item Number: 35 at 270 ns
%% Log    PASSED    in receiver_1: RxBurstFifo,      Received: 07   Item Number: 36 at 270 ns
%% Log    PASSED    in receiver_1: RxBurstFifo,      Received: 09   Item Number: 37 at 270 ns
%% Log    PASSED    in receiver_1: RxBurstFifo,      Received: 0B   Item Number: 38 at 270 ns
%% Log    PASSED    in receiver_1: RxBurstFifo,      Received: 0D   Item Number: 39 at 270 ns
%% Log    PASSED    in receiver_1: RxBurstFifo,      Received: 0F   Item Number: 40 at 270 ns
%% Log    PASSED    in receiver_1: RxBurstFifo,      Received: 11   Item Number: 41 at 270 ns
%% Log    PASSED    in receiver_1: RxBurstFifo,      Received: 13   Item Number: 42 at 270 ns
%% Log    PASSED    in receiver_1: RxBurstFifo,      Received: 15   Item Number: 43 at 270 ns
%% Log    PASSED    in receiver_1: RxBurstFifo,      Received: 17   Item Number: 44 at 270 ns
%% Log    PASSED    in receiver_1: RxBurstFifo,      Received: 19   Item Number: 45 at 270 ns
%% Log    PASSED    in receiver_1: RxBurstFifo,      Received: 1B   Item Number: 46 at 270 ns
%% Log    PASSED    in receiver_1: RxBurstFifo,      Received: 1D   Item Number: 47 at 270 ns
%% Log    PASSED    in receiver_1: RxBurstFifo,      Received: 1F   Item Number: 48 at 270 ns
%% Log    PASSED    in receiver_1: RxBurstFifo,      Received: 21   Item Number: 49 at 270 ns
%% Log    PASSED    in receiver_1: RxBurstFifo,      Received: 23   Item Number: 50 at 270 ns
%% Log    PASSED    in receiver_1: RxBurstFifo,      Received: 25   Item Number: 51 at 270 ns
%% Log    PASSED    in receiver_1: RxBurstFifo,      Received: 27   Item Number: 52 at 270 ns
%% Log    PASSED    in receiver_1: RxBurstFifo,      Received: 29   Item Number: 53 at 270 ns
%% Log    PASSED    in receiver_1: RxBurstFifo,      Received: 2B   Item Number: 54 at 270 ns
%% Log    PASSED    in receiver_1: RxBurstFifo,      Received: 2D   Item Number: 55 at 270 ns
%% Log    PASSED    in receiver_1: RxBurstFifo,      Received: 2F   Item Number: 56 at 270 ns
%% Log    PASSED    in receiver_1: RxBurstFifo,      Received: 31   Item Number: 57 at 270 ns
%% Log    PASSED    in receiver_1: RxBurstFifo,      Received: 33   Item Number: 58 at 270 ns
%% Log    PASSED    in receiver_1: RxBurstFifo,      Received: 35   Item Number: 59 at 270 ns
%% Log    PASSED    in receiver_1: RxBurstFifo,      Received: 37   Item Number: 60 at 270 ns
%% Log    PASSED    in receiver_1: RxBurstFifo,      Received: 39   Item Number: 61 at 270 ns
%% Log    PASSED    in receiver_1: RxBurstFifo,      Received: 3B   Item Number: 62 at 270 ns
%% Log    INFO      in transmitter_1,   Axi Stream Send.  TData: 5B6D6975  TStrb: 1111  TKeep: 1111  TID: 03  TDest: 4  TUser: 5  TLast: 0  Operation# 18 at 280 ns
%% Log    INFO      in transmitter_1,   Axi Stream Send.  TData: 6E1B638E  TStrb: 1111  TKeep: 1111  TID: 03  TDest: 4  TUser: 5  TLast: 0  Operation# 19 at 290 ns
%% Log    INFO      in transmitter_1,   Axi Stream Send.  TData: 2CA095D2  TStrb: 1111  TKeep: 1111  TID: 03  TDest: 4  TUser: 5  TLast: 0  Operation# 20 at 300 ns
%% Log    INFO      in transmitter_1,   Axi Stream Send.  TData: EDF859E6  TStrb: 1111  TKeep: 1111  TID: 03  TDest: 4  TUser: 5  TLast: 0  Operation# 21 at 310 ns
%% Log    INFO      in transmitter_1,   Axi Stream Send.  TData: DCAC003D  TStrb: 1111  TKeep: 1111  TID: 03  TDest: 4  TUser: 5  TLast: 0  Operation# 22 at 320 ns
%% Log    INFO      in transmitter_1,   Axi Stream Send.  TData: 9ADE4F00  TStrb: 1111  TKeep: 1111  TID: 03  TDest: 4  TUser: 5  TLast: 0  Operation# 23 at 330 ns
%% Log    INFO      in transmitter_1,   Axi Stream Send.  TData: 6BE49940  TStrb: 1111  TKeep: 1111  TID: 03  TDest: 4  TUser: 5  TLast: 0  Operation# 24 at 340 ns
%% Log    INFO      in transmitter_1,   Axi Stream Send.  TData: XXXXC990  TStrb: 0011  TKeep: 0011  TID: 03  TDest: 4  TUser: 5  TLast: 1  Operation# 25 at 350 ns
%% Log    INFO      in transmitter_1,   Axi Stream Send.  TData: 03020100  TStrb: 1111  TKeep: 1111  TID: 08  TDest: 9  TUser: A  TLast: 0  Operation# 26 at 360 ns
%% Log    INFO      in receiver_1,   Burst Receive.  Operation# 3  Last Data: ----C990  TID: 03  TDest: 4  TUser: 5  TLast: 1 at 360 ns
%% Log    PASSED    in Default,   TryCount 9 at 360 ns
%% Log    PASSED    in Default,   Receiver: NumBytes Received Received : 34 at 360 ns
%% Log    PASSED    in Default,   Receiver, ID:  Received : 03 at 360 ns
%% Log    PASSED    in Default,   Receiver, Dest:  Received : 4 at 360 ns
%% Log    PASSED    in Default,   Receiver, User:  Received : 5 at 360 ns
%% Log    PASSED    in receiver_1: RxBurstFifo,      Received: 07   Item Number: 63 at 360 ns
%% Log    PASSED    in receiver_1: RxBurstFifo,      Received: D2   Item Number: 64 at 360 ns
%% Log    PASSED    in receiver_1: RxBurstFifo,      Received: BD   Item Number: 65 at 360 ns
%% Log    PASSED    in receiver_1: RxBurstFifo,      Received: 57   Item Number: 66 at 360 ns
%% Log    PASSED    in receiver_1: RxBurstFifo,      Received: 75   Item Number: 67 at 360 ns
%% Log    PASSED    in receiver_1: RxBurstFifo,      Received: 69   Item Number: 68 at 360 ns
%% Log    PASSED    in receiver_1: RxBurstFifo,      Received: 6D   Item Number: 69 at 360 ns
%% Log    PASSED    in receiver_1: RxBurstFifo,      Received: 5B   Item Number: 70 at 360 ns
%% Log    PASSED    in receiver_1: RxBurstFifo,      Received: 8E   Item Number: 71 at 360 ns
%% Log    PASSED    in receiver_1: RxBurstFifo,      Received: 63   Item Number: 72 at 360 ns
%% Log    PASSED    in receiver_1: RxBurstFifo,      Received: 1B   Item Number: 73 at 360 ns
%% Log    PASSED    in receiver_1: RxBurstFifo,      Received: 6E   Item Number: 74 at 360 ns
%% Log    PASSED    in receiver_1: RxBurstFifo,      Received: D2   Item Number: 75 at 360 ns
%% Log    PASSED    in receiver_1: RxBurstFifo,      Received: 95   Item Number: 76 at 360 ns
%% Log    PASSED    in receiver_1: RxBurstFifo,      Received: A0   Item Number: 77 at 360 ns
%% Log    PASSED    in receiver_1: RxBurstFifo,      Received: 2C   Item Number: 78 at 360 ns
%% Log    PASSED    in receiver_1: RxBurstFifo,      Received: E6   Item Number: 79 at 360 ns
%% Log    PASSED    in receiver_1: RxBurstFifo,      Received: 59   Item Number: 80 at 360 ns
%% Log    PASSED    in receiver_1: RxBurstFifo,      Received: F8   Item Number: 81 at 360 ns
%% Log    PASSED    in receiver_1: RxBurstFifo,      Received: ED   Item Number: 82 at 360 ns
%% Log    PASSED    in receiver_1: RxBurstFifo,      Received: 3D   Item Number: 83 at 360 ns
%% Log    PASSED    in receiver_1: RxBurstFifo,      Received: 00   Item Number: 84 at 360 ns
%% Log    PASSED    in receiver_1: RxBurstFifo,      Received: AC   Item Number: 85 at 360 ns
%% Log    PASSED    in receiver_1: RxBurstFifo,      Received: DC   Item Number: 86 at 360 ns
%% Log    PASSED    in receiver_1: RxBurstFifo,      Received: 00   Item Number: 87 at 360 ns
%% Log    PASSED    in receiver_1: RxBurstFifo,      Received: 4F   Item Number: 88 at 360 ns
%% Log    PASSED    in receiver_1: RxBurstFifo,      Received: DE   Item Number: 89 at 360 ns
%% Log    PASSED    in receiver_1: RxBurstFifo,      Received: 9A   Item Number: 90 at 360 ns
%% Log    PASSED    in receiver_1: RxBurstFifo,      Received: 40   Item Number: 91 at 360 ns
%% Log    PASSED    in receiver_1: RxBurstFifo,      Received: 99   Item Number: 92 at 360 ns
%% Log    PASSED    in receiver_1: RxBurstFifo,      Received: E4   Item Number: 93 at 360 ns
%% Log    PASSED    in receiver_1: RxBurstFifo,      Received: 6B   Item Number: 94 at 360 ns
%% Log    PASSED    in receiver_1: RxBurstFifo,      Received: 90   Item Number: 95 at 360 ns
%% Log    PASSED    in receiver_1: RxBurstFifo,      Received: C9   Item Number: 96 at 360 ns
%% Log    INFO      in transmitter_1,   Axi Stream Send.  TData: 07060504  TStrb: 1111  TKeep: 1111  TID: 08  TDest: 9  TUser: A  TLast: 0  Operation# 27 at 370 ns
%% Log    INFO      in transmitter_1,   Axi Stream Send.  TData: 0B0A0908  TStrb: 1111  TKeep: 1111  TID: 08  TDest: 9  TUser: A  TLast: 0  Operation# 28 at 380 ns
%% Log    INFO      in transmitter_1,   Axi Stream Send.  TData: 0F0E0D0C  TStrb: 1111  TKeep: 1111  TID: 08  TDest: 9  TUser: A  TLast: 0  Operation# 29 at 390 ns
%% Log    INFO      in transmitter_1,   Axi Stream Send.  TData: 13121110  TStrb: 1111  TKeep: 1111  TID: 08  TDest: 9  TUser: A  TLast: 0  Operation# 30 at 400 ns
%% Log    INFO      in transmitter_1,   Axi Stream Send.  TData: 17161514  TStrb: 1111  TKeep: 1111  TID: 08  TDest: 9  TUser: A  TLast: 0  Operation# 31 at 410 ns
%% Log    INFO      in transmitter_1,   Axi Stream Send.  TData: 1B1A1918  TStrb: 1111  TKeep: 1111  TID: 08  TDest: 9  TUser: A  TLast: 0  Operation# 32 at 420 ns
%% Log    INFO      in transmitter_1,   Axi Stream Send.  TData: 1F1E1D1C  TStrb: 1111  TKeep: 1111  TID: 08  TDest: 9  TUser: A  TLast: 1  Operation# 33 at 430 ns
%% Log    INFO      in transmitter_1,   Axi Stream Send.  TData: 23222120  TStrb: 1111  TKeep: 1111  TID: 08  TDest: 9  TUser: A  TLast: 0  Operation# 34 at 440 ns
%% Log    INFO      in receiver_1,   Burst Receive.  Operation# 4  Last Data: 1F1E1D1C  TID: 08  TDest: 9  TUser: A  TLast: 1 at 440 ns
%% Log    PASSED    in Default,   TryCount 8 at 440 ns
%% Log    PASSED    in Default,   Receiver: NumBytes Received Received : 32 at 440 ns
%% Log    PASSED    in Default,   Receiver, ID:  Received : 08 at 440 ns
%% Log    PASSED    in Default,   Receiver, Dest:  Received : 9 at 440 ns
%% Log    PASSED    in Default,   Receiver, User:  Received : A at 440 ns
%% Log    PASSED    in receiver_1: RxBurstFifo,      Received: 00   Item Number: 97 at 440 ns
%% Log    PASSED    in receiver_1: RxBurstFifo,      Received: 01   Item Number: 98 at 440 ns
%% Log    PASSED    in receiver_1: RxBurstFifo,      Received: 02   Item Number: 99 at 440 ns
%% Log    PASSED    in receiver_1: RxBurstFifo,      Received: 03   Item Number: 100 at 440 ns
%% Log    PASSED    in receiver_1: RxBurstFifo,      Received: 04   Item Number: 101 at 440 ns
%% Log    PASSED    in receiver_1: RxBurstFifo,      Received: 05   Item Number: 102 at 440 ns
%% Log    PASSED    in receiver_1: RxBurstFifo,      Received: 06   Item Number: 103 at 440 ns
%% Log    PASSED    in receiver_1: RxBurstFifo,      Received: 07   Item Number: 104 at 440 ns
%% Log    PASSED    in receiver_1: RxBurstFifo,      Received: 08   Item Number: 105 at 440 ns
%% Log    PASSED    in receiver_1: RxBurstFifo,      Received: 09   Item Number: 106 at 440 ns
%% Log    PASSED    in receiver_1: RxBurstFifo,      Received: 0A   Item Number: 107 at 440 ns
%% Log    PASSED    in receiver_1: RxBurstFifo,      Received: 0B   Item Number: 108 at 440 ns
%% Log    PASSED    in receiver_1: RxBurstFifo,      Received: 0C   Item Number: 109 at 440 ns
%% Log    PASSED    in receiver_1: RxBurstFifo,      Received: 0D   Item Number: 110 at 440 ns
%% Log    PASSED    in receiver_1: RxBurstFifo,      Received: 0E   Item Number: 111 at 440 ns
%% Log    PASSED    in receiver_1: RxBurstFifo,      Received: 0F   Item Number: 112 at 440 ns
%% Log    PASSED    in receiver_1: RxBurstFifo,      Received: 10   Item Number: 113 at 440 ns
%% Log    PASSED    in receiver_1: RxBurstFifo,      Received: 11   Item Number: 114 at 440 ns
%% Log    PASSED    in receiver_1: RxBurstFifo,      Received: 12   Item Number: 115 at 440 ns
%% Log    PASSED    in receiver_1: RxBurstFifo,      Received: 13   Item Number: 116 at 440 ns
%% Log    PASSED    in receiver_1: RxBurstFifo,      Received: 14   Item Number: 117 at 440 ns
%% Log    PASSED    in receiver_1: RxBurstFifo,      Received: 15   Item Number: 118 at 440 ns
%% Log    PASSED    in receiver_1: RxBurstFifo,      Received: 16   Item Number: 119 at 440 ns
%% Log    PASSED    in receiver_1: RxBurstFifo,      Received: 17   Item Number: 120 at 440 ns
%% Log    PASSED    in receiver_1: RxBurstFifo,      Received: 18   Item Number: 121 at 440 ns
%% Log    PASSED    in receiver_1: RxBurstFifo,      Received: 19   Item Number: 122 at 440 ns
%% Log    PASSED    in receiver_1: RxBurstFifo,      Received: 1A   Item Number: 123 at 440 ns
%% Log    PASSED    in receiver_1: RxBurstFifo,      Received: 1B   Item Number: 124 at 440 ns
%% Log    PASSED    in receiver_1: RxBurstFifo,      Received: 1C   Item Number: 125 at 440 ns
%% Log    PASSED    in receiver_1: RxBurstFifo,      Received: 1D   Item Number: 126 at 440 ns
%% Log    PASSED    in receiver_1: RxBurstFifo,      Received: 1E   Item Number: 127 at 440 ns
%% Log    PASSED    in receiver_1: RxBurstFifo,      Received: 1F   Item Number: 128 at 440 ns
%% Log    INFO      in transmitter_1,   Axi Stream Send.  TData: 27262524  TStrb: 1111  TKeep: 1111  TID: 08  TDest: 9  TUser: A  TLast: 0  Operation# 35 at 450 ns
%% Log    INFO      in transmitter_1,   Axi Stream Send.  TData: 2B2A2928  TStrb: 1111  TKeep: 1111  TID: 08  TDest: 9  TUser: A  TLast: 0  Operation# 36 at 460 ns
%% Log    INFO      in transmitter_1,   Axi Stream Send.  TData: 2F2E2D2C  TStrb: 1111  TKeep: 1111  TID: 08  TDest: 9  TUser: A  TLast: 0  Operation# 37 at 470 ns
%% Log    INFO      in transmitter_1,   Axi Stream Send.  TData: 33323130  TStrb: 1111  TKeep: 1111  TID: 08  TDest: 9  TUser: A  TLast: 0  Operation# 38 at 480 ns
%% Log    INFO      in transmitter_1,   Axi Stream Send.  TData: 37363534  TStrb: 1111  TKeep: 1111  TID: 08  TDest: 9  TUser: A  TLast: 0  Operation# 39 at 490 ns
%% Log    INFO      in transmitter_1,   Axi Stream Send.  TData: 3B3A3938  TStrb: 1111  TKeep: 1111  TID: 08  TDest: 9  TUser: A  TLast: 0  Operation# 40 at 500 ns
%% Log    INFO      in transmitter_1,   Axi Stream Send.  TData: 3F3E3D3C  TStrb: 1111  TKeep: 1111  TID: 08  TDest: 9  TUser: A  TLast: 0  Operation# 41 at 510 ns
%% Log    INFO      in transmitter_1,   Axi Stream Send.  TData: 43424140  TStrb: 1111  TKeep: 1111  TID: 08  TDest: 9  TUser: A  TLast: 0  Operation# 42 at 520 ns
%% Log    INFO      in transmitter_1,   Axi Stream Send.  TData: XXXXXX44  TStrb: 0001  TKeep: 0001  TID: 08  TDest: 9  TUser: A  TLast: 1  Operation# 43 at 530 ns
%% Log    INFO      in transmitter_1,   Axi Stream Send.  TData: 43424140  TStrb: 1111  TKeep: 1111  TID: 09  TDest: A  TUser: B  TLast: 0  Operation# 44 at 540 ns
%% Log    INFO      in receiver_1,   Burst Receive.  Operation# 5  Last Data: ------44  TID: 08  TDest: 9  TUser: A  TLast: 1 at 540 ns
%% Log    PASSED    in Default,   TryCount 10 at 540 ns
%% Log    PASSED    in Default,   Receiver: NumBytes Received Received : 37 at 540 ns
%% Log    PASSED    in Default,   Receiver, ID:  Received : 08 at 540 ns
%% Log    PASSED    in Default,   Receiver, Dest:  Received : 9 at 540 ns
%% Log    PASSED    in Default,   Receiver, User:  Received : A at 540 ns
%% Log    PASSED    in receiver_1: RxBurstFifo,      Received: 20   Item Number: 129 at 540 ns
%% Log    PASSED    in receiver_1: RxBurstFifo,      Received: 21   Item Number: 130 at 540 ns
%% Log    PASSED    in receiver_1: RxBurstFifo,      Received: 22   Item Number: 131 at 540 ns
%% Log    PASSED    in receiver_1: RxBurstFifo,      Received: 23   Item Number: 132 at 540 ns
%% Log    PASSED    in receiver_1: RxBurstFifo,      Received: 24   Item Number: 133 at 540 ns
%% Log    PASSED    in receiver_1: RxBurstFifo,      Received: 25   Item Number: 134 at 540 ns
%% Log    PASSED    in receiver_1: RxBurstFifo,      Received: 26   Item Number: 135 at 540 ns
%% Log    PASSED    in receiver_1: RxBurstFifo,      Received: 27   Item Number: 136 at 540 ns
%% Log    PASSED    in receiver_1: RxBurstFifo,      Received: 28   Item Number: 137 at 540 ns
%% Log    PASSED    in receiver_1: RxBurstFifo,      Received: 29   Item Number: 138 at 540 ns
%% Log    PASSED    in receiver_1: RxBurstFifo,      Received: 2A   Item Number: 139 at 540 ns
%% Log    PASSED    in receiver_1: RxBurstFifo,      Received: 2B   Item Number: 140 at 540 ns
%% Log    PASSED    in receiver_1: RxBurstFifo,      Received: 2C   Item Number: 141 at 540 ns
%% Log    PASSED    in receiver_1: RxBurstFifo,      Received: 2D   Item Number: 142 at 540 ns
%% Log    PASSED    in receiver_1: RxBurstFifo,      Received: 2E   Item Number: 143 at 540 ns
%% Log    PASSED    in receiver_1: RxBurstFifo,      Received: 2F   Item Number: 144 at 540 ns
%% Log    PASSED    in receiver_1: RxBurstFifo,      Received: 30   Item Number: 145 at 540 ns
%% Log    PASSED    in receiver_1: RxBurstFifo,      Received: 31   Item Number: 146 at 540 ns
%% Log    PASSED    in receiver_1: RxBurstFifo,      Received: 32   Item Number: 147 at 540 ns
%% Log    PASSED    in receiver_1: RxBurstFifo,      Received: 33   Item Number: 148 at 540 ns
%% Log    PASSED    in receiver_1: RxBurstFifo,      Received: 34   Item Number: 149 at 540 ns
%% Log    PASSED    in receiver_1: RxBurstFifo,      Received: 35   Item Number: 150 at 540 ns
%% Log    PASSED    in receiver_1: RxBurstFifo,      Received: 36   Item Number: 151 at 540 ns
%% Log    PASSED    in receiver_1: RxBurstFifo,      Received: 37   Item Number: 152 at 540 ns
%% Log    PASSED    in receiver_1: RxBurstFifo,      Received: 38   Item Number: 153 at 540 ns
%% Log    PASSED    in receiver_1: RxBurstFifo,      Received: 39   Item Number: 154 at 540 ns
%% Log    PASSED    in receiver_1: RxBurstFifo,      Received: 3A   Item Number: 155 at 540 ns
%% Log    PASSED    in receiver_1: RxBurstFifo,      Received: 3B   Item Number: 156 at 540 ns
%% Log    PASSED    in receiver_1: RxBurstFifo,      Received: 3C   Item Number: 157 at 540 ns
%% Log    PASSED    in receiver_1: RxBurstFifo,      Received: 3D   Item Number: 158 at 540 ns
%% Log    PASSED    in receiver_1: RxBurstFifo,      Received: 3E   Item Number: 159 at 540 ns
%% Log    PASSED    in receiver_1: RxBurstFifo,      Received: 3F   Item Number: 160 at 540 ns
%% Log    PASSED    in receiver_1: RxBurstFifo,      Received: 40   Item Number: 161 at 540 ns
%% Log    PASSED    in receiver_1: RxBurstFifo,      Received: 41   Item Number: 162 at 540 ns
%% Log    PASSED    in receiver_1: RxBurstFifo,      Received: 42   Item Number: 163 at 540 ns
%% Log    PASSED    in receiver_1: RxBurstFifo,      Received: 43   Item Number: 164 at 540 ns
%% Log    PASSED    in receiver_1: RxBurstFifo,      Received: 44   Item Number: 165 at 540 ns
%% Log    INFO      in transmitter_1,   Axi Stream Send.  TData: 47464544  TStrb: 1111  TKeep: 1111  TID: 09  TDest: A  TUser: B  TLast: 0  Operation# 45 at 550 ns
%% Log    INFO      in transmitter_1,   Axi Stream Send.  TData: 4B4A4948  TStrb: 1111  TKeep: 1111  TID: 09  TDest: A  TUser: B  TLast: 0  Operation# 46 at 560 ns
%% Log    INFO      in transmitter_1,   Axi Stream Send.  TData: 4F4E4D4C  TStrb: 1111  TKeep: 1111  TID: 09  TDest: A  TUser: B  TLast: 0  Operation# 47 at 570 ns
%% Log    INFO      in transmitter_1,   Axi Stream Send.  TData: 53525150  TStrb: 1111  TKeep: 1111  TID: 09  TDest: A  TUser: B  TLast: 0  Operation# 48 at 580 ns
%% Log    INFO      in transmitter_1,   Axi Stream Send.  TData: 57565554  TStrb: 1111  TKeep: 1111  TID: 09  TDest: A  TUser: B  TLast: 0  Operation# 49 at 590 ns
%% Log    INFO      in transmitter_1,   Axi Stream Send.  TData: 5B5A5958  TStrb: 1111  TKeep: 1111  TID: 09  TDest: A  TUser: B  TLast: 0  Operation# 50 at 600 ns
%% Log    INFO      in transmitter_1,   Axi Stream Send.  TData: 5F5E5D5C  TStrb: 1111  TKeep: 1111  TID: 09  TDest: A  TUser: B  TLast: 0  Operation# 51 at 610 ns
%% Log    INFO      in transmitter_1,   Axi Stream Send.  TData: 63626160  TStrb: 1111  TKeep: 1111  TID: 09  TDest: A  TUser: B  TLast: 0  Operation# 52 at 620 ns
%% Log    INFO      in transmitter_1,   Axi Stream Send.  TData: 67666564  TStrb: 1111  TKeep: 1111  TID: 09  TDest: A  TUser: B  TLast: 0  Operation# 53 at 630 ns
%% Log    INFO      in transmitter_1,   Axi Stream Send.  TData: XXXX6968  TStrb: 0011  TKeep: 0011  TID: 09  TDest: A  TUser: B  TLast: 1  Operation# 54 at 640 ns
%% Log    INFO      in transmitter_1,   Axi Stream Send.  TData: 63626160  TStrb: 1111  TKeep: 1111  TID: 09  TDest: A  TUser: B  TLast: 0  Operation# 55 at 650 ns
%% Log    INFO      in receiver_1,   Burst Receive.  Operation# 6  Last Data: ----6968  TID: 09  TDest: A  TUser: B  TLast: 1 at 650 ns
%% Log    PASSED    in Default,   TryCount 11 at 650 ns
%% Log    PASSED    in Default,   Receiver: NumBytes Received Received : 42 at 650 ns
%% Log    PASSED    in Default,   Receiver, ID:  Received : 09 at 650 ns
%% Log    PASSED    in Default,   Receiver, Dest:  Received : A at 650 ns
%% Log    PASSED    in Default,   Receiver, User:  Received : B at 650 ns
%% Log    PASSED    in receiver_1: RxBurstFifo,      Received: 40   Item Number: 166 at 650 ns
%% Log    PASSED    in receiver_1: RxBurstFifo,      Received: 41   Item Number: 167 at 650 ns
%% Log    PASSED    in receiver_1: RxBurstFifo,      Received: 42   Item Number: 168 at 650 ns
%% Log    PASSED    in receiver_1: RxBurstFifo,      Received: 43   Item Number: 169 at 650 ns
%% Log    PASSED    in receiver_1: RxBurstFifo,      Received: 44   Item Number: 170 at 650 ns
%% Log    PASSED    in receiver_1: RxBurstFifo,      Received: 45   Item Number: 171 at 650 ns
%% Log    PASSED    in receiver_1: RxBurstFifo,      Received: 46   Item Number: 172 at 650 ns
%% Log    PASSED    in receiver_1: RxBurstFifo,      Received: 47   Item Number: 173 at 650 ns
%% Log    PASSED    in receiver_1: RxBurstFifo,      Received: 48   Item Number: 174 at 650 ns
%% Log    PASSED    in receiver_1: RxBurstFifo,      Received: 49   Item Number: 175 at 650 ns
%% Log    PASSED    in receiver_1: RxBurstFifo,      Received: 4A   Item Number: 176 at 650 ns
%% Log    PASSED    in receiver_1: RxBurstFifo,      Received: 4B   Item Number: 177 at 650 ns
%% Log    PASSED    in receiver_1: RxBurstFifo,      Received: 4C   Item Number: 178 at 650 ns
%% Log    PASSED    in receiver_1: RxBurstFifo,      Received: 4D   Item Number: 179 at 650 ns
%% Log    PASSED    in receiver_1: RxBurstFifo,      Received: 4E   Item Number: 180 at 650 ns
%% Log    PASSED    in receiver_1: RxBurstFifo,      Received: 4F   Item Number: 181 at 650 ns
%% Log    PASSED    in receiver_1: RxBurstFifo,      Received: 50   Item Number: 182 at 650 ns
%% Log    PASSED    in receiver_1: RxBurstFifo,      Received: 51   Item Number: 183 at 650 ns
%% Log    PASSED    in receiver_1: RxBurstFifo,      Received: 52   Item Number: 184 at 650 ns
%% Log    PASSED    in receiver_1: RxBurstFifo,      Received: 53   Item Number: 185 at 650 ns
%% Log    PASSED    in receiver_1: RxBurstFifo,      Received: 54   Item Number: 186 at 650 ns
%% Log    PASSED    in receiver_1: RxBurstFifo,      Received: 55   Item Number: 187 at 650 ns
%% Log    PASSED    in receiver_1: RxBurstFifo,      Received: 56   Item Number: 188 at 650 ns
%% Log    PASSED    in receiver_1: RxBurstFifo,      Received: 57   Item Number: 189 at 650 ns
%% Log    PASSED    in receiver_1: RxBurstFifo,      Received: 58   Item Number: 190 at 650 ns
%% Log    PASSED    in receiver_1: RxBurstFifo,      Received: 59   Item Number: 191 at 650 ns
%% Log    PASSED    in receiver_1: RxBurstFifo,      Received: 5A   Item Number: 192 at 650 ns
%% Log    PASSED    in receiver_1: RxBurstFifo,      Received: 5B   Item Number: 193 at 650 ns
%% Log    PASSED    in receiver_1: RxBurstFifo,      Received: 5C   Item Number: 194 at 650 ns
%% Log    PASSED    in receiver_1: RxBurstFifo,      Received: 5D   Item Number: 195 at 650 ns
%% Log    PASSED    in receiver_1: RxBurstFifo,      Received: 5E   Item Number: 196 at 650 ns
%% Log    PASSED    in receiver_1: RxBurstFifo,      Received: 5F   Item Number: 197 at 650 ns
%% Log    PASSED    in receiver_1: RxBurstFifo,      Received: 60   Item Number: 198 at 650 ns
%% Log    PASSED    in receiver_1: RxBurstFifo,      Received: 61   Item Number: 199 at 650 ns
%% Log    PASSED    in receiver_1: RxBurstFifo,      Received: 62   Item Number: 200 at 650 ns
%% Log    PASSED    in receiver_1: RxBurstFifo,      Received: 63   Item Number: 201 at 650 ns
%% Log    PASSED    in receiver_1: RxBurstFifo,      Received: 64   Item Number: 202 at 650 ns
%% Log    PASSED    in receiver_1: RxBurstFifo,      Received: 65   Item Number: 203 at 650 ns
%% Log    PASSED    in receiver_1: RxBurstFifo,      Received: 66   Item Number: 204 at 650 ns
%% Log    PASSED    in receiver_1: RxBurstFifo,      Received: 67   Item Number: 205 at 650 ns
%% Log    PASSED    in receiver_1: RxBurstFifo,      Received: 68   Item Number: 206 at 650 ns
%% Log    PASSED    in receiver_1: RxBurstFifo,      Received: 69   Item Number: 207 at 650 ns
%% Log    INFO      in transmitter_1,   Axi Stream Send.  TData: 67666564  TStrb: 1111  TKeep: 1111  TID: 09  TDest: A  TUser: B  TLast: 0  Operation# 56 at 660 ns
%% Log    INFO      in transmitter_1,   Axi Stream Send.  TData: 6B6A6968  TStrb: 1111  TKeep: 1111  TID: 09  TDest: A  TUser: B  TLast: 0  Operation# 57 at 670 ns
%% Log    INFO      in transmitter_1,   Axi Stream Send.  TData: 6F6E6D6C  TStrb: 1111  TKeep: 1111  TID: 09  TDest: A  TUser: B  TLast: 0  Operation# 58 at 680 ns
%% Log    INFO      in transmitter_1,   Axi Stream Send.  TData: 73727170  TStrb: 1111  TKeep: 1111  TID: 09  TDest: A  TUser: B  TLast: 0  Operation# 59 at 690 ns
%% Log    INFO      in transmitter_1,   Axi Stream Send.  TData: 77767574  TStrb: 1111  TKeep: 1111  TID: 09  TDest: A  TUser: B  TLast: 0  Operation# 60 at 700 ns
%% Log    INFO      in transmitter_1,   Axi Stream Send.  TData: 7B7A7978  TStrb: 1111  TKeep: 1111  TID: 09  TDest: A  TUser: B  TLast: 0  Operation# 61 at 710 ns
%% Log    INFO      in transmitter_1,   Axi Stream Send.  TData: 7F7E7D7C  TStrb: 1111  TKeep: 1111  TID: 09  TDest: A  TUser: B  TLast: 0  Operation# 62 at 720 ns
%% Log    INFO      in transmitter_1,   Axi Stream Send.  TData: 83828180  TStrb: 1111  TKeep: 1111  TID: 09  TDest: A  TUser: B  TLast: 0  Operation# 63 at 730 ns
%% Log    INFO      in transmitter_1,   Axi Stream Send.  TData: 87868584  TStrb: 1111  TKeep: 1111  TID: 09  TDest: A  TUser: B  TLast: 0  Operation# 64 at 740 ns
%% Log    INFO      in transmitter_1,   Axi Stream Send.  TData: 8B8A8988  TStrb: 1111  TKeep: 1111  TID: 09  TDest: A  TUser: B  TLast: 0  Operation# 65 at 750 ns
%% Log    INFO      in transmitter_1,   Axi Stream Send.  TData: XX8E8D8C  TStrb: 0111  TKeep: 0111  TID: 09  TDest: A  TUser: B  TLast: 1  Operation# 66 at 760 ns
%% Log    INFO      in transmitter_1,   Axi Stream Send.  TData: 83828180  TStrb: 1111  TKeep: 1111  TID: 0A  TDest: B  TUser: C  TLast: 0  Operation# 67 at 770 ns
%% Log    INFO      in receiver_1,   Burst Receive.  Operation# 7  Last Data: --8E8D8C  TID: 09  TDest: A  TUser: B  TLast: 1 at 770 ns
%% Log    PASSED    in Default,   TryCount 12 at 770 ns
%% Log    PASSED    in Default,   Receiver: NumBytes Received Received : 47 at 770 ns
%% Log    PASSED    in Default,   Receiver, ID:  Received : 09 at 770 ns
%% Log    PASSED    in Default,   Receiver, Dest:  Received : A at 770 ns
%% Log    PASSED    in Default,   Receiver, User:  Received : B at 770 ns
%% Log    PASSED    in receiver_1: RxBurstFifo,      Received: 60   Item Number: 208 at 770 ns
%% Log    PASSED    in receiver_1: RxBurstFifo,      Received: 61   Item Number: 209 at 770 ns
%% Log    PASSED    in receiver_1: RxBurstFifo,      Received: 62   Item Number: 210 at 770 ns
%% Log    PASSED    in receiver_1: RxBurstFifo,      Received: 63   Item Number: 211 at 770 ns
%% Log    PASSED    in receiver_1: RxBurstFifo,      Received: 64   Item Number: 212 at 770 ns
%% Log    PASSED    in receiver_1: RxBurstFifo,      Received: 65   Item Number: 213 at 770 ns
%% Log    PASSED    in receiver_1: RxBurstFifo,      Received: 66   Item Number: 214 at 770 ns
%% Log    PASSED    in receiver_1: RxBurstFifo,      Received: 67   Item Number: 215 at 770 ns
%% Log    PASSED    in receiver_1: RxBurstFifo,      Received: 68   Item Number: 216 at 770 ns
%% Log    PASSED    in receiver_1: RxBurstFifo,      Received: 69   Item Number: 217 at 770 ns
%% Log    PASSED    in receiver_1: RxBurstFifo,      Received: 6A   Item Number: 218 at 770 ns
%% Log    PASSED    in receiver_1: RxBurstFifo,      Received: 6B   Item Number: 219 at 770 ns
%% Log    PASSED    in receiver_1: RxBurstFifo,      Received: 6C   Item Number: 220 at 770 ns
%% Log    PASSED    in receiver_1: RxBurstFifo,      Received: 6D   Item Number: 221 at 770 ns
%% Log    PASSED    in receiver_1: RxBurstFifo,      Received: 6E   Item Number: 222 at 770 ns
%% Log    PASSED    in receiver_1: RxBurstFifo,      Received: 6F   Item Number: 223 at 770 ns
%% Log    PASSED    in receiver_1: RxBurstFifo,      Received: 70   Item Number: 224 at 770 ns
%% Log    PASSED    in receiver_1: RxBurstFifo,      Received: 71   Item Number: 225 at 770 ns
%% Log    PASSED    in receiver_1: RxBurstFifo,      Received: 72   Item Number: 226 at 770 ns
%% Log    PASSED    in receiver_1: RxBurstFifo,      Received: 73   Item Number: 227 at 770 ns
%% Log    PASSED    in receiver_1: RxBurstFifo,      Received: 74   Item Number: 228 at 770 ns
%% Log    PASSED    in receiver_1: RxBurstFifo,      Received: 75   Item Number: 229 at 770 ns
%% Log    PASSED    in receiver_1: RxBurstFifo,      Received: 76   Item Number: 230 at 770 ns
%% Log    PASSED    in receiver_1: RxBurstFifo,      Received: 77   Item Number: 231 at 770 ns
%% Log    PASSED    in receiver_1: RxBurstFifo,      Received: 78   Item Number: 232 at 770 ns
%% Log    PASSED    in receiver_1: RxBurstFifo,      Received: 79   Item Number: 233 at 770 ns
%% Log    PASSED    in receiver_1: RxBurstFifo,      Received: 7A   Item Number: 234 at 770 ns
%% Log    PASSED    in receiver_1: RxBurstFifo,      Received: 7B   Item Number: 235 at 770 ns
%% Log    PASSED    in receiver_1: RxBurstFifo,      Received: 7C   Item Number: 236 at 770 ns
%% Log    PASSED    in receiver_1: RxBurstFifo,      Received: 7D   Item Number: 237 at 770 ns
%% Log    PASSED    in receiver_1: RxBurstFifo,      Received: 7E   Item Number: 238 at 770 ns
%% Log    PASSED    in receiver_1: RxBurstFifo,      Received: 7F   Item Number: 239 at 770 ns
%% Log    PASSED    in receiver_1: RxBurstFifo,      Received: 80   Item Number: 240 at 770 ns
%% Log    PASSED    in receiver_1: RxBurstFifo,      Received: 81   Item Number: 241 at 770 ns
%% Log    PASSED    in receiver_1: RxBurstFifo,      Received: 82   Item Number: 242 at 770 ns
%% Log    PASSED    in receiver_1: RxBurstFifo,      Received: 83   Item Number: 243 at 770 ns
%% Log    PASSED    in receiver_1: RxBurstFifo,      Received: 84   Item Number: 244 at 770 ns
%% Log    PASSED    in receiver_1: RxBurstFifo,      Received: 85   Item Number: 245 at 770 ns
%% Log    PASSED    in receiver_1: RxBurstFifo,      Received: 86   Item Number: 246 at 770 ns
%% Log    PASSED    in receiver_1: RxBurstFifo,      Received: 87   Item Number: 247 at 770 ns
%% Log    PASSED    in receiver_1: RxBurstFifo,      Received: 88   Item Number: 248 at 770 ns
%% Log    PASSED    in receiver_1: RxBurstFifo,      Received: 89   Item Number: 249 at 770 ns
%% Log    PASSED    in receiver_1: RxBurstFifo,      Received: 8A   Item Number: 250 at 770 ns
%% Log    PASSED    in receiver_1: RxBurstFifo,      Received: 8B   Item Number: 251 at 770 ns
%% Log    PASSED    in receiver_1: RxBurstFifo,      Received: 8C   Item Number: 252 at 770 ns
%% Log    PASSED    in receiver_1: RxBurstFifo,      Received: 8D   Item Number: 253 at 770 ns
%% Log    PASSED    in receiver_1: RxBurstFifo,      Received: 8E   Item Number: 254 at 770 ns
%% Log    INFO      in transmitter_1,   Axi Stream Send.  TData: 87868584  TStrb: 1111  TKeep: 1111  TID: 0A  TDest: B  TUser: C  TLast: 0  Operation# 68 at 780 ns
%% Log    INFO      in transmitter_1,   Axi Stream Send.  TData: 8B8A8988  TStrb: 1111  TKeep: 1111  TID: 0A  TDest: B  TUser: C  TLast: 0  Operation# 69 at 790 ns
%% Log    INFO      in transmitter_1,   Axi Stream Send.  TData: 8F8E8D8C  TStrb: 1111  TKeep: 1111  TID: 0A  TDest: B  TUser: C  TLast: 0  Operation# 70 at 800 ns
%% Log    INFO      in transmitter_1,   Axi Stream Send.  TData: 93929190  TStrb: 1111  TKeep: 1111  TID: 0A  TDest: B  TUser: C  TLast: 0  Operation# 71 at 810 ns
%% Log    INFO      in transmitter_1,   Axi Stream Send.  TData: 97969594  TStrb: 1111  TKeep: 1111  TID: 0A  TDest: B  TUser: C  TLast: 0  Operation# 72 at 820 ns
%% Log    INFO      in transmitter_1,   Axi Stream Send.  TData: 9B9A9998  TStrb: 1111  TKeep: 1111  TID: 0A  TDest: B  TUser: C  TLast: 0  Operation# 73 at 830 ns
%% Log    INFO      in transmitter_1,   Axi Stream Send.  TData: 9F9E9D9C  TStrb: 1111  TKeep: 1111  TID: 0A  TDest: B  TUser: C  TLast: 0  Operation# 74 at 840 ns
%% Log    INFO      in transmitter_1,   Axi Stream Send.  TData: A3A2A1A0  TStrb: 1111  TKeep: 1111  TID: 0A  TDest: B  TUser: C  TLast: 0  Operation# 75 at 850 ns
%% Log    INFO      in transmitter_1,   Axi Stream Send.  TData: A7A6A5A4  TStrb: 1111  TKeep: 1111  TID: 0A  TDest: B  TUser: C  TLast: 0  Operation# 76 at 860 ns
%% Log    INFO      in transmitter_1,   Axi Stream Send.  TData: ABAAA9A8  TStrb: 1111  TKeep: 1111  TID: 0A  TDest: B  TUser: C  TLast: 0  Operation# 77 at 870 ns
%% Log    INFO      in transmitter_1,   Axi Stream Send.  TData: AFAEADAC  TStrb: 1111  TKeep: 1111  TID: 0A  TDest: B  TUser: C  TLast: 0  Operation# 78 at 880 ns
%% Log    INFO      in transmitter_1,   Axi Stream Send.  TData: B3B2B1B0  TStrb: 1111  TKeep: 1111  TID: 0A  TDest: B  TUser: C  TLast: 1  Operation# 79 at 890 ns
%% Log    INFO      in transmitter_1,   Axi Stream Send.  TData: A3A2A1A0  TStrb: 1111  TKeep: 1111  TID: 0A  TDest: B  TUser: C  TLast: 0  Operation# 80 at 900 ns
%% Log    INFO      in receiver_1,   Burst Receive.  Operation# 8  Last Data: B3B2B1B0  TID: 0A  TDest: B  TUser: C  TLast: 1 at 900 ns
%% Log    PASSED    in Default,   TryCount 13 at 900 ns
%% Log    PASSED    in Default,   Receiver: NumBytes Received Received : 52 at 900 ns
%% Log    PASSED    in Default,   Receiver, ID:  Received : 0A at 900 ns
%% Log    PASSED    in Default,   Receiver, Dest:  Received : B at 900 ns
%% Log    PASSED    in Default,   Receiver, User:  Received : C at 900 ns
%% Log    PASSED    in receiver_1: RxBurstFifo,      Received: 80   Item Number: 255 at 900 ns
%% Log    PASSED    in receiver_1: RxBurstFifo,      Received: 81   Item Number: 256 at 900 ns
%% Log    PASSED    in receiver_1: RxBurstFifo,      Received: 82   Item Number: 257 at 900 ns
%% Log    PASSED    in receiver_1: RxBurstFifo,      Received: 83   Item Number: 258 at 900 ns
%% Log    PASSED    in receiver_1: RxBurstFifo,      Received: 84   Item Number: 259 at 900 ns
%% Log    PASSED    in receiver_1: RxBurstFifo,      Received: 85   Item Number: 260 at 900 ns
%% Log    PASSED    in receiver_1: RxBurstFifo,      Received: 86   Item Number: 261 at 900 ns
%% Log    PASSED    in receiver_1: RxBurstFifo,      Received: 87   Item Number: 262 at 900 ns
%% Log    PASSED    in receiver_1: RxBurstFifo,      Received: 88   Item Number: 263 at 900 ns
%% Log    PASSED    in receiver_1: RxBurstFifo,      Received: 89   Item Number: 264 at 900 ns
%% Log    PASSED    in receiver_1: RxBurstFifo,      Received: 8A   Item Number: 265 at 900 ns
%% Log    PASSED    in receiver_1: RxBurstFifo,      Received: 8B   Item Number: 266 at 900 ns
%% Log    PASSED    in receiver_1: RxBurstFifo,      Received: 8C   Item Number: 267 at 900 ns
%% Log    PASSED    in receiver_1: RxBurstFifo,      Received: 8D   Item Number: 268 at 900 ns
%% Log    PASSED    in receiver_1: RxBurstFifo,      Received: 8E   Item Number: 269 at 900 ns
%% Log    PASSED    in receiver_1: RxBurstFifo,      Received: 8F   Item Number: 270 at 900 ns
%% Log    PASSED    in receiver_1: RxBurstFifo,      Received: 90   Item Number: 271 at 900 ns
%% Log    PASSED    in receiver_1: RxBurstFifo,      Received: 91   Item Number: 272 at 900 ns
%% Log    PASSED    in receiver_1: RxBurstFifo,      Received: 92   Item Number: 273 at 900 ns
%% Log    PASSED    in receiver_1: RxBurstFifo,      Received: 93   Item Number: 274 at 900 ns
%% Log    PASSED    in receiver_1: RxBurstFifo,      Received: 94   Item Number: 275 at 900 ns
%% Log    PASSED    in receiver_1: RxBurstFifo,      Received: 95   Item Number: 276 at 900 ns
%% Log    PASSED    in receiver_1: RxBurstFifo,      Received: 96   Item Number: 277 at 900 ns
%% Log    PASSED    in receiver_1: RxBurstFifo,      Received: 97   Item Number: 278 at 900 ns
%% Log    PASSED    in receiver_1: RxBurstFifo,      Received: 98   Item Number: 279 at 900 ns
%% Log    PASSED    in receiver_1: RxBurstFifo,      Received: 99   Item Number: 280 at 900 ns
%% Log    PASSED    in receiver_1: RxBurstFifo,      Received: 9A   Item Number: 281 at 900 ns
%% Log    PASSED    in receiver_1: RxBurstFifo,      Received: 9B   Item Number: 282 at 900 ns
%% Log    PASSED    in receiver_1: RxBurstFifo,      Received: 9C   Item Number: 283 at 900 ns
%% Log    PASSED    in receiver_1: RxBurstFifo,      Received: 9D   Item Number: 284 at 900 ns
%% Log    PASSED    in receiver_1: RxBurstFifo,      Received: 9E   Item Number: 285 at 900 ns
%% Log    PASSED    in receiver_1: RxBurstFifo,      Received: 9F   Item Number: 286 at 900 ns
%% Log    PASSED    in receiver_1: RxBurstFifo,      Received: A0   Item Number: 287 at 900 ns
%% Log    PASSED    in receiver_1: RxBurstFifo,      Received: A1   Item Number: 288 at 900 ns
%% Log    PASSED    in receiver_1: RxBurstFifo,      Received: A2   Item Number: 289 at 900 ns
%% Log    PASSED    in receiver_1: RxBurstFifo,      Received: A3   Item Number: 290 at 900 ns
%% Log    PASSED    in receiver_1: RxBurstFifo,      Received: A4   Item Number: 291 at 900 ns
%% Log    PASSED    in receiver_1: RxBurstFifo,      Received: A5   Item Number: 292 at 900 ns
%% Log    PASSED    in receiver_1: RxBurstFifo,      Received: A6   Item Number: 293 at 900 ns
%% Log    PASSED    in receiver_1: RxBurstFifo,      Received: A7   Item Number: 294 at 900 ns
%% Log    PASSED    in receiver_1: RxBurstFifo,      Received: A8   Item Number: 295 at 900 ns
%% Log    PASSED    in receiver_1: RxBurstFifo,      Received: A9   Item Number: 296 at 900 ns
%% Log    PASSED    in receiver_1: RxBurstFifo,      Received: AA   Item Number: 297 at 900 ns
%% Log    PASSED    in receiver_1: RxBurstFifo,      Received: AB   Item Number: 298 at 900 ns
%% Log    PASSED    in receiver_1: RxBurstFifo,      Received: AC   Item Number: 299 at 900 ns
%% Log    PASSED    in receiver_1: RxBurstFifo,      Received: AD   Item Number: 300 at 900 ns
%% Log    PASSED    in receiver_1: RxBurstFifo,      Received: AE   Item Number: 301 at 900 ns
%% Log    PASSED    in receiver_1: RxBurstFifo,      Received: AF   Item Number: 302 at 900 ns
%% Log    PASSED    in receiver_1: RxBurstFifo,      Received: B0   Item Number: 303 at 900 ns
%% Log    PASSED    in receiver_1: RxBurstFifo,      Received: B1   Item Number: 304 at 900 ns
%% Log    PASSED    in receiver_1: RxBurstFifo,      Received: B2   Item Number: 305 at 900 ns
%% Log    PASSED    in receiver_1: RxBurstFifo,      Received: B3   Item Number: 306 at 900 ns
%% Log    INFO      in transmitter_1,   Axi Stream Send.  TData: A7A6A5A4  TStrb: 1111  TKeep: 1111  TID: 0A  TDest: B  TUser: C  TLast: 0  Operation# 81 at 910 ns
%% Log    INFO      in transmitter_1,   Axi Stream Send.  TData: ABAAA9A8  TStrb: 1111  TKeep: 1111  TID: 0A  TDest: B  TUser: C  TLast: 0  Operation# 82 at 920 ns
%% Log    INFO      in transmitter_1,   Axi Stream Send.  TData: AFAEADAC  TStrb: 1111  TKeep: 1111  TID: 0A  TDest: B  TUser: C  TLast: 0  Operation# 83 at 930 ns
%% Log    INFO      in transmitter_1,   Axi Stream Send.  TData: B3B2B1B0  TStrb: 1111  TKeep: 1111  TID: 0A  TDest: B  TUser: C  TLast: 0  Operation# 84 at 940 ns
%% Log    INFO      in transmitter_1,   Axi Stream Send.  TData: B7B6B5B4  TStrb: 1111  TKeep: 1111  TID: 0A  TDest: B  TUser: C  TLast: 0  Operation# 85 at 950 ns
%% Log    INFO      in transmitter_1,   Axi Stream Send.  TData: BBBAB9B8  TStrb: 1111  TKeep: 1111  TID: 0A  TDest: B  TUser: C  TLast: 0  Operation# 86 at 960 ns
%% Log    INFO      in transmitter_1,   Axi Stream Send.  TData: BFBEBDBC  TStrb: 1111  TKeep: 1111  TID: 0A  TDest: B  TUser: C  TLast: 0  Operation# 87 at 970 ns
%% Log    INFO      in transmitter_1,   Axi Stream Send.  TData: C3C2C1C0  TStrb: 1111  TKeep: 1111  TID: 0A  TDest: B  TUser: C  TLast: 0  Operation# 88 at 980 ns
%% Log    INFO      in transmitter_1,   Axi Stream Send.  TData: C7C6C5C4  TStrb: 1111  TKeep: 1111  TID: 0A  TDest: B  TUser: C  TLast: 0  Operation# 89 at 990 ns
%% Log    INFO      in transmitter_1,   Axi Stream Send.  TData: CBCAC9C8  TStrb: 1111  TKeep: 1111  TID: 0A  TDest: B  TUser: C  TLast: 0  Operation# 90 at 1000 ns
%% Log    INFO      in transmitter_1,   Axi Stream Send.  TData: CFCECDCC  TStrb: 1111  TKeep: 1111  TID: 0A  TDest: B  TUser: C  TLast: 0  Operation# 91 at 1010 ns
%% Log    INFO      in transmitter_1,   Axi Stream Send.  TData: D3D2D1D0  TStrb: 1111  TKeep: 1111  TID: 0A  TDest: B  TUser: C  TLast: 0  Operation# 92 at 1020 ns
%% Log    INFO      in transmitter_1,   Axi Stream Send.  TData: D7D6D5D4  TStrb: 1111  TKeep: 1111  TID: 0A  TDest: B  TUser: C  TLast: 0  Operation# 93 at 1030 ns
%% Log    INFO      in transmitter_1,   Axi Stream Send.  TData: XXXXXXD8  TStrb: 0001  TKeep: 0001  TID: 0A  TDest: B  TUser: C  TLast: 1  Operation# 94 at 1040 ns
%% Log    INFO      in transmitter_1,   Axi Stream Send.  TData: C3C2C1C0  TStrb: 1111  TKeep: 1111  TID: 0B  TDest: C  TUser: D  TLast: 0  Operation# 95 at 1050 ns
%% Log    INFO      in receiver_1,   Burst Receive.  Operation# 9  Last Data: ------D8  TID: 0A  TDest: B  TUser: C  TLast: 1 at 1050 ns
%% Log    PASSED    in Default,   TryCount 15 at 1050 ns
%% Log    PASSED    in Default,   Receiver: NumBytes Received Received : 57 at 1050 ns
%% Log    PASSED    in Default,   Receiver, ID:  Received : 0A at 1050 ns
%% Log    PASSED    in Default,   Receiver, Dest:  Received : B at 1050 ns
%% Log    PASSED    in Default,   Receiver, User:  Received : C at 1050 ns
%% Log    PASSED    in receiver_1: RxBurstFifo,      Received: A0   Item Number: 307 at 1050 ns
%% Log    PASSED    in receiver_1: RxBurstFifo,      Received: A1   Item Number: 308 at 1050 ns
%% Log    PASSED    in receiver_1: RxBurstFifo,      Received: A2   Item Number: 309 at 1050 ns
%% Log    PASSED    in receiver_1: RxBurstFifo,      Received: A3   Item Number: 310 at 1050 ns
%% Log    PASSED    in receiver_1: RxBurstFifo,      Received: A4   Item Number: 311 at 1050 ns
%% Log    PASSED    in receiver_1: RxBurstFifo,      Received: A5   Item Number: 312 at 1050 ns
%% Log    PASSED    in receiver_1: RxBurstFifo,      Received: A6   Item Number: 313 at 1050 ns
%% Log    PASSED    in receiver_1: RxBurstFifo,      Received: A7   Item Number: 314 at 1050 ns
%% Log    PASSED    in receiver_1: RxBurstFifo,      Received: A8   Item Number: 315 at 1050 ns
%% Log    PASSED    in receiver_1: RxBurstFifo,      Received: A9   Item Number: 316 at 1050 ns
%% Log    PASSED    in receiver_1: RxBurstFifo,      Received: AA   Item Number: 317 at 1050 ns
%% Log    PASSED    in receiver_1: RxBurstFifo,      Received: AB   Item Number: 318 at 1050 ns
%% Log    PASSED    in receiver_1: RxBurstFifo,      Received: AC   Item Number: 319 at 1050 ns
%% Log    PASSED    in receiver_1: RxBurstFifo,      Received: AD   Item Number: 320 at 1050 ns
%% Log    PASSED    in receiver_1: RxBurstFifo,      Received: AE   Item Number: 321 at 1050 ns
%% Log    PASSED    in receiver_1: RxBurstFifo,      Received: AF   Item Number: 322 at 1050 ns
%% Log    PASSED    in receiver_1: RxBurstFifo,      Received: B0   Item Number: 323 at 1050 ns
%% Log    PASSED    in receiver_1: RxBurstFifo,      Received: B1   Item Number: 324 at 1050 ns
%% Log    PASSED    in receiver_1: RxBurstFifo,      Received: B2   Item Number: 325 at 1050 ns
%% Log    PASSED    in receiver_1: RxBurstFifo,      Received: B3   Item Number: 326 at 1050 ns
%% Log    PASSED    in receiver_1: RxBurstFifo,      Received: B4   Item Number: 327 at 1050 ns
%% Log    PASSED    in receiver_1: RxBurstFifo,      Received: B5   Item Number: 328 at 1050 ns
%% Log    PASSED    in receiver_1: RxBurstFifo,      Received: B6   Item Number: 329 at 1050 ns
%% Log    PASSED    in receiver_1: RxBurstFifo,      Received: B7   Item Number: 330 at 1050 ns
%% Log    PASSED    in receiver_1: RxBurstFifo,      Received: B8   Item Number: 331 at 1050 ns
%% Log    PASSED    in receiver_1: RxBurstFifo,      Received: B9   Item Number: 332 at 1050 ns
%% Log    PASSED    in receiver_1: RxBurstFifo,      Received: BA   Item Number: 333 at 1050 ns
%% Log    PASSED    in receiver_1: RxBurstFifo,      Received: BB   Item Number: 334 at 1050 ns
%% Log    PASSED    in receiver_1: RxBurstFifo,      Received: BC   Item Number: 335 at 1050 ns
%% Log    PASSED    in receiver_1: RxBurstFifo,      Received: BD   Item Number: 336 at 1050 ns
%% Log    PASSED    in receiver_1: RxBurstFifo,      Received: BE   Item Number: 337 at 1050 ns
%% Log    PASSED    in receiver_1: RxBurstFifo,      Received: BF   Item Number: 338 at 1050 ns
%% Log    PASSED    in receiver_1: RxBurstFifo,      Received: C0   Item Number: 339 at 1050 ns
%% Log    PASSED    in receiver_1: RxBurstFifo,      Received: C1   Item Number: 340 at 1050 ns
%% Log    PASSED    in receiver_1: RxBurstFifo,      Received: C2   Item Number: 341 at 1050 ns
%% Log    PASSED    in receiver_1: RxBurstFifo,      Received: C3   Item Number: 342 at 1050 ns
%% Log    PASSED    in receiver_1: RxBurstFifo,      Received: C4   Item Number: 343 at 1050 ns
%% Log    PASSED    in receiver_1: RxBurstFifo,      Received: C5   Item Number: 344 at 1050 ns
%% Log    PASSED    in receiver_1: RxBurstFifo,      Received: C6   Item Number: 345 at 1050 ns
%% Log    PASSED    in receiver_1: RxBurstFifo,      Received: C7   Item Number: 346 at 1050 ns
%% Log    PASSED    in receiver_1: RxBurstFifo,      Received: C8   Item Number: 347 at 1050 ns
%% Log    PASSED    in receiver_1: RxBurstFifo,      Received: C9   Item Number: 348 at 1050 ns
%% Log    PASSED    in receiver_1: RxBurstFifo,      Received: CA   Item Number: 349 at 1050 ns
%% Log    PASSED    in receiver_1: RxBurstFifo,      Received: CB   Item Number: 350 at 1050 ns
%% Log    PASSED    in receiver_1: RxBurstFifo,      Received: CC   Item Number: 351 at 1050 ns
%% Log    PASSED    in receiver_1: RxBurstFifo,      Received: CD   Item Number: 352 at 1050 ns
%% Log    PASSED    in receiver_1: RxBurstFifo,      Received: CE   Item Number: 353 at 1050 ns
%% Log    PASSED    in receiver_1: RxBurstFifo,      Received: CF   Item Number: 354 at 1050 ns
%% Log    PASSED    in receiver_1: RxBurstFifo,      Received: D0   Item Number: 355 at 1050 ns
%% Log    PASSED    in receiver_1: RxBurstFifo,      Received: D1   Item Number: 356 at 1050 ns
%% Log    PASSED    in receiver_1: RxBurstFifo,      Received: D2   Item Number: 357 at 1050 ns
%% Log    PASSED    in receiver_1: RxBurstFifo,      Received: D3   Item Number: 358 at 1050 ns
%% Log    PASSED    in receiver_1: RxBurstFifo,      Received: D4   Item Number: 359 at 1050 ns
%% Log    PASSED    in receiver_1: RxBurstFifo,      Received: D5   Item Number: 360 at 1050 ns
%% Log    PASSED    in receiver_1: RxBurstFifo,      Received: D6   Item Number: 361 at 1050 ns
%% Log    PASSED    in receiver_1: RxBurstFifo,      Received: D7   Item Number: 362 at 1050 ns
%% Log    PASSED    in receiver_1: RxBurstFifo,      Received: D8   Item Number: 363 at 1050 ns
%% Log    INFO      in transmitter_1,   Axi Stream Send.  TData: C7C6C5C4  TStrb: 1111  TKeep: 1111  TID: 0B  TDest: C  TUser: D  TLast: 0  Operation# 96 at 1060 ns
%% Log    INFO      in transmitter_1,   Axi Stream Send.  TData: CBCAC9C8  TStrb: 1111  TKeep: 1111  TID: 0B  TDest: C  TUser: D  TLast: 0  Operation# 97 at 1070 ns
%% Log    INFO      in transmitter_1,   Axi Stream Send.  TData: CFCECDCC  TStrb: 1111  TKeep: 1111  TID: 0B  TDest: C  TUser: D  TLast: 0  Operation# 98 at 1080 ns
%% Log    INFO      in transmitter_1,   Axi Stream Send.  TData: D3D2D1D0  TStrb: 1111  TKeep: 1111  TID: 0B  TDest: C  TUser: D  TLast: 0  Operation# 99 at 1090 ns
%% Log    INFO      in transmitter_1,   Axi Stream Send.  TData: D7D6D5D4  TStrb: 1111  TKeep: 1111  TID: 0B  TDest: C  TUser: D  TLast: 0  Operation# 100 at 1100 ns
%% Log    INFO      in transmitter_1,   Axi Stream Send.  TData: DBDAD9D8  TStrb: 1111  TKeep: 1111  TID: 0B  TDest: C  TUser: D  TLast: 0  Operation# 101 at 1110 ns
%% Log    INFO      in transmitter_1,   Axi Stream Send.  TData: DFDEDDDC  TStrb: 1111  TKeep: 1111  TID: 0B  TDest: C  TUser: D  TLast: 0  Operation# 102 at 1120 ns
%% Log    INFO      in transmitter_1,   Axi Stream Send.  TData: E3E2E1E0  TStrb: 1111  TKeep: 1111  TID: 0B  TDest: C  TUser: D  TLast: 0  Operation# 103 at 1130 ns
%% Log    INFO      in transmitter_1,   Axi Stream Send.  TData: E7E6E5E4  TStrb: 1111  TKeep: 1111  TID: 0B  TDest: C  TUser: D  TLast: 0  Operation# 104 at 1140 ns
%% Log    INFO      in transmitter_1,   Axi Stream Send.  TData: EBEAE9E8  TStrb: 1111  TKeep: 1111  TID: 0B  TDest: C  TUser: D  TLast: 0  Operation# 105 at 1150 ns
%% Log    INFO      in transmitter_1,   Axi Stream Send.  TData: EFEEEDEC  TStrb: 1111  TKeep: 1111  TID: 0B  TDest: C  TUser: D  TLast: 0  Operation# 106 at 1160 ns
%% Log    INFO      in transmitter_1,   Axi Stream Send.  TData: F3F2F1F0  TStrb: 1111  TKeep: 1111  TID: 0B  TDest: C  TUser: D  TLast: 0  Operation# 107 at 1170 ns
%% Log    INFO      in transmitter_1,   Axi Stream Send.  TData: F7F6F5F4  TStrb: 1111  TKeep: 1111  TID: 0B  TDest: C  TUser: D  TLast: 0  Operation# 108 at 1180 ns
%% Log    INFO      in transmitter_1,   Axi Stream Send.  TData: FBFAF9F8  TStrb: 1111  TKeep: 1111  TID: 0B  TDest: C  TUser: D  TLast: 0  Operation# 109 at 1190 ns
%% Log    INFO      in transmitter_1,   Axi Stream Send.  TData: XXXXFDFC  TStrb: 0011  TKeep: 0011  TID: 0B  TDest: C  TUser: D  TLast: 1  Operation# 110 at 1200 ns
%% Log    INFO      in receiver_1,   Burst Receive.  Operation# 10  Last Data: ----FDFC  TID: 0B  TDest: C  TUser: D  TLast: 1 at 1210 ns
%% Log    PASSED    in Default,   TryCount 16 at 1210 ns
%% Log    PASSED    in Default,   Receiver: NumBytes Received Received : 62 at 1210 ns
%% Log    PASSED    in Default,   Receiver, ID:  Received : 0B at 1210 ns
%% Log    PASSED    in Default,   Receiver, Dest:  Received : C at 1210 ns
%% Log    PASSED    in Default,   Receiver, User:  Received : D at 1210 ns
%% Log    PASSED    in receiver_1: RxBurstFifo,      Received: C0   Item Number: 364 at 1210 ns
%% Log    PASSED    in receiver_1: RxBurstFifo,      Received: C1   Item Number: 365 at 1210 ns
%% Log    PASSED    in receiver_1: RxBurstFifo,      Received: C2   Item Number: 366 at 1210 ns
%% Log    PASSED    in receiver_1: RxBurstFifo,      Received: C3   Item Number: 367 at 1210 ns
%% Log    PASSED    in receiver_1: RxBurstFifo,      Received: C4   Item Number: 368 at 1210 ns
%% Log    PASSED    in receiver_1: RxBurstFifo,      Received: C5   Item Number: 369 at 1210 ns
%% Log    PASSED    in receiver_1: RxBurstFifo,      Received: C6   Item Number: 370 at 1210 ns
%% Log    PASSED    in receiver_1: RxBurstFifo,      Received: C7   Item Number: 371 at 1210 ns
%% Log    PASSED    in receiver_1: RxBurstFifo,      Received: C8   Item Number: 372 at 1210 ns
%% Log    PASSED    in receiver_1: RxBurstFifo,      Received: C9   Item Number: 373 at 1210 ns
%% Log    PASSED    in receiver_1: RxBurstFifo,      Received: CA   Item Number: 374 at 1210 ns
%% Log    PASSED    in receiver_1: RxBurstFifo,      Received: CB   Item Number: 375 at 1210 ns
%% Log    PASSED    in receiver_1: RxBurstFifo,      Received: CC   Item Number: 376 at 1210 ns
%% Log    PASSED    in receiver_1: RxBurstFifo,      Received: CD   Item Number: 377 at 1210 ns
%% Log    PASSED    in receiver_1: RxBurstFifo,      Received: CE   Item Number: 378 at 1210 ns
%% Log    PASSED    in receiver_1: RxBurstFifo,      Received: CF   Item Number: 379 at 1210 ns
%% Log    PASSED    in receiver_1: RxBurstFifo,      Received: D0   Item Number: 380 at 1210 ns
%% Log    PASSED    in receiver_1: RxBurstFifo,      Received: D1   Item Number: 381 at 1210 ns
%% Log    PASSED    in receiver_1: RxBurstFifo,      Received: D2   Item Number: 382 at 1210 ns
%% Log    PASSED    in receiver_1: RxBurstFifo,      Received: D3   Item Number: 383 at 1210 ns
%% Log    PASSED    in receiver_1: RxBurstFifo,      Received: D4   Item Number: 384 at 1210 ns
%% Log    PASSED    in receiver_1: RxBurstFifo,      Received: D5   Item Number: 385 at 1210 ns
%% Log    PASSED    in receiver_1: RxBurstFifo,      Received: D6   Item Number: 386 at 1210 ns
%% Log    PASSED    in receiver_1: RxBurstFifo,      Received: D7   Item Number: 387 at 1210 ns
%% Log    PASSED    in receiver_1: RxBurstFifo,      Received: D8   Item Number: 388 at 1210 ns
%% Log    PASSED    in receiver_1: RxBurstFifo,      Received: D9   Item Number: 389 at 1210 ns
%% Log    PASSED    in receiver_1: RxBurstFifo,      Received: DA   Item Number: 390 at 1210 ns
%% Log    PASSED    in receiver_1: RxBurstFifo,      Received: DB   Item Number: 391 at 1210 ns
%% Log    PASSED    in receiver_1: RxBurstFifo,      Received: DC   Item Number: 392 at 1210 ns
%% Log    PASSED    in receiver_1: RxBurstFifo,      Received: DD   Item Number: 393 at 1210 ns
%% Log    PASSED    in receiver_1: RxBurstFifo,      Received: DE   Item Number: 394 at 1210 ns
%% Log    PASSED    in receiver_1: RxBurstFifo,      Received: DF   Item Number: 395 at 1210 ns
%% Log    PASSED    in receiver_1: RxBurstFifo,      Received: E0   Item Number: 396 at 1210 ns
%% Log    PASSED    in receiver_1: RxBurstFifo,      Received: E1   Item Number: 397 at 1210 ns
%% Log    PASSED    in receiver_1: RxBurstFifo,      Received: E2   Item Number: 398 at 1210 ns
%% Log    PASSED    in receiver_1: RxBurstFifo,      Received: E3   Item Number: 399 at 1210 ns
%% Log    PASSED    in receiver_1: RxBurstFifo,      Received: E4   Item Number: 400 at 1210 ns
%% Log    PASSED    in receiver_1: RxBurstFifo,      Received: E5   Item Number: 401 at 1210 ns
%% Log    PASSED    in receiver_1: RxBurstFifo,      Received: E6   Item Number: 402 at 1210 ns
%% Log    PASSED    in receiver_1: RxBurstFifo,      Received: E7   Item Number: 403 at 1210 ns
%% Log    PASSED    in receiver_1: RxBurstFifo,      Received: E8   Item Number: 404 at 1210 ns
%% Log    PASSED    in receiver_1: RxBurstFifo,      Received: E9   Item Number: 405 at 1210 ns
%% Log    PASSED    in receiver_1: RxBurstFifo,      Received: EA   Item Number: 406 at 1210 ns
%% Log    PASSED    in receiver_1: RxBurstFifo,      Received: EB   Item Number: 407 at 1210 ns
%% Log    PASSED    in receiver_1: RxBurstFifo,      Received: EC   Item Number: 408 at 1210 ns
%% Log    PASSED    in receiver_1: RxBurstFifo,      Received: ED   Item Number: 409 at 1210 ns
%% Log    PASSED    in receiver_1: RxBurstFifo,      Received: EE   Item Number: 410 at 1210 ns
%% Log    PASSED    in receiver_1: RxBurstFifo,      Received: EF   Item Number: 411 at 1210 ns
%% Log    PASSED    in receiver_1: RxBurstFifo,      Received: F0   Item Number: 412 at 1210 ns
%% Log    PASSED    in receiver_1: RxBurstFifo,      Received: F1   Item Number: 413 at 1210 ns
%% Log    PASSED    in receiver_1: RxBurstFifo,      Received: F2   Item Number: 414 at 1210 ns
%% Log    PASSED    in receiver_1: RxBurstFifo,      Received: F3   Item Number: 415 at 1210 ns
%% Log    PASSED    in receiver_1: RxBurstFifo,      Received: F4   Item Number: 416 at 1210 ns
%% Log    PASSED    in receiver_1: RxBurstFifo,      Received: F5   Item Number: 417 at 1210 ns
%% Log    PASSED    in receiver_1: RxBurstFifo,      Received: F6   Item Number: 418 at 1210 ns
%% Log    PASSED    in receiver_1: RxBurstFifo,      Received: F7   Item Number: 419 at 1210 ns
%% Log    PASSED    in receiver_1: RxBurstFifo,      Received: F8   Item Number: 420 at 1210 ns
%% Log    PASSED    in receiver_1: RxBurstFifo,      Received: F9   Item Number: 421 at 1210 ns
%% Log    PASSED    in receiver_1: RxBurstFifo,      Received: FA   Item Number: 422 at 1210 ns
%% Log    PASSED    in receiver_1: RxBurstFifo,      Received: FB   Item Number: 423 at 1210 ns
%% Log    PASSED    in receiver_1: RxBurstFifo,      Received: FC   Item Number: 424 at 1210 ns
%% Log    PASSED    in receiver_1: RxBurstFifo,      Received: FD   Item Number: 425 at 1210 ns
