%%   110 ns    Log    PASSED    in Default,                      TRANSMIT_VALID_DELAY_CYCLES Received : 0
%%   110 ns    Log    PASSED    in Default,                      TRANSMIT_VALID_BURST_DELAY_CYCLES Received : 0
%%   110 ns    Log    ALWAYS    in Default,                      Valid Delay Cycles Default 0
%%   110 ns    Log    ALWAYS    in Default,                      Transmit 2 bursts of 8 words each
%%   110 ns    Log    INFO      in transmitter_1,                Axi Stream Send.  TData: 00000000  TStrb: 1111  TKeep: 1111  TID: 00  TDest: 0  TUser: 0  TLast: 0  Operation# 1
%%   120 ns    Log    INFO      in transmitter_1,                Axi Stream Send.  TData: 00000001  TStrb: 1111  TKeep: 1111  TID: 00  TDest: 0  TUser: 0  TLast: 0  Operation# 2
%%   130 ns    Log    INFO      in transmitter_1,                Axi Stream Send.  TData: 00000002  TStrb: 1111  TKeep: 1111  TID: 00  TDest: 0  TUser: 0  TLast: 0  Operation# 3
%%   140 ns    Log    INFO      in transmitter_1,                Axi Stream Send.  TData: 00000003  TStrb: 1111  TKeep: 1111  TID: 00  TDest: 0  TUser: 0  TLast: 0  Operation# 4
%%   150 ns    Log    INFO      in transmitter_1,                Axi Stream Send.  TData: 00000004  TStrb: 1111  TKeep: 1111  TID: 00  TDest: 0  TUser: 0  TLast: 0  Operation# 5
%%   160 ns    Log    INFO      in transmitter_1,                Axi Stream Send.  TData: 00000005  TStrb: 1111  TKeep: 1111  TID: 00  TDest: 0  TUser: 0  TLast: 0  Operation# 6
%%   170 ns    Log    INFO      in transmitter_1,                Axi Stream Send.  TData: 00000006  TStrb: 1111  TKeep: 1111  TID: 00  TDest: 0  TUser: 0  TLast: 0  Operation# 7
%%   180 ns    Log    INFO      in transmitter_1,                Axi Stream Send.  TData: 00000007  TStrb: 1111  TKeep: 1111  TID: 00  TDest: 0  TUser: 0  TLast: 1  Operation# 8
%%   190 ns    Log    PASSED    in receiver_1: RxBurstFifo,      Received: 00000000   Item Number: 1
%%   190 ns    Log    PASSED    in receiver_1: RxBurstFifo,      Received: 00000001   Item Number: 2
%%   190 ns    Log    PASSED    in receiver_1: RxBurstFifo,      Received: 00000002   Item Number: 3
%%   190 ns    Log    PASSED    in receiver_1: RxBurstFifo,      Received: 00000003   Item Number: 4
%%   190 ns    Log    PASSED    in receiver_1: RxBurstFifo,      Received: 00000004   Item Number: 5
%%   190 ns    Log    PASSED    in receiver_1: RxBurstFifo,      Received: 00000005   Item Number: 6
%%   190 ns    Log    PASSED    in receiver_1: RxBurstFifo,      Received: 00000006   Item Number: 7
%%   190 ns    Log    PASSED    in receiver_1: RxBurstFifo,      Received: 00000007   Item Number: 8
%%   190 ns    Log    INFO      in receiver_1,                   Burst Check.  Operation# 1  Last Data: 00000007  TID: 00  TDest: 0  TUser: 0  TLast: 1
%%   190 ns    Log    PASSED    in receiver_1,                   Burst Check WordCount Received : 8
%%   190 ns    Log    PASSED    in receiver_1,                   ID Received : 00
%%   190 ns    Log    PASSED    in receiver_1,                   DEST Received : 0
%%   190 ns    Log    PASSED    in receiver_1,                   USER Received : 0
%%   190 ns    Log    PASSED    in receiver_1,                   Last Received : 1
%%   190 ns    Log    INFO      in transmitter_1,                Axi Stream Send.  TData: 00000008  TStrb: 1111  TKeep: 1111  TID: 00  TDest: 0  TUser: 0  TLast: 0  Operation# 9
%%   200 ns    Log    INFO      in transmitter_1,                Axi Stream Send.  TData: 00000009  TStrb: 1111  TKeep: 1111  TID: 00  TDest: 0  TUser: 0  TLast: 0  Operation# 10
%%   210 ns    Log    INFO      in transmitter_1,                Axi Stream Send.  TData: 0000000A  TStrb: 1111  TKeep: 1111  TID: 00  TDest: 0  TUser: 0  TLast: 0  Operation# 11
%%   220 ns    Log    INFO      in transmitter_1,                Axi Stream Send.  TData: 0000000B  TStrb: 1111  TKeep: 1111  TID: 00  TDest: 0  TUser: 0  TLast: 0  Operation# 12
%%   230 ns    Log    INFO      in transmitter_1,                Axi Stream Send.  TData: 0000000C  TStrb: 1111  TKeep: 1111  TID: 00  TDest: 0  TUser: 0  TLast: 0  Operation# 13
%%   240 ns    Log    INFO      in transmitter_1,                Axi Stream Send.  TData: 0000000D  TStrb: 1111  TKeep: 1111  TID: 00  TDest: 0  TUser: 0  TLast: 0  Operation# 14
%%   250 ns    Log    INFO      in transmitter_1,                Axi Stream Send.  TData: 0000000E  TStrb: 1111  TKeep: 1111  TID: 00  TDest: 0  TUser: 0  TLast: 0  Operation# 15
%%   260 ns    Log    INFO      in transmitter_1,                Axi Stream Send.  TData: 0000000F  TStrb: 1111  TKeep: 1111  TID: 00  TDest: 0  TUser: 0  TLast: 1  Operation# 16
%%   270 ns    Log    PASSED    in receiver_1: RxBurstFifo,      Received: 00000008   Item Number: 9
%%   270 ns    Log    PASSED    in receiver_1: RxBurstFifo,      Received: 00000009   Item Number: 10
%%   270 ns    Log    PASSED    in receiver_1: RxBurstFifo,      Received: 0000000A   Item Number: 11
%%   270 ns    Log    PASSED    in receiver_1: RxBurstFifo,      Received: 0000000B   Item Number: 12
%%   270 ns    Log    PASSED    in receiver_1: RxBurstFifo,      Received: 0000000C   Item Number: 13
%%   270 ns    Log    PASSED    in receiver_1: RxBurstFifo,      Received: 0000000D   Item Number: 14
%%   270 ns    Log    PASSED    in receiver_1: RxBurstFifo,      Received: 0000000E   Item Number: 15
%%   270 ns    Log    PASSED    in receiver_1: RxBurstFifo,      Received: 0000000F   Item Number: 16
%%   270 ns    Log    INFO      in receiver_1,                   Burst Check.  Operation# 2  Last Data: 0000000F  TID: 00  TDest: 0  TUser: 0  TLast: 1
%%   270 ns    Log    PASSED    in receiver_1,                   Burst Check WordCount Received : 8
%%   270 ns    Log    PASSED    in receiver_1,                   ID Received : 00
%%   270 ns    Log    PASSED    in receiver_1,                   DEST Received : 0
%%   270 ns    Log    PASSED    in receiver_1,                   USER Received : 0
%%   270 ns    Log    PASSED    in receiver_1,                   Last Received : 1
%%   270 ns    Log    ALWAYS    in Default,                      Valid Delay Cycles 2
%%   270 ns    Log    ALWAYS    in Default,                      Transmit 2 bursts of 8 words each
%%   310 ns    Log    INFO      in transmitter_1,                Axi Stream Send.  TData: 00000010  TStrb: 1111  TKeep: 1111  TID: 00  TDest: 0  TUser: 0  TLast: 0  Operation# 17
%%   340 ns    Log    INFO      in transmitter_1,                Axi Stream Send.  TData: 00000011  TStrb: 1111  TKeep: 1111  TID: 00  TDest: 0  TUser: 0  TLast: 0  Operation# 18
%%   370 ns    Log    INFO      in transmitter_1,                Axi Stream Send.  TData: 00000012  TStrb: 1111  TKeep: 1111  TID: 00  TDest: 0  TUser: 0  TLast: 0  Operation# 19
%%   400 ns    Log    INFO      in transmitter_1,                Axi Stream Send.  TData: 00000013  TStrb: 1111  TKeep: 1111  TID: 00  TDest: 0  TUser: 0  TLast: 0  Operation# 20
%%   430 ns    Log    INFO      in transmitter_1,                Axi Stream Send.  TData: 00000014  TStrb: 1111  TKeep: 1111  TID: 00  TDest: 0  TUser: 0  TLast: 0  Operation# 21
%%   460 ns    Log    INFO      in transmitter_1,                Axi Stream Send.  TData: 00000015  TStrb: 1111  TKeep: 1111  TID: 00  TDest: 0  TUser: 0  TLast: 0  Operation# 22
%%   490 ns    Log    INFO      in transmitter_1,                Axi Stream Send.  TData: 00000016  TStrb: 1111  TKeep: 1111  TID: 00  TDest: 0  TUser: 0  TLast: 0  Operation# 23
%%   520 ns    Log    INFO      in transmitter_1,                Axi Stream Send.  TData: 00000017  TStrb: 1111  TKeep: 1111  TID: 00  TDest: 0  TUser: 0  TLast: 1  Operation# 24
%%   530 ns    Log    PASSED    in receiver_1: RxBurstFifo,      Received: 00000010   Item Number: 17
%%   530 ns    Log    PASSED    in receiver_1: RxBurstFifo,      Received: 00000011   Item Number: 18
%%   530 ns    Log    PASSED    in receiver_1: RxBurstFifo,      Received: 00000012   Item Number: 19
%%   530 ns    Log    PASSED    in receiver_1: RxBurstFifo,      Received: 00000013   Item Number: 20
%%   530 ns    Log    PASSED    in receiver_1: RxBurstFifo,      Received: 00000014   Item Number: 21
%%   530 ns    Log    PASSED    in receiver_1: RxBurstFifo,      Received: 00000015   Item Number: 22
%%   530 ns    Log    PASSED    in receiver_1: RxBurstFifo,      Received: 00000016   Item Number: 23
%%   530 ns    Log    PASSED    in receiver_1: RxBurstFifo,      Received: 00000017   Item Number: 24
%%   530 ns    Log    INFO      in receiver_1,                   Burst Check.  Operation# 3  Last Data: 00000017  TID: 00  TDest: 0  TUser: 0  TLast: 1
%%   530 ns    Log    PASSED    in receiver_1,                   Burst Check WordCount Received : 8
%%   530 ns    Log    PASSED    in receiver_1,                   ID Received : 00
%%   530 ns    Log    PASSED    in receiver_1,                   DEST Received : 0
%%   530 ns    Log    PASSED    in receiver_1,                   USER Received : 0
%%   530 ns    Log    PASSED    in receiver_1,                   Last Received : 1
%%   570 ns    Log    INFO      in transmitter_1,                Axi Stream Send.  TData: 00000018  TStrb: 1111  TKeep: 1111  TID: 00  TDest: 0  TUser: 0  TLast: 0  Operation# 25
%%   600 ns    Log    INFO      in transmitter_1,                Axi Stream Send.  TData: 00000019  TStrb: 1111  TKeep: 1111  TID: 00  TDest: 0  TUser: 0  TLast: 0  Operation# 26
%%   630 ns    Log    INFO      in transmitter_1,                Axi Stream Send.  TData: 0000001A  TStrb: 1111  TKeep: 1111  TID: 00  TDest: 0  TUser: 0  TLast: 0  Operation# 27
%%   660 ns    Log    INFO      in transmitter_1,                Axi Stream Send.  TData: 0000001B  TStrb: 1111  TKeep: 1111  TID: 00  TDest: 0  TUser: 0  TLast: 0  Operation# 28
%%   690 ns    Log    INFO      in transmitter_1,                Axi Stream Send.  TData: 0000001C  TStrb: 1111  TKeep: 1111  TID: 00  TDest: 0  TUser: 0  TLast: 0  Operation# 29
%%   720 ns    Log    INFO      in transmitter_1,                Axi Stream Send.  TData: 0000001D  TStrb: 1111  TKeep: 1111  TID: 00  TDest: 0  TUser: 0  TLast: 0  Operation# 30
%%   750 ns    Log    INFO      in transmitter_1,                Axi Stream Send.  TData: 0000001E  TStrb: 1111  TKeep: 1111  TID: 00  TDest: 0  TUser: 0  TLast: 0  Operation# 31
%%   780 ns    Log    INFO      in transmitter_1,                Axi Stream Send.  TData: 0000001F  TStrb: 1111  TKeep: 1111  TID: 00  TDest: 0  TUser: 0  TLast: 1  Operation# 32
%%   790 ns    Log    PASSED    in receiver_1: RxBurstFifo,      Received: 00000018   Item Number: 25
%%   790 ns    Log    PASSED    in receiver_1: RxBurstFifo,      Received: 00000019   Item Number: 26
%%   790 ns    Log    PASSED    in receiver_1: RxBurstFifo,      Received: 0000001A   Item Number: 27
%%   790 ns    Log    PASSED    in receiver_1: RxBurstFifo,      Received: 0000001B   Item Number: 28
%%   790 ns    Log    PASSED    in receiver_1: RxBurstFifo,      Received: 0000001C   Item Number: 29
%%   790 ns    Log    PASSED    in receiver_1: RxBurstFifo,      Received: 0000001D   Item Number: 30
%%   790 ns    Log    PASSED    in receiver_1: RxBurstFifo,      Received: 0000001E   Item Number: 31
%%   790 ns    Log    PASSED    in receiver_1: RxBurstFifo,      Received: 0000001F   Item Number: 32
%%   790 ns    Log    INFO      in receiver_1,                   Burst Check.  Operation# 4  Last Data: 0000001F  TID: 00  TDest: 0  TUser: 0  TLast: 1
%%   790 ns    Log    PASSED    in receiver_1,                   Burst Check WordCount Received : 8
%%   790 ns    Log    PASSED    in receiver_1,                   ID Received : 00
%%   790 ns    Log    PASSED    in receiver_1,                   DEST Received : 0
%%   790 ns    Log    PASSED    in receiver_1,                   USER Received : 0
%%   790 ns    Log    PASSED    in receiver_1,                   Last Received : 1
%%   790 ns    Log    ALWAYS    in Default,                      Valid Delay Cycles 4
%%   790 ns    Log    ALWAYS    in Default,                      Transmit 2 bursts of 8 words each
%%   850 ns    Log    INFO      in transmitter_1,                Axi Stream Send.  TData: 00000020  TStrb: 1111  TKeep: 1111  TID: 00  TDest: 0  TUser: 0  TLast: 0  Operation# 33
%%   900 ns    Log    INFO      in transmitter_1,                Axi Stream Send.  TData: 00000021  TStrb: 1111  TKeep: 1111  TID: 00  TDest: 0  TUser: 0  TLast: 0  Operation# 34
%%   950 ns    Log    INFO      in transmitter_1,                Axi Stream Send.  TData: 00000022  TStrb: 1111  TKeep: 1111  TID: 00  TDest: 0  TUser: 0  TLast: 0  Operation# 35
%%  1000 ns    Log    INFO      in transmitter_1,                Axi Stream Send.  TData: 00000023  TStrb: 1111  TKeep: 1111  TID: 00  TDest: 0  TUser: 0  TLast: 0  Operation# 36
%%  1050 ns    Log    INFO      in transmitter_1,                Axi Stream Send.  TData: 00000024  TStrb: 1111  TKeep: 1111  TID: 00  TDest: 0  TUser: 0  TLast: 0  Operation# 37
%%  1100 ns    Log    INFO      in transmitter_1,                Axi Stream Send.  TData: 00000025  TStrb: 1111  TKeep: 1111  TID: 00  TDest: 0  TUser: 0  TLast: 0  Operation# 38
%%  1150 ns    Log    INFO      in transmitter_1,                Axi Stream Send.  TData: 00000026  TStrb: 1111  TKeep: 1111  TID: 00  TDest: 0  TUser: 0  TLast: 0  Operation# 39
%%  1200 ns    Log    INFO      in transmitter_1,                Axi Stream Send.  TData: 00000027  TStrb: 1111  TKeep: 1111  TID: 00  TDest: 0  TUser: 0  TLast: 1  Operation# 40
%%  1210 ns    Log    PASSED    in receiver_1: RxBurstFifo,      Received: 00000020   Item Number: 33
%%  1210 ns    Log    PASSED    in receiver_1: RxBurstFifo,      Received: 00000021   Item Number: 34
%%  1210 ns    Log    PASSED    in receiver_1: RxBurstFifo,      Received: 00000022   Item Number: 35
%%  1210 ns    Log    PASSED    in receiver_1: RxBurstFifo,      Received: 00000023   Item Number: 36
%%  1210 ns    Log    PASSED    in receiver_1: RxBurstFifo,      Received: 00000024   Item Number: 37
%%  1210 ns    Log    PASSED    in receiver_1: RxBurstFifo,      Received: 00000025   Item Number: 38
%%  1210 ns    Log    PASSED    in receiver_1: RxBurstFifo,      Received: 00000026   Item Number: 39
%%  1210 ns    Log    PASSED    in receiver_1: RxBurstFifo,      Received: 00000027   Item Number: 40
%%  1210 ns    Log    INFO      in receiver_1,                   Burst Check.  Operation# 5  Last Data: 00000027  TID: 00  TDest: 0  TUser: 0  TLast: 1
%%  1210 ns    Log    PASSED    in receiver_1,                   Burst Check WordCount Received : 8
%%  1210 ns    Log    PASSED    in receiver_1,                   ID Received : 00
%%  1210 ns    Log    PASSED    in receiver_1,                   DEST Received : 0
%%  1210 ns    Log    PASSED    in receiver_1,                   USER Received : 0
%%  1210 ns    Log    PASSED    in receiver_1,                   Last Received : 1
%%  1270 ns    Log    INFO      in transmitter_1,                Axi Stream Send.  TData: 00000028  TStrb: 1111  TKeep: 1111  TID: 00  TDest: 0  TUser: 0  TLast: 0  Operation# 41
%%  1320 ns    Log    INFO      in transmitter_1,                Axi Stream Send.  TData: 00000029  TStrb: 1111  TKeep: 1111  TID: 00  TDest: 0  TUser: 0  TLast: 0  Operation# 42
%%  1370 ns    Log    INFO      in transmitter_1,                Axi Stream Send.  TData: 0000002A  TStrb: 1111  TKeep: 1111  TID: 00  TDest: 0  TUser: 0  TLast: 0  Operation# 43
%%  1420 ns    Log    INFO      in transmitter_1,                Axi Stream Send.  TData: 0000002B  TStrb: 1111  TKeep: 1111  TID: 00  TDest: 0  TUser: 0  TLast: 0  Operation# 44
%%  1470 ns    Log    INFO      in transmitter_1,                Axi Stream Send.  TData: 0000002C  TStrb: 1111  TKeep: 1111  TID: 00  TDest: 0  TUser: 0  TLast: 0  Operation# 45
%%  1520 ns    Log    INFO      in transmitter_1,                Axi Stream Send.  TData: 0000002D  TStrb: 1111  TKeep: 1111  TID: 00  TDest: 0  TUser: 0  TLast: 0  Operation# 46
%%  1570 ns    Log    INFO      in transmitter_1,                Axi Stream Send.  TData: 0000002E  TStrb: 1111  TKeep: 1111  TID: 00  TDest: 0  TUser: 0  TLast: 0  Operation# 47
%%  1620 ns    Log    INFO      in transmitter_1,                Axi Stream Send.  TData: 0000002F  TStrb: 1111  TKeep: 1111  TID: 00  TDest: 0  TUser: 0  TLast: 1  Operation# 48
%%  1630 ns    Log    PASSED    in receiver_1: RxBurstFifo,      Received: 00000028   Item Number: 41
%%  1630 ns    Log    PASSED    in receiver_1: RxBurstFifo,      Received: 00000029   Item Number: 42
%%  1630 ns    Log    PASSED    in receiver_1: RxBurstFifo,      Received: 0000002A   Item Number: 43
%%  1630 ns    Log    PASSED    in receiver_1: RxBurstFifo,      Received: 0000002B   Item Number: 44
%%  1630 ns    Log    PASSED    in receiver_1: RxBurstFifo,      Received: 0000002C   Item Number: 45
%%  1630 ns    Log    PASSED    in receiver_1: RxBurstFifo,      Received: 0000002D   Item Number: 46
%%  1630 ns    Log    PASSED    in receiver_1: RxBurstFifo,      Received: 0000002E   Item Number: 47
%%  1630 ns    Log    PASSED    in receiver_1: RxBurstFifo,      Received: 0000002F   Item Number: 48
%%  1630 ns    Log    INFO      in receiver_1,                   Burst Check.  Operation# 6  Last Data: 0000002F  TID: 00  TDest: 0  TUser: 0  TLast: 1
%%  1630 ns    Log    PASSED    in receiver_1,                   Burst Check WordCount Received : 8
%%  1630 ns    Log    PASSED    in receiver_1,                   ID Received : 00
%%  1630 ns    Log    PASSED    in receiver_1,                   DEST Received : 0
%%  1630 ns    Log    PASSED    in receiver_1,                   USER Received : 0
%%  1630 ns    Log    PASSED    in receiver_1,                   Last Received : 1
%%  1630 ns    Log    ALWAYS    in Default,                      Valid Delay Cycles 0
%%  1630 ns    Log    ALWAYS    in Default,                      Transmit 2 bursts of 8 words each
%%  1650 ns    Log    INFO      in transmitter_1,                Axi Stream Send.  TData: 00000030  TStrb: 1111  TKeep: 1111  TID: 00  TDest: 0  TUser: 0  TLast: 0  Operation# 49
%%  1660 ns    Log    INFO      in transmitter_1,                Axi Stream Send.  TData: 00000031  TStrb: 1111  TKeep: 1111  TID: 00  TDest: 0  TUser: 0  TLast: 0  Operation# 50
%%  1670 ns    Log    INFO      in transmitter_1,                Axi Stream Send.  TData: 00000032  TStrb: 1111  TKeep: 1111  TID: 00  TDest: 0  TUser: 0  TLast: 0  Operation# 51
%%  1680 ns    Log    INFO      in transmitter_1,                Axi Stream Send.  TData: 00000033  TStrb: 1111  TKeep: 1111  TID: 00  TDest: 0  TUser: 0  TLast: 0  Operation# 52
%%  1690 ns    Log    INFO      in transmitter_1,                Axi Stream Send.  TData: 00000034  TStrb: 1111  TKeep: 1111  TID: 00  TDest: 0  TUser: 0  TLast: 0  Operation# 53
%%  1700 ns    Log    INFO      in transmitter_1,                Axi Stream Send.  TData: 00000035  TStrb: 1111  TKeep: 1111  TID: 00  TDest: 0  TUser: 0  TLast: 0  Operation# 54
%%  1710 ns    Log    INFO      in transmitter_1,                Axi Stream Send.  TData: 00000036  TStrb: 1111  TKeep: 1111  TID: 00  TDest: 0  TUser: 0  TLast: 0  Operation# 55
%%  1720 ns    Log    INFO      in transmitter_1,                Axi Stream Send.  TData: 00000037  TStrb: 1111  TKeep: 1111  TID: 00  TDest: 0  TUser: 0  TLast: 1  Operation# 56
%%  1730 ns    Log    PASSED    in receiver_1: RxBurstFifo,      Received: 00000030   Item Number: 49
%%  1730 ns    Log    PASSED    in receiver_1: RxBurstFifo,      Received: 00000031   Item Number: 50
%%  1730 ns    Log    PASSED    in receiver_1: RxBurstFifo,      Received: 00000032   Item Number: 51
%%  1730 ns    Log    PASSED    in receiver_1: RxBurstFifo,      Received: 00000033   Item Number: 52
%%  1730 ns    Log    PASSED    in receiver_1: RxBurstFifo,      Received: 00000034   Item Number: 53
%%  1730 ns    Log    PASSED    in receiver_1: RxBurstFifo,      Received: 00000035   Item Number: 54
%%  1730 ns    Log    PASSED    in receiver_1: RxBurstFifo,      Received: 00000036   Item Number: 55
%%  1730 ns    Log    PASSED    in receiver_1: RxBurstFifo,      Received: 00000037   Item Number: 56
%%  1730 ns    Log    INFO      in receiver_1,                   Burst Check.  Operation# 7  Last Data: 00000037  TID: 00  TDest: 0  TUser: 0  TLast: 1
%%  1730 ns    Log    PASSED    in receiver_1,                   Burst Check WordCount Received : 8
%%  1730 ns    Log    PASSED    in receiver_1,                   ID Received : 00
%%  1730 ns    Log    PASSED    in receiver_1,                   DEST Received : 0
%%  1730 ns    Log    PASSED    in receiver_1,                   USER Received : 0
%%  1730 ns    Log    PASSED    in receiver_1,                   Last Received : 1
%%  1750 ns    Log    INFO      in transmitter_1,                Axi Stream Send.  TData: 00000038  TStrb: 1111  TKeep: 1111  TID: 00  TDest: 0  TUser: 0  TLast: 0  Operation# 57
%%  1760 ns    Log    INFO      in transmitter_1,                Axi Stream Send.  TData: 00000039  TStrb: 1111  TKeep: 1111  TID: 00  TDest: 0  TUser: 0  TLast: 0  Operation# 58
%%  1770 ns    Log    INFO      in transmitter_1,                Axi Stream Send.  TData: 0000003A  TStrb: 1111  TKeep: 1111  TID: 00  TDest: 0  TUser: 0  TLast: 0  Operation# 59
%%  1780 ns    Log    INFO      in transmitter_1,                Axi Stream Send.  TData: 0000003B  TStrb: 1111  TKeep: 1111  TID: 00  TDest: 0  TUser: 0  TLast: 0  Operation# 60
%%  1790 ns    Log    INFO      in transmitter_1,                Axi Stream Send.  TData: 0000003C  TStrb: 1111  TKeep: 1111  TID: 00  TDest: 0  TUser: 0  TLast: 0  Operation# 61
%%  1800 ns    Log    INFO      in transmitter_1,                Axi Stream Send.  TData: 0000003D  TStrb: 1111  TKeep: 1111  TID: 00  TDest: 0  TUser: 0  TLast: 0  Operation# 62
%%  1810 ns    Log    INFO      in transmitter_1,                Axi Stream Send.  TData: 0000003E  TStrb: 1111  TKeep: 1111  TID: 00  TDest: 0  TUser: 0  TLast: 0  Operation# 63
%%  1820 ns    Log    INFO      in transmitter_1,                Axi Stream Send.  TData: 0000003F  TStrb: 1111  TKeep: 1111  TID: 00  TDest: 0  TUser: 0  TLast: 1  Operation# 64
%%  1830 ns    Log    PASSED    in receiver_1: RxBurstFifo,      Received: 00000038   Item Number: 57
%%  1830 ns    Log    PASSED    in receiver_1: RxBurstFifo,      Received: 00000039   Item Number: 58
%%  1830 ns    Log    PASSED    in receiver_1: RxBurstFifo,      Received: 0000003A   Item Number: 59
%%  1830 ns    Log    PASSED    in receiver_1: RxBurstFifo,      Received: 0000003B   Item Number: 60
%%  1830 ns    Log    PASSED    in receiver_1: RxBurstFifo,      Received: 0000003C   Item Number: 61
%%  1830 ns    Log    PASSED    in receiver_1: RxBurstFifo,      Received: 0000003D   Item Number: 62
%%  1830 ns    Log    PASSED    in receiver_1: RxBurstFifo,      Received: 0000003E   Item Number: 63
%%  1830 ns    Log    PASSED    in receiver_1: RxBurstFifo,      Received: 0000003F   Item Number: 64
%%  1830 ns    Log    INFO      in receiver_1,                   Burst Check.  Operation# 8  Last Data: 0000003F  TID: 00  TDest: 0  TUser: 0  TLast: 1
%%  1830 ns    Log    PASSED    in receiver_1,                   Burst Check WordCount Received : 8
%%  1830 ns    Log    PASSED    in receiver_1,                   ID Received : 00
%%  1830 ns    Log    PASSED    in receiver_1,                   DEST Received : 0
%%  1830 ns    Log    PASSED    in receiver_1,                   USER Received : 0
%%  1830 ns    Log    PASSED    in receiver_1,                   Last Received : 1
