%%     30 ns    Log    ALWAYS    in Default,                      Send 256 words with each byte incrementing
%%    110 ns    Log    ALWAYS    in Default,                      Send 256 words with each byte incrementing
%%    110 ns    Log    INFO      in transmitter_1,                Axi Stream Send.  TData: 07060504  TStrb: 1111  TKeep: 1111  TID: 00  TDest: 0  TUser: 0  TLast: 0  Operation# 1
%%    120 ns    Log    INFO      in receiver_1,                   Word Receive.  Operation# 1  Data: 07060504  TID: 00  TDest: 0  TUser: 0  TLast: 0
%%    120 ns    Log    PASSED    in Default,                      Receive TranasctionCount: Received : 1
%%    120 ns    Log    PASSED    in Default,                      Get:  Received : 07060504
%%    120 ns    Log    PASSED    in Default,                      Transmit TransactionCount: Received : 1
%%    120 ns    Log    PASSED    in Default,                      Receiver, GetAlertLogID/GetAlertCount: Verify that ErrorCount is 0 Received : 0
%%    120 ns    Log    PASSED    in Default,                      Transmitter, GetAlertLogID/GetAlertCount: Verify that ErrorCount is 0 Received : 0
%%    120 ns    Log    INFO      in transmitter_1,                Axi Stream Send.  TData: 0B0A0908  TStrb: 1111  TKeep: 1111  TID: 00  TDest: 0  TUser: 0  TLast: 0  Operation# 2
%%    130 ns    Log    PASSED    in receiver_1: Data Check,       Operation# 2  Received.  Data: 0B0A0908  TID: 00  TDest: 0  TUser: 0  TLast: 0
%%    130 ns    Log    PASSED    in Default,                      Receive TranasctionCount: Received : 2
%%    130 ns    Log    PASSED    in Default,                      Transmit TransactionCount: Received : 2
%%    130 ns    Log    PASSED    in Default,                      Receiver, GetErrorCount: Verify that ErrorCount is 0 Received : 0
%%    130 ns    Log    PASSED    in Default,                      Transmitter, GetErrorCount: Verify that ErrorCount is 0 Received : 0
%%    130 ns    Log    INFO      in transmitter_1,                Axi Stream Send.  TData: 0F0E0D0C  TStrb: 1111  TKeep: 1111  TID: 00  TDest: 0  TUser: 0  TLast: 0  Operation# 3
%%    140 ns    Log    INFO      in receiver_1,                   Word Receive.  Operation# 3  Data: 0F0E0D0C  TID: 00  TDest: 0  TUser: 0  TLast: 0
%%    140 ns    Log    PASSED    in Default,                      Receive TranasctionCount: Received : 3
%%    140 ns    Log    PASSED    in Default,                      Get:  Received : 0F0E0D0C
%%    140 ns    Log    PASSED    in Default,                      Transmit TransactionCount: Received : 3
%%    140 ns    Log    PASSED    in Default,                      Receiver, GetAlertLogID/GetAlertCount: Verify that ErrorCount is 0 Received : 0
%%    140 ns    Log    PASSED    in Default,                      Transmitter, GetAlertLogID/GetAlertCount: Verify that ErrorCount is 0 Received : 0
%%    140 ns    Log    INFO      in transmitter_1,                Axi Stream Send.  TData: 13121110  TStrb: 1111  TKeep: 1111  TID: 00  TDest: 0  TUser: 0  TLast: 0  Operation# 4
%%    150 ns    Log    PASSED    in receiver_1: Data Check,       Operation# 4  Received.  Data: 13121110  TID: 00  TDest: 0  TUser: 0  TLast: 0
%%    150 ns    Log    PASSED    in Default,                      Receive TranasctionCount: Received : 4
%%    150 ns    Log    PASSED    in Default,                      Transmit TransactionCount: Received : 4
%%    150 ns    Log    PASSED    in Default,                      Receiver, GetErrorCount: Verify that ErrorCount is 0 Received : 0
%%    150 ns    Log    PASSED    in Default,                      Transmitter, GetErrorCount: Verify that ErrorCount is 0 Received : 0
%%    150 ns    Log    INFO      in transmitter_1,                Axi Stream Send.  TData: 17161514  TStrb: 1111  TKeep: 1111  TID: 00  TDest: 0  TUser: 0  TLast: 0  Operation# 5
%%    160 ns    Log    INFO      in receiver_1,                   Word Receive.  Operation# 5  Data: 17161514  TID: 00  TDest: 0  TUser: 0  TLast: 0
%%    160 ns    Log    PASSED    in Default,                      Receive TranasctionCount: Received : 5
%%    160 ns    Log    PASSED    in Default,                      Get:  Received : 17161514
%%    160 ns    Log    PASSED    in Default,                      Transmit TransactionCount: Received : 5
%%    160 ns    Log    PASSED    in Default,                      Receiver, GetAlertLogID/GetAlertCount: Verify that ErrorCount is 0 Received : 0
%%    160 ns    Log    PASSED    in Default,                      Transmitter, GetAlertLogID/GetAlertCount: Verify that ErrorCount is 0 Received : 0
%%    160 ns    Log    INFO      in transmitter_1,                Axi Stream Send.  TData: 1B1A1918  TStrb: 1111  TKeep: 1111  TID: 00  TDest: 0  TUser: 0  TLast: 0  Operation# 6
%%    170 ns    Log    PASSED    in receiver_1: Data Check,       Operation# 6  Received.  Data: 1B1A1918  TID: 00  TDest: 0  TUser: 0  TLast: 0
%%    170 ns    Log    PASSED    in Default,                      Receive TranasctionCount: Received : 6
%%    170 ns    Log    PASSED    in Default,                      Transmit TransactionCount: Received : 6
%%    170 ns    Log    PASSED    in Default,                      Receiver, GetErrorCount: Verify that ErrorCount is 0 Received : 0
%%    170 ns    Log    PASSED    in Default,                      Transmitter, GetErrorCount: Verify that ErrorCount is 0 Received : 0
%%    170 ns    Log    INFO      in transmitter_1,                Axi Stream Send.  TData: 1F1E1D1C  TStrb: 1111  TKeep: 1111  TID: 00  TDest: 0  TUser: 0  TLast: 0  Operation# 7
%%    180 ns    Log    INFO      in receiver_1,                   Word Receive.  Operation# 7  Data: 1F1E1D1C  TID: 00  TDest: 0  TUser: 0  TLast: 0
%%    180 ns    Log    PASSED    in Default,                      Receive TranasctionCount: Received : 7
%%    180 ns    Log    PASSED    in Default,                      Get:  Received : 1F1E1D1C
%%    180 ns    Log    PASSED    in Default,                      Transmit TransactionCount: Received : 7
%%    180 ns    Log    PASSED    in Default,                      Receiver, GetAlertLogID/GetAlertCount: Verify that ErrorCount is 0 Received : 0
%%    180 ns    Log    PASSED    in Default,                      Transmitter, GetAlertLogID/GetAlertCount: Verify that ErrorCount is 0 Received : 0
%%    180 ns    Log    INFO      in transmitter_1,                Axi Stream Send.  TData: 23222120  TStrb: 1111  TKeep: 1111  TID: 00  TDest: 0  TUser: 0  TLast: 0  Operation# 8
%%    190 ns    Log    PASSED    in receiver_1: Data Check,       Operation# 8  Received.  Data: 23222120  TID: 00  TDest: 0  TUser: 0  TLast: 0
%%    190 ns    Log    PASSED    in Default,                      Receive TranasctionCount: Received : 8
%%    190 ns    Log    PASSED    in Default,                      Transmit TransactionCount: Received : 8
%%    190 ns    Log    PASSED    in Default,                      Receiver, GetErrorCount: Verify that ErrorCount is 0 Received : 0
%%    190 ns    Log    PASSED    in Default,                      Transmitter, GetErrorCount: Verify that ErrorCount is 0 Received : 0
%%    190 ns    Log    INFO      in transmitter_1,                Axi Stream Send.  TData: 27262524  TStrb: 1111  TKeep: 1111  TID: 00  TDest: 0  TUser: 0  TLast: 0  Operation# 9
%%    200 ns    Log    INFO      in receiver_1,                   Word Receive.  Operation# 9  Data: 27262524  TID: 00  TDest: 0  TUser: 0  TLast: 0
%%    200 ns    Log    PASSED    in Default,                      Receive TranasctionCount: Received : 9
%%    200 ns    Log    PASSED    in Default,                      Get:  Received : 27262524
%%    200 ns    Log    PASSED    in Default,                      Transmit TransactionCount: Received : 9
%%    200 ns    Log    PASSED    in Default,                      Receiver, GetAlertLogID/GetAlertCount: Verify that ErrorCount is 0 Received : 0
%%    200 ns    Log    PASSED    in Default,                      Transmitter, GetAlertLogID/GetAlertCount: Verify that ErrorCount is 0 Received : 0
%%    200 ns    Log    INFO      in transmitter_1,                Axi Stream Send.  TData: 2B2A2928  TStrb: 1111  TKeep: 1111  TID: 00  TDest: 0  TUser: 0  TLast: 0  Operation# 10
%%    210 ns    Log    PASSED    in receiver_1: Data Check,       Operation# 10  Received.  Data: 2B2A2928  TID: 00  TDest: 0  TUser: 0  TLast: 0
%%    210 ns    Log    PASSED    in Default,                      Receive TranasctionCount: Received : 10
%%    210 ns    Log    PASSED    in Default,                      Transmit TransactionCount: Received : 10
%%    210 ns    Log    PASSED    in Default,                      Receiver, GetErrorCount: Verify that ErrorCount is 0 Received : 0
%%    210 ns    Log    PASSED    in Default,                      Transmitter, GetErrorCount: Verify that ErrorCount is 0 Received : 0
%%    210 ns    Log    INFO      in transmitter_1,                Axi Stream Send.  TData: 2F2E2D2C  TStrb: 1111  TKeep: 1111  TID: 00  TDest: 0  TUser: 0  TLast: 0  Operation# 11
%%    220 ns    Log    INFO      in receiver_1,                   Word Receive.  Operation# 11  Data: 2F2E2D2C  TID: 00  TDest: 0  TUser: 0  TLast: 0
%%    220 ns    Log    PASSED    in Default,                      Receive TranasctionCount: Received : 11
%%    220 ns    Log    PASSED    in Default,                      Get:  Received : 2F2E2D2C
%%    220 ns    Log    PASSED    in Default,                      Transmit TransactionCount: Received : 11
%%    220 ns    Log    PASSED    in Default,                      Receiver, GetAlertLogID/GetAlertCount: Verify that ErrorCount is 0 Received : 0
%%    220 ns    Log    PASSED    in Default,                      Transmitter, GetAlertLogID/GetAlertCount: Verify that ErrorCount is 0 Received : 0
%%    220 ns    Log    INFO      in transmitter_1,                Axi Stream Send.  TData: 33323130  TStrb: 1111  TKeep: 1111  TID: 00  TDest: 0  TUser: 0  TLast: 0  Operation# 12
%%    230 ns    Log    PASSED    in receiver_1: Data Check,       Operation# 12  Received.  Data: 33323130  TID: 00  TDest: 0  TUser: 0  TLast: 0
%%    230 ns    Log    PASSED    in Default,                      Receive TranasctionCount: Received : 12
%%    230 ns    Log    PASSED    in Default,                      Transmit TransactionCount: Received : 12
%%    230 ns    Log    PASSED    in Default,                      Receiver, GetErrorCount: Verify that ErrorCount is 0 Received : 0
%%    230 ns    Log    PASSED    in Default,                      Transmitter, GetErrorCount: Verify that ErrorCount is 0 Received : 0
%%    230 ns    Log    INFO      in transmitter_1,                Axi Stream Send.  TData: 37363534  TStrb: 1111  TKeep: 1111  TID: 00  TDest: 0  TUser: 0  TLast: 0  Operation# 13
%%    240 ns    Log    INFO      in receiver_1,                   Word Receive.  Operation# 13  Data: 37363534  TID: 00  TDest: 0  TUser: 0  TLast: 0
%%    240 ns    Log    PASSED    in Default,                      Receive TranasctionCount: Received : 13
%%    240 ns    Log    PASSED    in Default,                      Get:  Received : 37363534
%%    240 ns    Log    PASSED    in Default,                      Transmit TransactionCount: Received : 13
%%    240 ns    Log    PASSED    in Default,                      Receiver, GetAlertLogID/GetAlertCount: Verify that ErrorCount is 0 Received : 0
%%    240 ns    Log    PASSED    in Default,                      Transmitter, GetAlertLogID/GetAlertCount: Verify that ErrorCount is 0 Received : 0
%%    240 ns    Log    INFO      in transmitter_1,                Axi Stream Send.  TData: 3B3A3938  TStrb: 1111  TKeep: 1111  TID: 00  TDest: 0  TUser: 0  TLast: 0  Operation# 14
%%    250 ns    Log    PASSED    in receiver_1: Data Check,       Operation# 14  Received.  Data: 3B3A3938  TID: 00  TDest: 0  TUser: 0  TLast: 0
%%    250 ns    Log    PASSED    in Default,                      Receive TranasctionCount: Received : 14
%%    250 ns    Log    PASSED    in Default,                      Transmit TransactionCount: Received : 14
%%    250 ns    Log    PASSED    in Default,                      Receiver, GetErrorCount: Verify that ErrorCount is 0 Received : 0
%%    250 ns    Log    PASSED    in Default,                      Transmitter, GetErrorCount: Verify that ErrorCount is 0 Received : 0
%%    250 ns    Log    INFO      in transmitter_1,                Axi Stream Send.  TData: 3F3E3D3C  TStrb: 1111  TKeep: 1111  TID: 00  TDest: 0  TUser: 0  TLast: 0  Operation# 15
%%    260 ns    Log    INFO      in receiver_1,                   Word Receive.  Operation# 15  Data: 3F3E3D3C  TID: 00  TDest: 0  TUser: 0  TLast: 0
%%    260 ns    Log    PASSED    in Default,                      Receive TranasctionCount: Received : 15
%%    260 ns    Log    PASSED    in Default,                      Get:  Received : 3F3E3D3C
%%    260 ns    Log    PASSED    in Default,                      Transmit TransactionCount: Received : 15
%%    260 ns    Log    PASSED    in Default,                      Receiver, GetAlertLogID/GetAlertCount: Verify that ErrorCount is 0 Received : 0
%%    260 ns    Log    PASSED    in Default,                      Transmitter, GetAlertLogID/GetAlertCount: Verify that ErrorCount is 0 Received : 0
%%    260 ns    Log    INFO      in transmitter_1,                Axi Stream Send.  TData: 43424140  TStrb: 1111  TKeep: 1111  TID: 00  TDest: 0  TUser: 0  TLast: 0  Operation# 16
%%    270 ns    Log    PASSED    in receiver_1: Data Check,       Operation# 16  Received.  Data: 43424140  TID: 00  TDest: 0  TUser: 0  TLast: 0
%%    270 ns    Log    PASSED    in Default,                      Receive TranasctionCount: Received : 16
%%    270 ns    Log    PASSED    in Default,                      Transmit TransactionCount: Received : 16
%%    270 ns    Log    PASSED    in Default,                      Receiver, GetErrorCount: Verify that ErrorCount is 0 Received : 0
%%    270 ns    Log    PASSED    in Default,                      Transmitter, GetErrorCount: Verify that ErrorCount is 0 Received : 0
%%    270 ns    Log    INFO      in transmitter_1,                Axi Stream Send.  TData: 47464544  TStrb: 1111  TKeep: 1111  TID: 00  TDest: 0  TUser: 0  TLast: 0  Operation# 17
%%    280 ns    Log    INFO      in receiver_1,                   Word Receive.  Operation# 17  Data: 47464544  TID: 00  TDest: 0  TUser: 0  TLast: 0
%%    280 ns    Log    PASSED    in Default,                      Receive TranasctionCount: Received : 17
%%    280 ns    Log    PASSED    in Default,                      Get:  Received : 47464544
%%    280 ns    Log    PASSED    in Default,                      Transmit TransactionCount: Received : 17
%%    280 ns    Log    PASSED    in Default,                      Receiver, GetAlertLogID/GetAlertCount: Verify that ErrorCount is 0 Received : 0
%%    280 ns    Log    PASSED    in Default,                      Transmitter, GetAlertLogID/GetAlertCount: Verify that ErrorCount is 0 Received : 0
%%    280 ns    Log    INFO      in transmitter_1,                Axi Stream Send.  TData: 4B4A4948  TStrb: 1111  TKeep: 1111  TID: 00  TDest: 0  TUser: 0  TLast: 0  Operation# 18
%%    290 ns    Log    PASSED    in receiver_1: Data Check,       Operation# 18  Received.  Data: 4B4A4948  TID: 00  TDest: 0  TUser: 0  TLast: 0
%%    290 ns    Log    PASSED    in Default,                      Receive TranasctionCount: Received : 18
%%    290 ns    Log    PASSED    in Default,                      Transmit TransactionCount: Received : 18
%%    290 ns    Log    PASSED    in Default,                      Receiver, GetErrorCount: Verify that ErrorCount is 0 Received : 0
%%    290 ns    Log    PASSED    in Default,                      Transmitter, GetErrorCount: Verify that ErrorCount is 0 Received : 0
%%    290 ns    Log    INFO      in transmitter_1,                Axi Stream Send.  TData: 4F4E4D4C  TStrb: 1111  TKeep: 1111  TID: 00  TDest: 0  TUser: 0  TLast: 0  Operation# 19
%%    300 ns    Log    INFO      in receiver_1,                   Word Receive.  Operation# 19  Data: 4F4E4D4C  TID: 00  TDest: 0  TUser: 0  TLast: 0
%%    300 ns    Log    PASSED    in Default,                      Receive TranasctionCount: Received : 19
%%    300 ns    Log    PASSED    in Default,                      Get:  Received : 4F4E4D4C
%%    300 ns    Log    PASSED    in Default,                      Transmit TransactionCount: Received : 19
%%    300 ns    Log    PASSED    in Default,                      Receiver, GetAlertLogID/GetAlertCount: Verify that ErrorCount is 0 Received : 0
%%    300 ns    Log    PASSED    in Default,                      Transmitter, GetAlertLogID/GetAlertCount: Verify that ErrorCount is 0 Received : 0
%%    300 ns    Log    INFO      in transmitter_1,                Axi Stream Send.  TData: 53525150  TStrb: 1111  TKeep: 1111  TID: 00  TDest: 0  TUser: 0  TLast: 0  Operation# 20
%%    310 ns    Log    PASSED    in receiver_1: Data Check,       Operation# 20  Received.  Data: 53525150  TID: 00  TDest: 0  TUser: 0  TLast: 0
%%    310 ns    Log    PASSED    in Default,                      Receive TranasctionCount: Received : 20
%%    310 ns    Log    PASSED    in Default,                      Transmit TransactionCount: Received : 20
%%    310 ns    Log    PASSED    in Default,                      Receiver, GetErrorCount: Verify that ErrorCount is 0 Received : 0
%%    310 ns    Log    PASSED    in Default,                      Transmitter, GetErrorCount: Verify that ErrorCount is 0 Received : 0
%%    310 ns    Log    INFO      in transmitter_1,                Axi Stream Send.  TData: 57565554  TStrb: 1111  TKeep: 1111  TID: 00  TDest: 0  TUser: 0  TLast: 0  Operation# 21
%%    320 ns    Log    INFO      in receiver_1,                   Word Receive.  Operation# 21  Data: 57565554  TID: 00  TDest: 0  TUser: 0  TLast: 0
%%    320 ns    Log    PASSED    in Default,                      Receive TranasctionCount: Received : 21
%%    320 ns    Log    PASSED    in Default,                      Get:  Received : 57565554
%%    320 ns    Log    PASSED    in Default,                      Transmit TransactionCount: Received : 21
%%    320 ns    Log    PASSED    in Default,                      Receiver, GetAlertLogID/GetAlertCount: Verify that ErrorCount is 0 Received : 0
%%    320 ns    Log    PASSED    in Default,                      Transmitter, GetAlertLogID/GetAlertCount: Verify that ErrorCount is 0 Received : 0
%%    320 ns    Log    INFO      in transmitter_1,                Axi Stream Send.  TData: 5B5A5958  TStrb: 1111  TKeep: 1111  TID: 00  TDest: 0  TUser: 0  TLast: 0  Operation# 22
%%    330 ns    Log    PASSED    in receiver_1: Data Check,       Operation# 22  Received.  Data: 5B5A5958  TID: 00  TDest: 0  TUser: 0  TLast: 0
%%    330 ns    Log    PASSED    in Default,                      Receive TranasctionCount: Received : 22
%%    330 ns    Log    PASSED    in Default,                      Transmit TransactionCount: Received : 22
%%    330 ns    Log    PASSED    in Default,                      Receiver, GetErrorCount: Verify that ErrorCount is 0 Received : 0
%%    330 ns    Log    PASSED    in Default,                      Transmitter, GetErrorCount: Verify that ErrorCount is 0 Received : 0
%%    330 ns    Log    INFO      in transmitter_1,                Axi Stream Send.  TData: 5F5E5D5C  TStrb: 1111  TKeep: 1111  TID: 00  TDest: 0  TUser: 0  TLast: 0  Operation# 23
%%    340 ns    Log    INFO      in receiver_1,                   Word Receive.  Operation# 23  Data: 5F5E5D5C  TID: 00  TDest: 0  TUser: 0  TLast: 0
%%    340 ns    Log    PASSED    in Default,                      Receive TranasctionCount: Received : 23
%%    340 ns    Log    PASSED    in Default,                      Get:  Received : 5F5E5D5C
%%    340 ns    Log    PASSED    in Default,                      Transmit TransactionCount: Received : 23
%%    340 ns    Log    PASSED    in Default,                      Receiver, GetAlertLogID/GetAlertCount: Verify that ErrorCount is 0 Received : 0
%%    340 ns    Log    PASSED    in Default,                      Transmitter, GetAlertLogID/GetAlertCount: Verify that ErrorCount is 0 Received : 0
%%    340 ns    Log    INFO      in transmitter_1,                Axi Stream Send.  TData: 63626160  TStrb: 1111  TKeep: 1111  TID: 00  TDest: 0  TUser: 0  TLast: 0  Operation# 24
%%    350 ns    Log    PASSED    in receiver_1: Data Check,       Operation# 24  Received.  Data: 63626160  TID: 00  TDest: 0  TUser: 0  TLast: 0
%%    350 ns    Log    PASSED    in Default,                      Receive TranasctionCount: Received : 24
%%    350 ns    Log    PASSED    in Default,                      Transmit TransactionCount: Received : 24
%%    350 ns    Log    PASSED    in Default,                      Receiver, GetErrorCount: Verify that ErrorCount is 0 Received : 0
%%    350 ns    Log    PASSED    in Default,                      Transmitter, GetErrorCount: Verify that ErrorCount is 0 Received : 0
%%    350 ns    Log    INFO      in transmitter_1,                Axi Stream Send.  TData: 67666564  TStrb: 1111  TKeep: 1111  TID: 00  TDest: 0  TUser: 0  TLast: 0  Operation# 25
%%    360 ns    Log    INFO      in receiver_1,                   Word Receive.  Operation# 25  Data: 67666564  TID: 00  TDest: 0  TUser: 0  TLast: 0
%%    360 ns    Log    PASSED    in Default,                      Receive TranasctionCount: Received : 25
%%    360 ns    Log    PASSED    in Default,                      Get:  Received : 67666564
%%    360 ns    Log    PASSED    in Default,                      Transmit TransactionCount: Received : 25
%%    360 ns    Log    PASSED    in Default,                      Receiver, GetAlertLogID/GetAlertCount: Verify that ErrorCount is 0 Received : 0
%%    360 ns    Log    PASSED    in Default,                      Transmitter, GetAlertLogID/GetAlertCount: Verify that ErrorCount is 0 Received : 0
%%    360 ns    Log    INFO      in transmitter_1,                Axi Stream Send.  TData: 6B6A6968  TStrb: 1111  TKeep: 1111  TID: 00  TDest: 0  TUser: 0  TLast: 0  Operation# 26
%%    370 ns    Log    PASSED    in receiver_1: Data Check,       Operation# 26  Received.  Data: 6B6A6968  TID: 00  TDest: 0  TUser: 0  TLast: 0
%%    370 ns    Log    PASSED    in Default,                      Receive TranasctionCount: Received : 26
%%    370 ns    Log    PASSED    in Default,                      Transmit TransactionCount: Received : 26
%%    370 ns    Log    PASSED    in Default,                      Receiver, GetErrorCount: Verify that ErrorCount is 0 Received : 0
%%    370 ns    Log    PASSED    in Default,                      Transmitter, GetErrorCount: Verify that ErrorCount is 0 Received : 0
%%    370 ns    Log    INFO      in transmitter_1,                Axi Stream Send.  TData: 6F6E6D6C  TStrb: 1111  TKeep: 1111  TID: 00  TDest: 0  TUser: 0  TLast: 0  Operation# 27
%%    380 ns    Log    INFO      in receiver_1,                   Word Receive.  Operation# 27  Data: 6F6E6D6C  TID: 00  TDest: 0  TUser: 0  TLast: 0
%%    380 ns    Log    PASSED    in Default,                      Receive TranasctionCount: Received : 27
%%    380 ns    Log    PASSED    in Default,                      Get:  Received : 6F6E6D6C
%%    380 ns    Log    PASSED    in Default,                      Transmit TransactionCount: Received : 27
%%    380 ns    Log    PASSED    in Default,                      Receiver, GetAlertLogID/GetAlertCount: Verify that ErrorCount is 0 Received : 0
%%    380 ns    Log    PASSED    in Default,                      Transmitter, GetAlertLogID/GetAlertCount: Verify that ErrorCount is 0 Received : 0
%%    380 ns    Log    INFO      in transmitter_1,                Axi Stream Send.  TData: 73727170  TStrb: 1111  TKeep: 1111  TID: 00  TDest: 0  TUser: 0  TLast: 0  Operation# 28
%%    390 ns    Log    PASSED    in receiver_1: Data Check,       Operation# 28  Received.  Data: 73727170  TID: 00  TDest: 0  TUser: 0  TLast: 0
%%    390 ns    Log    PASSED    in Default,                      Receive TranasctionCount: Received : 28
%%    390 ns    Log    PASSED    in Default,                      Transmit TransactionCount: Received : 28
%%    390 ns    Log    PASSED    in Default,                      Receiver, GetErrorCount: Verify that ErrorCount is 0 Received : 0
%%    390 ns    Log    PASSED    in Default,                      Transmitter, GetErrorCount: Verify that ErrorCount is 0 Received : 0
%%    390 ns    Log    INFO      in transmitter_1,                Axi Stream Send.  TData: 77767574  TStrb: 1111  TKeep: 1111  TID: 00  TDest: 0  TUser: 0  TLast: 0  Operation# 29
%%    400 ns    Log    INFO      in receiver_1,                   Word Receive.  Operation# 29  Data: 77767574  TID: 00  TDest: 0  TUser: 0  TLast: 0
%%    400 ns    Log    PASSED    in Default,                      Receive TranasctionCount: Received : 29
%%    400 ns    Log    PASSED    in Default,                      Get:  Received : 77767574
%%    400 ns    Log    PASSED    in Default,                      Transmit TransactionCount: Received : 29
%%    400 ns    Log    PASSED    in Default,                      Receiver, GetAlertLogID/GetAlertCount: Verify that ErrorCount is 0 Received : 0
%%    400 ns    Log    PASSED    in Default,                      Transmitter, GetAlertLogID/GetAlertCount: Verify that ErrorCount is 0 Received : 0
%%    400 ns    Log    INFO      in transmitter_1,                Axi Stream Send.  TData: 7B7A7978  TStrb: 1111  TKeep: 1111  TID: 00  TDest: 0  TUser: 0  TLast: 0  Operation# 30
%%    410 ns    Log    PASSED    in receiver_1: Data Check,       Operation# 30  Received.  Data: 7B7A7978  TID: 00  TDest: 0  TUser: 0  TLast: 0
%%    410 ns    Log    PASSED    in Default,                      Receive TranasctionCount: Received : 30
%%    410 ns    Log    PASSED    in Default,                      Transmit TransactionCount: Received : 30
%%    410 ns    Log    PASSED    in Default,                      Receiver, GetErrorCount: Verify that ErrorCount is 0 Received : 0
%%    410 ns    Log    PASSED    in Default,                      Transmitter, GetErrorCount: Verify that ErrorCount is 0 Received : 0
%%    410 ns    Log    INFO      in transmitter_1,                Axi Stream Send.  TData: 7F7E7D7C  TStrb: 1111  TKeep: 1111  TID: 00  TDest: 0  TUser: 0  TLast: 0  Operation# 31
%%    420 ns    Log    INFO      in receiver_1,                   Word Receive.  Operation# 31  Data: 7F7E7D7C  TID: 00  TDest: 0  TUser: 0  TLast: 0
%%    420 ns    Log    PASSED    in Default,                      Receive TranasctionCount: Received : 31
%%    420 ns    Log    PASSED    in Default,                      Get:  Received : 7F7E7D7C
%%    420 ns    Log    PASSED    in Default,                      Transmit TransactionCount: Received : 31
%%    420 ns    Log    PASSED    in Default,                      Receiver, GetAlertLogID/GetAlertCount: Verify that ErrorCount is 0 Received : 0
%%    420 ns    Log    PASSED    in Default,                      Transmitter, GetAlertLogID/GetAlertCount: Verify that ErrorCount is 0 Received : 0
%%    420 ns    Log    INFO      in transmitter_1,                Axi Stream Send.  TData: 83828180  TStrb: 1111  TKeep: 1111  TID: 00  TDest: 0  TUser: 0  TLast: 0  Operation# 32
%%    430 ns    Log    PASSED    in receiver_1: Data Check,       Operation# 32  Received.  Data: 83828180  TID: 00  TDest: 0  TUser: 0  TLast: 0
%%    430 ns    Log    PASSED    in Default,                      Receive TranasctionCount: Received : 32
%%    430 ns    Log    PASSED    in Default,                      Transmit TransactionCount: Received : 32
%%    430 ns    Log    PASSED    in Default,                      Receiver, GetErrorCount: Verify that ErrorCount is 0 Received : 0
%%    430 ns    Log    PASSED    in Default,                      Transmitter, GetErrorCount: Verify that ErrorCount is 0 Received : 0
%%    430 ns    Log    PASSED    in Default,                      Receiver: WaitForTransaction executes in 0 time when using blocking transactions Received : 430 ns
%%    430 ns    Log    PASSED    in Default,                      Transmitter: WaitForTransaction executes in 0 time when using blocking transactions Received : 430 ns
%%    430 ns    Log    INFO      in transmitter_1,                Axi Stream Send.  TData: 87868584  TStrb: 1111  TKeep: 1111  TID: 00  TDest: 0  TUser: 0  TLast: 0  Operation# 33
%%    440 ns    Log    INFO      in receiver_1,                   Word Receive.  Operation# 33  Data: 87868584  TID: 00  TDest: 0  TUser: 0  TLast: 0
%%    440 ns    Log    PASSED    in Default,                      Receive TranasctionCount: Received : 33
%%    440 ns    Log    PASSED    in Default,                      Get:  Received : 87868584
%%    440 ns    Log    PASSED    in Default,                      Transmit TransactionCount: Received : 33
%%    440 ns    Log    PASSED    in Default,                      Receiver, GetAlertLogID/GetAlertCount: Verify that ErrorCount is 0 Received : 0
%%    440 ns    Log    PASSED    in Default,                      Transmitter, GetAlertLogID/GetAlertCount: Verify that ErrorCount is 0 Received : 0
%%    440 ns    Log    INFO      in transmitter_1,                Axi Stream Send.  TData: 8B8A8988  TStrb: 1111  TKeep: 1111  TID: 00  TDest: 0  TUser: 0  TLast: 0  Operation# 34
%%    450 ns    Log    PASSED    in receiver_1: Data Check,       Operation# 34  Received.  Data: 8B8A8988  TID: 00  TDest: 0  TUser: 0  TLast: 0
%%    450 ns    Log    PASSED    in Default,                      Receive TranasctionCount: Received : 34
%%    450 ns    Log    PASSED    in Default,                      Transmit TransactionCount: Received : 34
%%    450 ns    Log    PASSED    in Default,                      Receiver, GetErrorCount: Verify that ErrorCount is 0 Received : 0
%%    450 ns    Log    PASSED    in Default,                      Transmitter, GetErrorCount: Verify that ErrorCount is 0 Received : 0
%%    450 ns    Log    INFO      in transmitter_1,                Axi Stream Send.  TData: 8F8E8D8C  TStrb: 1111  TKeep: 1111  TID: 00  TDest: 0  TUser: 0  TLast: 0  Operation# 35
%%    460 ns    Log    INFO      in receiver_1,                   Word Receive.  Operation# 35  Data: 8F8E8D8C  TID: 00  TDest: 0  TUser: 0  TLast: 0
%%    460 ns    Log    PASSED    in Default,                      Receive TranasctionCount: Received : 35
%%    460 ns    Log    PASSED    in Default,                      Get:  Received : 8F8E8D8C
%%    460 ns    Log    PASSED    in Default,                      Transmit TransactionCount: Received : 35
%%    460 ns    Log    PASSED    in Default,                      Receiver, GetAlertLogID/GetAlertCount: Verify that ErrorCount is 0 Received : 0
%%    460 ns    Log    PASSED    in Default,                      Transmitter, GetAlertLogID/GetAlertCount: Verify that ErrorCount is 0 Received : 0
%%    460 ns    Log    INFO      in transmitter_1,                Axi Stream Send.  TData: 93929190  TStrb: 1111  TKeep: 1111  TID: 00  TDest: 0  TUser: 0  TLast: 0  Operation# 36
%%    470 ns    Log    PASSED    in receiver_1: Data Check,       Operation# 36  Received.  Data: 93929190  TID: 00  TDest: 0  TUser: 0  TLast: 0
%%    470 ns    Log    PASSED    in Default,                      Receive TranasctionCount: Received : 36
%%    470 ns    Log    PASSED    in Default,                      Transmit TransactionCount: Received : 36
%%    470 ns    Log    PASSED    in Default,                      Receiver, GetErrorCount: Verify that ErrorCount is 0 Received : 0
%%    470 ns    Log    PASSED    in Default,                      Transmitter, GetErrorCount: Verify that ErrorCount is 0 Received : 0
%%    470 ns    Log    INFO      in transmitter_1,                Axi Stream Send.  TData: 97969594  TStrb: 1111  TKeep: 1111  TID: 00  TDest: 0  TUser: 0  TLast: 0  Operation# 37
%%    480 ns    Log    INFO      in receiver_1,                   Word Receive.  Operation# 37  Data: 97969594  TID: 00  TDest: 0  TUser: 0  TLast: 0
%%    480 ns    Log    PASSED    in Default,                      Receive TranasctionCount: Received : 37
%%    480 ns    Log    PASSED    in Default,                      Get:  Received : 97969594
%%    480 ns    Log    PASSED    in Default,                      Transmit TransactionCount: Received : 37
%%    480 ns    Log    PASSED    in Default,                      Receiver, GetAlertLogID/GetAlertCount: Verify that ErrorCount is 0 Received : 0
%%    480 ns    Log    PASSED    in Default,                      Transmitter, GetAlertLogID/GetAlertCount: Verify that ErrorCount is 0 Received : 0
%%    480 ns    Log    INFO      in transmitter_1,                Axi Stream Send.  TData: 9B9A9998  TStrb: 1111  TKeep: 1111  TID: 00  TDest: 0  TUser: 0  TLast: 0  Operation# 38
%%    490 ns    Log    PASSED    in receiver_1: Data Check,       Operation# 38  Received.  Data: 9B9A9998  TID: 00  TDest: 0  TUser: 0  TLast: 0
%%    490 ns    Log    PASSED    in Default,                      Receive TranasctionCount: Received : 38
%%    490 ns    Log    PASSED    in Default,                      Transmit TransactionCount: Received : 38
%%    490 ns    Log    PASSED    in Default,                      Receiver, GetErrorCount: Verify that ErrorCount is 0 Received : 0
%%    490 ns    Log    PASSED    in Default,                      Transmitter, GetErrorCount: Verify that ErrorCount is 0 Received : 0
%%    490 ns    Log    INFO      in transmitter_1,                Axi Stream Send.  TData: 9F9E9D9C  TStrb: 1111  TKeep: 1111  TID: 00  TDest: 0  TUser: 0  TLast: 0  Operation# 39
%%    500 ns    Log    INFO      in receiver_1,                   Word Receive.  Operation# 39  Data: 9F9E9D9C  TID: 00  TDest: 0  TUser: 0  TLast: 0
%%    500 ns    Log    PASSED    in Default,                      Receive TranasctionCount: Received : 39
%%    500 ns    Log    PASSED    in Default,                      Get:  Received : 9F9E9D9C
%%    500 ns    Log    PASSED    in Default,                      Transmit TransactionCount: Received : 39
%%    500 ns    Log    PASSED    in Default,                      Receiver, GetAlertLogID/GetAlertCount: Verify that ErrorCount is 0 Received : 0
%%    500 ns    Log    PASSED    in Default,                      Transmitter, GetAlertLogID/GetAlertCount: Verify that ErrorCount is 0 Received : 0
%%    500 ns    Log    INFO      in transmitter_1,                Axi Stream Send.  TData: A3A2A1A0  TStrb: 1111  TKeep: 1111  TID: 00  TDest: 0  TUser: 0  TLast: 0  Operation# 40
%%    510 ns    Log    PASSED    in receiver_1: Data Check,       Operation# 40  Received.  Data: A3A2A1A0  TID: 00  TDest: 0  TUser: 0  TLast: 0
%%    510 ns    Log    PASSED    in Default,                      Receive TranasctionCount: Received : 40
%%    510 ns    Log    PASSED    in Default,                      Transmit TransactionCount: Received : 40
%%    510 ns    Log    PASSED    in Default,                      Receiver, GetErrorCount: Verify that ErrorCount is 0 Received : 0
%%    510 ns    Log    PASSED    in Default,                      Transmitter, GetErrorCount: Verify that ErrorCount is 0 Received : 0
%%    510 ns    Log    INFO      in transmitter_1,                Axi Stream Send.  TData: A7A6A5A4  TStrb: 1111  TKeep: 1111  TID: 00  TDest: 0  TUser: 0  TLast: 0  Operation# 41
%%    520 ns    Log    INFO      in receiver_1,                   Word Receive.  Operation# 41  Data: A7A6A5A4  TID: 00  TDest: 0  TUser: 0  TLast: 0
%%    520 ns    Log    PASSED    in Default,                      Receive TranasctionCount: Received : 41
%%    520 ns    Log    PASSED    in Default,                      Get:  Received : A7A6A5A4
%%    520 ns    Log    PASSED    in Default,                      Transmit TransactionCount: Received : 41
%%    520 ns    Log    PASSED    in Default,                      Receiver, GetAlertLogID/GetAlertCount: Verify that ErrorCount is 0 Received : 0
%%    520 ns    Log    PASSED    in Default,                      Transmitter, GetAlertLogID/GetAlertCount: Verify that ErrorCount is 0 Received : 0
%%    520 ns    Log    INFO      in transmitter_1,                Axi Stream Send.  TData: ABAAA9A8  TStrb: 1111  TKeep: 1111  TID: 00  TDest: 0  TUser: 0  TLast: 0  Operation# 42
%%    530 ns    Log    PASSED    in receiver_1: Data Check,       Operation# 42  Received.  Data: ABAAA9A8  TID: 00  TDest: 0  TUser: 0  TLast: 0
%%    530 ns    Log    PASSED    in Default,                      Receive TranasctionCount: Received : 42
%%    530 ns    Log    PASSED    in Default,                      Transmit TransactionCount: Received : 42
%%    530 ns    Log    PASSED    in Default,                      Receiver, GetErrorCount: Verify that ErrorCount is 0 Received : 0
%%    530 ns    Log    PASSED    in Default,                      Transmitter, GetErrorCount: Verify that ErrorCount is 0 Received : 0
%%    530 ns    Log    INFO      in transmitter_1,                Axi Stream Send.  TData: AFAEADAC  TStrb: 1111  TKeep: 1111  TID: 00  TDest: 0  TUser: 0  TLast: 0  Operation# 43
%%    540 ns    Log    INFO      in receiver_1,                   Word Receive.  Operation# 43  Data: AFAEADAC  TID: 00  TDest: 0  TUser: 0  TLast: 0
%%    540 ns    Log    PASSED    in Default,                      Receive TranasctionCount: Received : 43
%%    540 ns    Log    PASSED    in Default,                      Get:  Received : AFAEADAC
%%    540 ns    Log    PASSED    in Default,                      Transmit TransactionCount: Received : 43
%%    540 ns    Log    PASSED    in Default,                      Receiver, GetAlertLogID/GetAlertCount: Verify that ErrorCount is 0 Received : 0
%%    540 ns    Log    PASSED    in Default,                      Transmitter, GetAlertLogID/GetAlertCount: Verify that ErrorCount is 0 Received : 0
%%    540 ns    Log    INFO      in transmitter_1,                Axi Stream Send.  TData: B3B2B1B0  TStrb: 1111  TKeep: 1111  TID: 00  TDest: 0  TUser: 0  TLast: 0  Operation# 44
%%    550 ns    Log    PASSED    in receiver_1: Data Check,       Operation# 44  Received.  Data: B3B2B1B0  TID: 00  TDest: 0  TUser: 0  TLast: 0
%%    550 ns    Log    PASSED    in Default,                      Receive TranasctionCount: Received : 44
%%    550 ns    Log    PASSED    in Default,                      Transmit TransactionCount: Received : 44
%%    550 ns    Log    PASSED    in Default,                      Receiver, GetErrorCount: Verify that ErrorCount is 0 Received : 0
%%    550 ns    Log    PASSED    in Default,                      Transmitter, GetErrorCount: Verify that ErrorCount is 0 Received : 0
%%    550 ns    Log    INFO      in transmitter_1,                Axi Stream Send.  TData: B7B6B5B4  TStrb: 1111  TKeep: 1111  TID: 00  TDest: 0  TUser: 0  TLast: 0  Operation# 45
%%    560 ns    Log    INFO      in receiver_1,                   Word Receive.  Operation# 45  Data: B7B6B5B4  TID: 00  TDest: 0  TUser: 0  TLast: 0
%%    560 ns    Log    PASSED    in Default,                      Receive TranasctionCount: Received : 45
%%    560 ns    Log    PASSED    in Default,                      Get:  Received : B7B6B5B4
%%    560 ns    Log    PASSED    in Default,                      Transmit TransactionCount: Received : 45
%%    560 ns    Log    PASSED    in Default,                      Receiver, GetAlertLogID/GetAlertCount: Verify that ErrorCount is 0 Received : 0
%%    560 ns    Log    PASSED    in Default,                      Transmitter, GetAlertLogID/GetAlertCount: Verify that ErrorCount is 0 Received : 0
%%    560 ns    Log    INFO      in transmitter_1,                Axi Stream Send.  TData: BBBAB9B8  TStrb: 1111  TKeep: 1111  TID: 00  TDest: 0  TUser: 0  TLast: 0  Operation# 46
%%    570 ns    Log    PASSED    in receiver_1: Data Check,       Operation# 46  Received.  Data: BBBAB9B8  TID: 00  TDest: 0  TUser: 0  TLast: 0
%%    570 ns    Log    PASSED    in Default,                      Receive TranasctionCount: Received : 46
%%    570 ns    Log    PASSED    in Default,                      Transmit TransactionCount: Received : 46
%%    570 ns    Log    PASSED    in Default,                      Receiver, GetErrorCount: Verify that ErrorCount is 0 Received : 0
%%    570 ns    Log    PASSED    in Default,                      Transmitter, GetErrorCount: Verify that ErrorCount is 0 Received : 0
%%    570 ns    Log    INFO      in transmitter_1,                Axi Stream Send.  TData: BFBEBDBC  TStrb: 1111  TKeep: 1111  TID: 00  TDest: 0  TUser: 0  TLast: 0  Operation# 47
%%    580 ns    Log    INFO      in receiver_1,                   Word Receive.  Operation# 47  Data: BFBEBDBC  TID: 00  TDest: 0  TUser: 0  TLast: 0
%%    580 ns    Log    PASSED    in Default,                      Receive TranasctionCount: Received : 47
%%    580 ns    Log    PASSED    in Default,                      Get:  Received : BFBEBDBC
%%    580 ns    Log    PASSED    in Default,                      Transmit TransactionCount: Received : 47
%%    580 ns    Log    PASSED    in Default,                      Receiver, GetAlertLogID/GetAlertCount: Verify that ErrorCount is 0 Received : 0
%%    580 ns    Log    PASSED    in Default,                      Transmitter, GetAlertLogID/GetAlertCount: Verify that ErrorCount is 0 Received : 0
%%    580 ns    Log    INFO      in transmitter_1,                Axi Stream Send.  TData: C3C2C1C0  TStrb: 1111  TKeep: 1111  TID: 00  TDest: 0  TUser: 0  TLast: 0  Operation# 48
%%    590 ns    Log    PASSED    in receiver_1: Data Check,       Operation# 48  Received.  Data: C3C2C1C0  TID: 00  TDest: 0  TUser: 0  TLast: 0
%%    590 ns    Log    PASSED    in Default,                      Receive TranasctionCount: Received : 48
%%    590 ns    Log    PASSED    in Default,                      Transmit TransactionCount: Received : 48
%%    590 ns    Log    PASSED    in Default,                      Receiver, GetErrorCount: Verify that ErrorCount is 0 Received : 0
%%    590 ns    Log    PASSED    in Default,                      Transmitter, GetErrorCount: Verify that ErrorCount is 0 Received : 0
%%    590 ns    Log    INFO      in transmitter_1,                Axi Stream Send.  TData: C7C6C5C4  TStrb: 1111  TKeep: 1111  TID: 00  TDest: 0  TUser: 0  TLast: 0  Operation# 49
%%    600 ns    Log    INFO      in receiver_1,                   Word Receive.  Operation# 49  Data: C7C6C5C4  TID: 00  TDest: 0  TUser: 0  TLast: 0
%%    600 ns    Log    PASSED    in Default,                      Receive TranasctionCount: Received : 49
%%    600 ns    Log    PASSED    in Default,                      Get:  Received : C7C6C5C4
%%    600 ns    Log    PASSED    in Default,                      Transmit TransactionCount: Received : 49
%%    600 ns    Log    PASSED    in Default,                      Receiver, GetAlertLogID/GetAlertCount: Verify that ErrorCount is 0 Received : 0
%%    600 ns    Log    PASSED    in Default,                      Transmitter, GetAlertLogID/GetAlertCount: Verify that ErrorCount is 0 Received : 0
%%    600 ns    Log    INFO      in transmitter_1,                Axi Stream Send.  TData: CBCAC9C8  TStrb: 1111  TKeep: 1111  TID: 00  TDest: 0  TUser: 0  TLast: 0  Operation# 50
%%    610 ns    Log    PASSED    in receiver_1: Data Check,       Operation# 50  Received.  Data: CBCAC9C8  TID: 00  TDest: 0  TUser: 0  TLast: 0
%%    610 ns    Log    PASSED    in Default,                      Receive TranasctionCount: Received : 50
%%    610 ns    Log    PASSED    in Default,                      Transmit TransactionCount: Received : 50
%%    610 ns    Log    PASSED    in Default,                      Receiver, GetErrorCount: Verify that ErrorCount is 0 Received : 0
%%    610 ns    Log    PASSED    in Default,                      Transmitter, GetErrorCount: Verify that ErrorCount is 0 Received : 0
%%    610 ns    Log    INFO      in transmitter_1,                Axi Stream Send.  TData: CFCECDCC  TStrb: 1111  TKeep: 1111  TID: 00  TDest: 0  TUser: 0  TLast: 0  Operation# 51
%%    620 ns    Log    INFO      in receiver_1,                   Word Receive.  Operation# 51  Data: CFCECDCC  TID: 00  TDest: 0  TUser: 0  TLast: 0
%%    620 ns    Log    PASSED    in Default,                      Receive TranasctionCount: Received : 51
%%    620 ns    Log    PASSED    in Default,                      Get:  Received : CFCECDCC
%%    620 ns    Log    PASSED    in Default,                      Transmit TransactionCount: Received : 51
%%    620 ns    Log    PASSED    in Default,                      Receiver, GetAlertLogID/GetAlertCount: Verify that ErrorCount is 0 Received : 0
%%    620 ns    Log    PASSED    in Default,                      Transmitter, GetAlertLogID/GetAlertCount: Verify that ErrorCount is 0 Received : 0
%%    620 ns    Log    INFO      in transmitter_1,                Axi Stream Send.  TData: D3D2D1D0  TStrb: 1111  TKeep: 1111  TID: 00  TDest: 0  TUser: 0  TLast: 0  Operation# 52
%%    630 ns    Log    PASSED    in receiver_1: Data Check,       Operation# 52  Received.  Data: D3D2D1D0  TID: 00  TDest: 0  TUser: 0  TLast: 0
%%    630 ns    Log    PASSED    in Default,                      Receive TranasctionCount: Received : 52
%%    630 ns    Log    PASSED    in Default,                      Transmit TransactionCount: Received : 52
%%    630 ns    Log    PASSED    in Default,                      Receiver, GetErrorCount: Verify that ErrorCount is 0 Received : 0
%%    630 ns    Log    PASSED    in Default,                      Transmitter, GetErrorCount: Verify that ErrorCount is 0 Received : 0
%%    630 ns    Log    INFO      in transmitter_1,                Axi Stream Send.  TData: D7D6D5D4  TStrb: 1111  TKeep: 1111  TID: 00  TDest: 0  TUser: 0  TLast: 0  Operation# 53
%%    640 ns    Log    INFO      in receiver_1,                   Word Receive.  Operation# 53  Data: D7D6D5D4  TID: 00  TDest: 0  TUser: 0  TLast: 0
%%    640 ns    Log    PASSED    in Default,                      Receive TranasctionCount: Received : 53
%%    640 ns    Log    PASSED    in Default,                      Get:  Received : D7D6D5D4
%%    640 ns    Log    PASSED    in Default,                      Transmit TransactionCount: Received : 53
%%    640 ns    Log    PASSED    in Default,                      Receiver, GetAlertLogID/GetAlertCount: Verify that ErrorCount is 0 Received : 0
%%    640 ns    Log    PASSED    in Default,                      Transmitter, GetAlertLogID/GetAlertCount: Verify that ErrorCount is 0 Received : 0
%%    640 ns    Log    INFO      in transmitter_1,                Axi Stream Send.  TData: DBDAD9D8  TStrb: 1111  TKeep: 1111  TID: 00  TDest: 0  TUser: 0  TLast: 0  Operation# 54
%%    650 ns    Log    PASSED    in receiver_1: Data Check,       Operation# 54  Received.  Data: DBDAD9D8  TID: 00  TDest: 0  TUser: 0  TLast: 0
%%    650 ns    Log    PASSED    in Default,                      Receive TranasctionCount: Received : 54
%%    650 ns    Log    PASSED    in Default,                      Transmit TransactionCount: Received : 54
%%    650 ns    Log    PASSED    in Default,                      Receiver, GetErrorCount: Verify that ErrorCount is 0 Received : 0
%%    650 ns    Log    PASSED    in Default,                      Transmitter, GetErrorCount: Verify that ErrorCount is 0 Received : 0
%%    650 ns    Log    INFO      in transmitter_1,                Axi Stream Send.  TData: DFDEDDDC  TStrb: 1111  TKeep: 1111  TID: 00  TDest: 0  TUser: 0  TLast: 0  Operation# 55
%%    660 ns    Log    INFO      in receiver_1,                   Word Receive.  Operation# 55  Data: DFDEDDDC  TID: 00  TDest: 0  TUser: 0  TLast: 0
%%    660 ns    Log    PASSED    in Default,                      Receive TranasctionCount: Received : 55
%%    660 ns    Log    PASSED    in Default,                      Get:  Received : DFDEDDDC
%%    660 ns    Log    PASSED    in Default,                      Transmit TransactionCount: Received : 55
%%    660 ns    Log    PASSED    in Default,                      Receiver, GetAlertLogID/GetAlertCount: Verify that ErrorCount is 0 Received : 0
%%    660 ns    Log    PASSED    in Default,                      Transmitter, GetAlertLogID/GetAlertCount: Verify that ErrorCount is 0 Received : 0
%%    660 ns    Log    INFO      in transmitter_1,                Axi Stream Send.  TData: E3E2E1E0  TStrb: 1111  TKeep: 1111  TID: 00  TDest: 0  TUser: 0  TLast: 0  Operation# 56
%%    670 ns    Log    PASSED    in receiver_1: Data Check,       Operation# 56  Received.  Data: E3E2E1E0  TID: 00  TDest: 0  TUser: 0  TLast: 0
%%    670 ns    Log    PASSED    in Default,                      Receive TranasctionCount: Received : 56
%%    670 ns    Log    PASSED    in Default,                      Transmit TransactionCount: Received : 56
%%    670 ns    Log    PASSED    in Default,                      Receiver, GetErrorCount: Verify that ErrorCount is 0 Received : 0
%%    670 ns    Log    PASSED    in Default,                      Transmitter, GetErrorCount: Verify that ErrorCount is 0 Received : 0
%%    670 ns    Log    INFO      in transmitter_1,                Axi Stream Send.  TData: E7E6E5E4  TStrb: 1111  TKeep: 1111  TID: 00  TDest: 0  TUser: 0  TLast: 0  Operation# 57
%%    680 ns    Log    INFO      in receiver_1,                   Word Receive.  Operation# 57  Data: E7E6E5E4  TID: 00  TDest: 0  TUser: 0  TLast: 0
%%    680 ns    Log    PASSED    in Default,                      Receive TranasctionCount: Received : 57
%%    680 ns    Log    PASSED    in Default,                      Get:  Received : E7E6E5E4
%%    680 ns    Log    PASSED    in Default,                      Transmit TransactionCount: Received : 57
%%    680 ns    Log    PASSED    in Default,                      Receiver, GetAlertLogID/GetAlertCount: Verify that ErrorCount is 0 Received : 0
%%    680 ns    Log    PASSED    in Default,                      Transmitter, GetAlertLogID/GetAlertCount: Verify that ErrorCount is 0 Received : 0
%%    680 ns    Log    INFO      in transmitter_1,                Axi Stream Send.  TData: EBEAE9E8  TStrb: 1111  TKeep: 1111  TID: 00  TDest: 0  TUser: 0  TLast: 0  Operation# 58
%%    690 ns    Log    PASSED    in receiver_1: Data Check,       Operation# 58  Received.  Data: EBEAE9E8  TID: 00  TDest: 0  TUser: 0  TLast: 0
%%    690 ns    Log    PASSED    in Default,                      Receive TranasctionCount: Received : 58
%%    690 ns    Log    PASSED    in Default,                      Transmit TransactionCount: Received : 58
%%    690 ns    Log    PASSED    in Default,                      Receiver, GetErrorCount: Verify that ErrorCount is 0 Received : 0
%%    690 ns    Log    PASSED    in Default,                      Transmitter, GetErrorCount: Verify that ErrorCount is 0 Received : 0
%%    690 ns    Log    INFO      in transmitter_1,                Axi Stream Send.  TData: EFEEEDEC  TStrb: 1111  TKeep: 1111  TID: 00  TDest: 0  TUser: 0  TLast: 0  Operation# 59
%%    700 ns    Log    INFO      in receiver_1,                   Word Receive.  Operation# 59  Data: EFEEEDEC  TID: 00  TDest: 0  TUser: 0  TLast: 0
%%    700 ns    Log    PASSED    in Default,                      Receive TranasctionCount: Received : 59
%%    700 ns    Log    PASSED    in Default,                      Get:  Received : EFEEEDEC
%%    700 ns    Log    PASSED    in Default,                      Transmit TransactionCount: Received : 59
%%    700 ns    Log    PASSED    in Default,                      Receiver, GetAlertLogID/GetAlertCount: Verify that ErrorCount is 0 Received : 0
%%    700 ns    Log    PASSED    in Default,                      Transmitter, GetAlertLogID/GetAlertCount: Verify that ErrorCount is 0 Received : 0
%%    700 ns    Log    INFO      in transmitter_1,                Axi Stream Send.  TData: F3F2F1F0  TStrb: 1111  TKeep: 1111  TID: 00  TDest: 0  TUser: 0  TLast: 0  Operation# 60
%%    710 ns    Log    PASSED    in receiver_1: Data Check,       Operation# 60  Received.  Data: F3F2F1F0  TID: 00  TDest: 0  TUser: 0  TLast: 0
%%    710 ns    Log    PASSED    in Default,                      Receive TranasctionCount: Received : 60
%%    710 ns    Log    PASSED    in Default,                      Transmit TransactionCount: Received : 60
%%    710 ns    Log    PASSED    in Default,                      Receiver, GetErrorCount: Verify that ErrorCount is 0 Received : 0
%%    710 ns    Log    PASSED    in Default,                      Transmitter, GetErrorCount: Verify that ErrorCount is 0 Received : 0
%%    710 ns    Log    INFO      in transmitter_1,                Axi Stream Send.  TData: F7F6F5F4  TStrb: 1111  TKeep: 1111  TID: 00  TDest: 0  TUser: 0  TLast: 0  Operation# 61
%%    720 ns    Log    INFO      in receiver_1,                   Word Receive.  Operation# 61  Data: F7F6F5F4  TID: 00  TDest: 0  TUser: 0  TLast: 0
%%    720 ns    Log    PASSED    in Default,                      Receive TranasctionCount: Received : 61
%%    720 ns    Log    PASSED    in Default,                      Get:  Received : F7F6F5F4
%%    720 ns    Log    PASSED    in Default,                      Transmit TransactionCount: Received : 61
%%    720 ns    Log    PASSED    in Default,                      Receiver, GetAlertLogID/GetAlertCount: Verify that ErrorCount is 0 Received : 0
%%    720 ns    Log    PASSED    in Default,                      Transmitter, GetAlertLogID/GetAlertCount: Verify that ErrorCount is 0 Received : 0
%%    720 ns    Log    INFO      in transmitter_1,                Axi Stream Send.  TData: FBFAF9F8  TStrb: 1111  TKeep: 1111  TID: 00  TDest: 0  TUser: 0  TLast: 0  Operation# 62
%%    730 ns    Log    PASSED    in receiver_1: Data Check,       Operation# 62  Received.  Data: FBFAF9F8  TID: 00  TDest: 0  TUser: 0  TLast: 0
%%    730 ns    Log    PASSED    in Default,                      Receive TranasctionCount: Received : 62
%%    730 ns    Log    PASSED    in Default,                      Transmit TransactionCount: Received : 62
%%    730 ns    Log    PASSED    in Default,                      Receiver, GetErrorCount: Verify that ErrorCount is 0 Received : 0
%%    730 ns    Log    PASSED    in Default,                      Transmitter, GetErrorCount: Verify that ErrorCount is 0 Received : 0
%%    730 ns    Log    INFO      in transmitter_1,                Axi Stream Send.  TData: FFFEFDFC  TStrb: 1111  TKeep: 1111  TID: 00  TDest: 0  TUser: 0  TLast: 0  Operation# 63
%%    740 ns    Log    INFO      in receiver_1,                   Word Receive.  Operation# 63  Data: FFFEFDFC  TID: 00  TDest: 0  TUser: 0  TLast: 0
%%    740 ns    Log    PASSED    in Default,                      Receive TranasctionCount: Received : 63
%%    740 ns    Log    PASSED    in Default,                      Get:  Received : FFFEFDFC
%%    740 ns    Log    PASSED    in Default,                      Transmit TransactionCount: Received : 63
%%    740 ns    Log    PASSED    in Default,                      Receiver, GetAlertLogID/GetAlertCount: Verify that ErrorCount is 0 Received : 0
%%    740 ns    Log    PASSED    in Default,                      Transmitter, GetAlertLogID/GetAlertCount: Verify that ErrorCount is 0 Received : 0
%%    740 ns    Log    INFO      in transmitter_1,                Axi Stream Send.  TData: 03020100  TStrb: 1111  TKeep: 1111  TID: 00  TDest: 0  TUser: 0  TLast: 0  Operation# 64
%%    750 ns    Log    PASSED    in receiver_1: Data Check,       Operation# 64  Received.  Data: 03020100  TID: 00  TDest: 0  TUser: 0  TLast: 0
%%    750 ns    Log    PASSED    in Default,                      Receive TranasctionCount: Received : 64
%%    750 ns    Log    PASSED    in Default,                      Transmit TransactionCount: Received : 64
%%    750 ns    Log    PASSED    in Default,                      Receiver, GetErrorCount: Verify that ErrorCount is 0 Received : 0
%%    750 ns    Log    PASSED    in Default,                      Transmitter, GetErrorCount: Verify that ErrorCount is 0 Received : 0
%%    750 ns    Log    PASSED    in Default,                      Receiver: WaitForTransaction executes in 0 time when using blocking transactions Received : 750 ns
%%    750 ns    Log    PASSED    in Default,                      Transmitter: WaitForTransaction executes in 0 time when using blocking transactions Received : 750 ns
%%    750 ns    Log    INFO      in transmitter_1,                Axi Stream Send.  TData: 07060504  TStrb: 1111  TKeep: 1111  TID: 00  TDest: 0  TUser: 0  TLast: 0  Operation# 65
%%    760 ns    Log    INFO      in receiver_1,                   Word Receive.  Operation# 65  Data: 07060504  TID: 00  TDest: 0  TUser: 0  TLast: 0
%%    760 ns    Log    PASSED    in Default,                      Receive TranasctionCount: Received : 65
%%    760 ns    Log    PASSED    in Default,                      Get:  Received : 07060504
%%    760 ns    Log    PASSED    in Default,                      Transmit TransactionCount: Received : 65
%%    760 ns    Log    PASSED    in Default,                      Receiver, GetAlertLogID/GetAlertCount: Verify that ErrorCount is 0 Received : 0
%%    760 ns    Log    PASSED    in Default,                      Transmitter, GetAlertLogID/GetAlertCount: Verify that ErrorCount is 0 Received : 0
%%    760 ns    Log    INFO      in transmitter_1,                Axi Stream Send.  TData: 0B0A0908  TStrb: 1111  TKeep: 1111  TID: 00  TDest: 0  TUser: 0  TLast: 0  Operation# 66
%%    770 ns    Log    PASSED    in receiver_1: Data Check,       Operation# 66  Received.  Data: 0B0A0908  TID: 00  TDest: 0  TUser: 0  TLast: 0
%%    770 ns    Log    PASSED    in Default,                      Receive TranasctionCount: Received : 66
%%    770 ns    Log    PASSED    in Default,                      Transmit TransactionCount: Received : 66
%%    770 ns    Log    PASSED    in Default,                      Receiver, GetErrorCount: Verify that ErrorCount is 0 Received : 0
%%    770 ns    Log    PASSED    in Default,                      Transmitter, GetErrorCount: Verify that ErrorCount is 0 Received : 0
%%    770 ns    Log    INFO      in transmitter_1,                Axi Stream Send.  TData: 0F0E0D0C  TStrb: 1111  TKeep: 1111  TID: 00  TDest: 0  TUser: 0  TLast: 0  Operation# 67
%%    780 ns    Log    INFO      in receiver_1,                   Word Receive.  Operation# 67  Data: 0F0E0D0C  TID: 00  TDest: 0  TUser: 0  TLast: 0
%%    780 ns    Log    PASSED    in Default,                      Receive TranasctionCount: Received : 67
%%    780 ns    Log    PASSED    in Default,                      Get:  Received : 0F0E0D0C
%%    780 ns    Log    PASSED    in Default,                      Transmit TransactionCount: Received : 67
%%    780 ns    Log    PASSED    in Default,                      Receiver, GetAlertLogID/GetAlertCount: Verify that ErrorCount is 0 Received : 0
%%    780 ns    Log    PASSED    in Default,                      Transmitter, GetAlertLogID/GetAlertCount: Verify that ErrorCount is 0 Received : 0
%%    780 ns    Log    INFO      in transmitter_1,                Axi Stream Send.  TData: 13121110  TStrb: 1111  TKeep: 1111  TID: 00  TDest: 0  TUser: 0  TLast: 0  Operation# 68
%%    790 ns    Log    PASSED    in receiver_1: Data Check,       Operation# 68  Received.  Data: 13121110  TID: 00  TDest: 0  TUser: 0  TLast: 0
%%    790 ns    Log    PASSED    in Default,                      Receive TranasctionCount: Received : 68
%%    790 ns    Log    PASSED    in Default,                      Transmit TransactionCount: Received : 68
%%    790 ns    Log    PASSED    in Default,                      Receiver, GetErrorCount: Verify that ErrorCount is 0 Received : 0
%%    790 ns    Log    PASSED    in Default,                      Transmitter, GetErrorCount: Verify that ErrorCount is 0 Received : 0
%%    790 ns    Log    INFO      in transmitter_1,                Axi Stream Send.  TData: 17161514  TStrb: 1111  TKeep: 1111  TID: 00  TDest: 0  TUser: 0  TLast: 0  Operation# 69
%%    800 ns    Log    INFO      in receiver_1,                   Word Receive.  Operation# 69  Data: 17161514  TID: 00  TDest: 0  TUser: 0  TLast: 0
%%    800 ns    Log    PASSED    in Default,                      Receive TranasctionCount: Received : 69
%%    800 ns    Log    PASSED    in Default,                      Get:  Received : 17161514
%%    800 ns    Log    PASSED    in Default,                      Transmit TransactionCount: Received : 69
%%    800 ns    Log    PASSED    in Default,                      Receiver, GetAlertLogID/GetAlertCount: Verify that ErrorCount is 0 Received : 0
%%    800 ns    Log    PASSED    in Default,                      Transmitter, GetAlertLogID/GetAlertCount: Verify that ErrorCount is 0 Received : 0
%%    800 ns    Log    INFO      in transmitter_1,                Axi Stream Send.  TData: 1B1A1918  TStrb: 1111  TKeep: 1111  TID: 00  TDest: 0  TUser: 0  TLast: 0  Operation# 70
%%    810 ns    Log    PASSED    in receiver_1: Data Check,       Operation# 70  Received.  Data: 1B1A1918  TID: 00  TDest: 0  TUser: 0  TLast: 0
%%    810 ns    Log    PASSED    in Default,                      Receive TranasctionCount: Received : 70
%%    810 ns    Log    PASSED    in Default,                      Transmit TransactionCount: Received : 70
%%    810 ns    Log    PASSED    in Default,                      Receiver, GetErrorCount: Verify that ErrorCount is 0 Received : 0
%%    810 ns    Log    PASSED    in Default,                      Transmitter, GetErrorCount: Verify that ErrorCount is 0 Received : 0
%%    810 ns    Log    INFO      in transmitter_1,                Axi Stream Send.  TData: 1F1E1D1C  TStrb: 1111  TKeep: 1111  TID: 00  TDest: 0  TUser: 0  TLast: 0  Operation# 71
%%    820 ns    Log    INFO      in receiver_1,                   Word Receive.  Operation# 71  Data: 1F1E1D1C  TID: 00  TDest: 0  TUser: 0  TLast: 0
%%    820 ns    Log    PASSED    in Default,                      Receive TranasctionCount: Received : 71
%%    820 ns    Log    PASSED    in Default,                      Get:  Received : 1F1E1D1C
%%    820 ns    Log    PASSED    in Default,                      Transmit TransactionCount: Received : 71
%%    820 ns    Log    PASSED    in Default,                      Receiver, GetAlertLogID/GetAlertCount: Verify that ErrorCount is 0 Received : 0
%%    820 ns    Log    PASSED    in Default,                      Transmitter, GetAlertLogID/GetAlertCount: Verify that ErrorCount is 0 Received : 0
%%    820 ns    Log    INFO      in transmitter_1,                Axi Stream Send.  TData: 23222120  TStrb: 1111  TKeep: 1111  TID: 00  TDest: 0  TUser: 0  TLast: 0  Operation# 72
%%    830 ns    Log    PASSED    in receiver_1: Data Check,       Operation# 72  Received.  Data: 23222120  TID: 00  TDest: 0  TUser: 0  TLast: 0
%%    830 ns    Log    PASSED    in Default,                      Receive TranasctionCount: Received : 72
%%    830 ns    Log    PASSED    in Default,                      Transmit TransactionCount: Received : 72
%%    830 ns    Log    PASSED    in Default,                      Receiver, GetErrorCount: Verify that ErrorCount is 0 Received : 0
%%    830 ns    Log    PASSED    in Default,                      Transmitter, GetErrorCount: Verify that ErrorCount is 0 Received : 0
%%    830 ns    Log    INFO      in transmitter_1,                Axi Stream Send.  TData: 27262524  TStrb: 1111  TKeep: 1111  TID: 00  TDest: 0  TUser: 0  TLast: 0  Operation# 73
%%    840 ns    Log    INFO      in receiver_1,                   Word Receive.  Operation# 73  Data: 27262524  TID: 00  TDest: 0  TUser: 0  TLast: 0
%%    840 ns    Log    PASSED    in Default,                      Receive TranasctionCount: Received : 73
%%    840 ns    Log    PASSED    in Default,                      Get:  Received : 27262524
%%    840 ns    Log    PASSED    in Default,                      Transmit TransactionCount: Received : 73
%%    840 ns    Log    PASSED    in Default,                      Receiver, GetAlertLogID/GetAlertCount: Verify that ErrorCount is 0 Received : 0
%%    840 ns    Log    PASSED    in Default,                      Transmitter, GetAlertLogID/GetAlertCount: Verify that ErrorCount is 0 Received : 0
%%    840 ns    Log    INFO      in transmitter_1,                Axi Stream Send.  TData: 2B2A2928  TStrb: 1111  TKeep: 1111  TID: 00  TDest: 0  TUser: 0  TLast: 0  Operation# 74
%%    850 ns    Log    PASSED    in receiver_1: Data Check,       Operation# 74  Received.  Data: 2B2A2928  TID: 00  TDest: 0  TUser: 0  TLast: 0
%%    850 ns    Log    PASSED    in Default,                      Receive TranasctionCount: Received : 74
%%    850 ns    Log    PASSED    in Default,                      Transmit TransactionCount: Received : 74
%%    850 ns    Log    PASSED    in Default,                      Receiver, GetErrorCount: Verify that ErrorCount is 0 Received : 0
%%    850 ns    Log    PASSED    in Default,                      Transmitter, GetErrorCount: Verify that ErrorCount is 0 Received : 0
%%    850 ns    Log    INFO      in transmitter_1,                Axi Stream Send.  TData: 2F2E2D2C  TStrb: 1111  TKeep: 1111  TID: 00  TDest: 0  TUser: 0  TLast: 0  Operation# 75
%%    860 ns    Log    INFO      in receiver_1,                   Word Receive.  Operation# 75  Data: 2F2E2D2C  TID: 00  TDest: 0  TUser: 0  TLast: 0
%%    860 ns    Log    PASSED    in Default,                      Receive TranasctionCount: Received : 75
%%    860 ns    Log    PASSED    in Default,                      Get:  Received : 2F2E2D2C
%%    860 ns    Log    PASSED    in Default,                      Transmit TransactionCount: Received : 75
%%    860 ns    Log    PASSED    in Default,                      Receiver, GetAlertLogID/GetAlertCount: Verify that ErrorCount is 0 Received : 0
%%    860 ns    Log    PASSED    in Default,                      Transmitter, GetAlertLogID/GetAlertCount: Verify that ErrorCount is 0 Received : 0
%%    860 ns    Log    INFO      in transmitter_1,                Axi Stream Send.  TData: 33323130  TStrb: 1111  TKeep: 1111  TID: 00  TDest: 0  TUser: 0  TLast: 0  Operation# 76
%%    870 ns    Log    PASSED    in receiver_1: Data Check,       Operation# 76  Received.  Data: 33323130  TID: 00  TDest: 0  TUser: 0  TLast: 0
%%    870 ns    Log    PASSED    in Default,                      Receive TranasctionCount: Received : 76
%%    870 ns    Log    PASSED    in Default,                      Transmit TransactionCount: Received : 76
%%    870 ns    Log    PASSED    in Default,                      Receiver, GetErrorCount: Verify that ErrorCount is 0 Received : 0
%%    870 ns    Log    PASSED    in Default,                      Transmitter, GetErrorCount: Verify that ErrorCount is 0 Received : 0
%%    870 ns    Log    INFO      in transmitter_1,                Axi Stream Send.  TData: 37363534  TStrb: 1111  TKeep: 1111  TID: 00  TDest: 0  TUser: 0  TLast: 0  Operation# 77
%%    880 ns    Log    INFO      in receiver_1,                   Word Receive.  Operation# 77  Data: 37363534  TID: 00  TDest: 0  TUser: 0  TLast: 0
%%    880 ns    Log    PASSED    in Default,                      Receive TranasctionCount: Received : 77
%%    880 ns    Log    PASSED    in Default,                      Get:  Received : 37363534
%%    880 ns    Log    PASSED    in Default,                      Transmit TransactionCount: Received : 77
%%    880 ns    Log    PASSED    in Default,                      Receiver, GetAlertLogID/GetAlertCount: Verify that ErrorCount is 0 Received : 0
%%    880 ns    Log    PASSED    in Default,                      Transmitter, GetAlertLogID/GetAlertCount: Verify that ErrorCount is 0 Received : 0
%%    880 ns    Log    INFO      in transmitter_1,                Axi Stream Send.  TData: 3B3A3938  TStrb: 1111  TKeep: 1111  TID: 00  TDest: 0  TUser: 0  TLast: 0  Operation# 78
%%    890 ns    Log    PASSED    in receiver_1: Data Check,       Operation# 78  Received.  Data: 3B3A3938  TID: 00  TDest: 0  TUser: 0  TLast: 0
%%    890 ns    Log    PASSED    in Default,                      Receive TranasctionCount: Received : 78
%%    890 ns    Log    PASSED    in Default,                      Transmit TransactionCount: Received : 78
%%    890 ns    Log    PASSED    in Default,                      Receiver, GetErrorCount: Verify that ErrorCount is 0 Received : 0
%%    890 ns    Log    PASSED    in Default,                      Transmitter, GetErrorCount: Verify that ErrorCount is 0 Received : 0
%%    890 ns    Log    INFO      in transmitter_1,                Axi Stream Send.  TData: 3F3E3D3C  TStrb: 1111  TKeep: 1111  TID: 00  TDest: 0  TUser: 0  TLast: 0  Operation# 79
%%    900 ns    Log    INFO      in receiver_1,                   Word Receive.  Operation# 79  Data: 3F3E3D3C  TID: 00  TDest: 0  TUser: 0  TLast: 0
%%    900 ns    Log    PASSED    in Default,                      Receive TranasctionCount: Received : 79
%%    900 ns    Log    PASSED    in Default,                      Get:  Received : 3F3E3D3C
%%    900 ns    Log    PASSED    in Default,                      Transmit TransactionCount: Received : 79
%%    900 ns    Log    PASSED    in Default,                      Receiver, GetAlertLogID/GetAlertCount: Verify that ErrorCount is 0 Received : 0
%%    900 ns    Log    PASSED    in Default,                      Transmitter, GetAlertLogID/GetAlertCount: Verify that ErrorCount is 0 Received : 0
%%    900 ns    Log    INFO      in transmitter_1,                Axi Stream Send.  TData: 43424140  TStrb: 1111  TKeep: 1111  TID: 00  TDest: 0  TUser: 0  TLast: 0  Operation# 80
%%    910 ns    Log    PASSED    in receiver_1: Data Check,       Operation# 80  Received.  Data: 43424140  TID: 00  TDest: 0  TUser: 0  TLast: 0
%%    910 ns    Log    PASSED    in Default,                      Receive TranasctionCount: Received : 80
%%    910 ns    Log    PASSED    in Default,                      Transmit TransactionCount: Received : 80
%%    910 ns    Log    PASSED    in Default,                      Receiver, GetErrorCount: Verify that ErrorCount is 0 Received : 0
%%    910 ns    Log    PASSED    in Default,                      Transmitter, GetErrorCount: Verify that ErrorCount is 0 Received : 0
%%    910 ns    Log    INFO      in transmitter_1,                Axi Stream Send.  TData: 47464544  TStrb: 1111  TKeep: 1111  TID: 00  TDest: 0  TUser: 0  TLast: 0  Operation# 81
%%    920 ns    Log    INFO      in receiver_1,                   Word Receive.  Operation# 81  Data: 47464544  TID: 00  TDest: 0  TUser: 0  TLast: 0
%%    920 ns    Log    PASSED    in Default,                      Receive TranasctionCount: Received : 81
%%    920 ns    Log    PASSED    in Default,                      Get:  Received : 47464544
%%    920 ns    Log    PASSED    in Default,                      Transmit TransactionCount: Received : 81
%%    920 ns    Log    PASSED    in Default,                      Receiver, GetAlertLogID/GetAlertCount: Verify that ErrorCount is 0 Received : 0
%%    920 ns    Log    PASSED    in Default,                      Transmitter, GetAlertLogID/GetAlertCount: Verify that ErrorCount is 0 Received : 0
%%    920 ns    Log    INFO      in transmitter_1,                Axi Stream Send.  TData: 4B4A4948  TStrb: 1111  TKeep: 1111  TID: 00  TDest: 0  TUser: 0  TLast: 0  Operation# 82
%%    930 ns    Log    PASSED    in receiver_1: Data Check,       Operation# 82  Received.  Data: 4B4A4948  TID: 00  TDest: 0  TUser: 0  TLast: 0
%%    930 ns    Log    PASSED    in Default,                      Receive TranasctionCount: Received : 82
%%    930 ns    Log    PASSED    in Default,                      Transmit TransactionCount: Received : 82
%%    930 ns    Log    PASSED    in Default,                      Receiver, GetErrorCount: Verify that ErrorCount is 0 Received : 0
%%    930 ns    Log    PASSED    in Default,                      Transmitter, GetErrorCount: Verify that ErrorCount is 0 Received : 0
%%    930 ns    Log    INFO      in transmitter_1,                Axi Stream Send.  TData: 4F4E4D4C  TStrb: 1111  TKeep: 1111  TID: 00  TDest: 0  TUser: 0  TLast: 0  Operation# 83
%%    940 ns    Log    INFO      in receiver_1,                   Word Receive.  Operation# 83  Data: 4F4E4D4C  TID: 00  TDest: 0  TUser: 0  TLast: 0
%%    940 ns    Log    PASSED    in Default,                      Receive TranasctionCount: Received : 83
%%    940 ns    Log    PASSED    in Default,                      Get:  Received : 4F4E4D4C
%%    940 ns    Log    PASSED    in Default,                      Transmit TransactionCount: Received : 83
%%    940 ns    Log    PASSED    in Default,                      Receiver, GetAlertLogID/GetAlertCount: Verify that ErrorCount is 0 Received : 0
%%    940 ns    Log    PASSED    in Default,                      Transmitter, GetAlertLogID/GetAlertCount: Verify that ErrorCount is 0 Received : 0
%%    940 ns    Log    INFO      in transmitter_1,                Axi Stream Send.  TData: 53525150  TStrb: 1111  TKeep: 1111  TID: 00  TDest: 0  TUser: 0  TLast: 0  Operation# 84
%%    950 ns    Log    PASSED    in receiver_1: Data Check,       Operation# 84  Received.  Data: 53525150  TID: 00  TDest: 0  TUser: 0  TLast: 0
%%    950 ns    Log    PASSED    in Default,                      Receive TranasctionCount: Received : 84
%%    950 ns    Log    PASSED    in Default,                      Transmit TransactionCount: Received : 84
%%    950 ns    Log    PASSED    in Default,                      Receiver, GetErrorCount: Verify that ErrorCount is 0 Received : 0
%%    950 ns    Log    PASSED    in Default,                      Transmitter, GetErrorCount: Verify that ErrorCount is 0 Received : 0
%%    950 ns    Log    INFO      in transmitter_1,                Axi Stream Send.  TData: 57565554  TStrb: 1111  TKeep: 1111  TID: 00  TDest: 0  TUser: 0  TLast: 0  Operation# 85
%%    960 ns    Log    INFO      in receiver_1,                   Word Receive.  Operation# 85  Data: 57565554  TID: 00  TDest: 0  TUser: 0  TLast: 0
%%    960 ns    Log    PASSED    in Default,                      Receive TranasctionCount: Received : 85
%%    960 ns    Log    PASSED    in Default,                      Get:  Received : 57565554
%%    960 ns    Log    PASSED    in Default,                      Transmit TransactionCount: Received : 85
%%    960 ns    Log    PASSED    in Default,                      Receiver, GetAlertLogID/GetAlertCount: Verify that ErrorCount is 0 Received : 0
%%    960 ns    Log    PASSED    in Default,                      Transmitter, GetAlertLogID/GetAlertCount: Verify that ErrorCount is 0 Received : 0
%%    960 ns    Log    INFO      in transmitter_1,                Axi Stream Send.  TData: 5B5A5958  TStrb: 1111  TKeep: 1111  TID: 00  TDest: 0  TUser: 0  TLast: 0  Operation# 86
%%    970 ns    Log    PASSED    in receiver_1: Data Check,       Operation# 86  Received.  Data: 5B5A5958  TID: 00  TDest: 0  TUser: 0  TLast: 0
%%    970 ns    Log    PASSED    in Default,                      Receive TranasctionCount: Received : 86
%%    970 ns    Log    PASSED    in Default,                      Transmit TransactionCount: Received : 86
%%    970 ns    Log    PASSED    in Default,                      Receiver, GetErrorCount: Verify that ErrorCount is 0 Received : 0
%%    970 ns    Log    PASSED    in Default,                      Transmitter, GetErrorCount: Verify that ErrorCount is 0 Received : 0
%%    970 ns    Log    INFO      in transmitter_1,                Axi Stream Send.  TData: 5F5E5D5C  TStrb: 1111  TKeep: 1111  TID: 00  TDest: 0  TUser: 0  TLast: 0  Operation# 87
%%    980 ns    Log    INFO      in receiver_1,                   Word Receive.  Operation# 87  Data: 5F5E5D5C  TID: 00  TDest: 0  TUser: 0  TLast: 0
%%    980 ns    Log    PASSED    in Default,                      Receive TranasctionCount: Received : 87
%%    980 ns    Log    PASSED    in Default,                      Get:  Received : 5F5E5D5C
%%    980 ns    Log    PASSED    in Default,                      Transmit TransactionCount: Received : 87
%%    980 ns    Log    PASSED    in Default,                      Receiver, GetAlertLogID/GetAlertCount: Verify that ErrorCount is 0 Received : 0
%%    980 ns    Log    PASSED    in Default,                      Transmitter, GetAlertLogID/GetAlertCount: Verify that ErrorCount is 0 Received : 0
%%    980 ns    Log    INFO      in transmitter_1,                Axi Stream Send.  TData: 63626160  TStrb: 1111  TKeep: 1111  TID: 00  TDest: 0  TUser: 0  TLast: 0  Operation# 88
%%    990 ns    Log    PASSED    in receiver_1: Data Check,       Operation# 88  Received.  Data: 63626160  TID: 00  TDest: 0  TUser: 0  TLast: 0
%%    990 ns    Log    PASSED    in Default,                      Receive TranasctionCount: Received : 88
%%    990 ns    Log    PASSED    in Default,                      Transmit TransactionCount: Received : 88
%%    990 ns    Log    PASSED    in Default,                      Receiver, GetErrorCount: Verify that ErrorCount is 0 Received : 0
%%    990 ns    Log    PASSED    in Default,                      Transmitter, GetErrorCount: Verify that ErrorCount is 0 Received : 0
%%    990 ns    Log    INFO      in transmitter_1,                Axi Stream Send.  TData: 67666564  TStrb: 1111  TKeep: 1111  TID: 00  TDest: 0  TUser: 0  TLast: 0  Operation# 89
%%   1000 ns    Log    INFO      in receiver_1,                   Word Receive.  Operation# 89  Data: 67666564  TID: 00  TDest: 0  TUser: 0  TLast: 0
%%   1000 ns    Log    PASSED    in Default,                      Receive TranasctionCount: Received : 89
%%   1000 ns    Log    PASSED    in Default,                      Get:  Received : 67666564
%%   1000 ns    Log    PASSED    in Default,                      Transmit TransactionCount: Received : 89
%%   1000 ns    Log    PASSED    in Default,                      Receiver, GetAlertLogID/GetAlertCount: Verify that ErrorCount is 0 Received : 0
%%   1000 ns    Log    PASSED    in Default,                      Transmitter, GetAlertLogID/GetAlertCount: Verify that ErrorCount is 0 Received : 0
%%   1000 ns    Log    INFO      in transmitter_1,                Axi Stream Send.  TData: 6B6A6968  TStrb: 1111  TKeep: 1111  TID: 00  TDest: 0  TUser: 0  TLast: 0  Operation# 90
%%   1010 ns    Log    PASSED    in receiver_1: Data Check,       Operation# 90  Received.  Data: 6B6A6968  TID: 00  TDest: 0  TUser: 0  TLast: 0
%%   1010 ns    Log    PASSED    in Default,                      Receive TranasctionCount: Received : 90
%%   1010 ns    Log    PASSED    in Default,                      Transmit TransactionCount: Received : 90
%%   1010 ns    Log    PASSED    in Default,                      Receiver, GetErrorCount: Verify that ErrorCount is 0 Received : 0
%%   1010 ns    Log    PASSED    in Default,                      Transmitter, GetErrorCount: Verify that ErrorCount is 0 Received : 0
%%   1010 ns    Log    INFO      in transmitter_1,                Axi Stream Send.  TData: 6F6E6D6C  TStrb: 1111  TKeep: 1111  TID: 00  TDest: 0  TUser: 0  TLast: 0  Operation# 91
%%   1020 ns    Log    INFO      in receiver_1,                   Word Receive.  Operation# 91  Data: 6F6E6D6C  TID: 00  TDest: 0  TUser: 0  TLast: 0
%%   1020 ns    Log    PASSED    in Default,                      Receive TranasctionCount: Received : 91
%%   1020 ns    Log    PASSED    in Default,                      Get:  Received : 6F6E6D6C
%%   1020 ns    Log    PASSED    in Default,                      Transmit TransactionCount: Received : 91
%%   1020 ns    Log    PASSED    in Default,                      Receiver, GetAlertLogID/GetAlertCount: Verify that ErrorCount is 0 Received : 0
%%   1020 ns    Log    PASSED    in Default,                      Transmitter, GetAlertLogID/GetAlertCount: Verify that ErrorCount is 0 Received : 0
%%   1020 ns    Log    INFO      in transmitter_1,                Axi Stream Send.  TData: 73727170  TStrb: 1111  TKeep: 1111  TID: 00  TDest: 0  TUser: 0  TLast: 0  Operation# 92
%%   1030 ns    Log    PASSED    in receiver_1: Data Check,       Operation# 92  Received.  Data: 73727170  TID: 00  TDest: 0  TUser: 0  TLast: 0
%%   1030 ns    Log    PASSED    in Default,                      Receive TranasctionCount: Received : 92
%%   1030 ns    Log    PASSED    in Default,                      Transmit TransactionCount: Received : 92
%%   1030 ns    Log    PASSED    in Default,                      Receiver, GetErrorCount: Verify that ErrorCount is 0 Received : 0
%%   1030 ns    Log    PASSED    in Default,                      Transmitter, GetErrorCount: Verify that ErrorCount is 0 Received : 0
%%   1030 ns    Log    INFO      in transmitter_1,                Axi Stream Send.  TData: 77767574  TStrb: 1111  TKeep: 1111  TID: 00  TDest: 0  TUser: 0  TLast: 0  Operation# 93
%%   1040 ns    Log    INFO      in receiver_1,                   Word Receive.  Operation# 93  Data: 77767574  TID: 00  TDest: 0  TUser: 0  TLast: 0
%%   1040 ns    Log    PASSED    in Default,                      Receive TranasctionCount: Received : 93
%%   1040 ns    Log    PASSED    in Default,                      Get:  Received : 77767574
%%   1040 ns    Log    PASSED    in Default,                      Transmit TransactionCount: Received : 93
%%   1040 ns    Log    PASSED    in Default,                      Receiver, GetAlertLogID/GetAlertCount: Verify that ErrorCount is 0 Received : 0
%%   1040 ns    Log    PASSED    in Default,                      Transmitter, GetAlertLogID/GetAlertCount: Verify that ErrorCount is 0 Received : 0
%%   1040 ns    Log    INFO      in transmitter_1,                Axi Stream Send.  TData: 7B7A7978  TStrb: 1111  TKeep: 1111  TID: 00  TDest: 0  TUser: 0  TLast: 0  Operation# 94
%%   1050 ns    Log    PASSED    in receiver_1: Data Check,       Operation# 94  Received.  Data: 7B7A7978  TID: 00  TDest: 0  TUser: 0  TLast: 0
%%   1050 ns    Log    PASSED    in Default,                      Receive TranasctionCount: Received : 94
%%   1050 ns    Log    PASSED    in Default,                      Transmit TransactionCount: Received : 94
%%   1050 ns    Log    PASSED    in Default,                      Receiver, GetErrorCount: Verify that ErrorCount is 0 Received : 0
%%   1050 ns    Log    PASSED    in Default,                      Transmitter, GetErrorCount: Verify that ErrorCount is 0 Received : 0
%%   1050 ns    Log    INFO      in transmitter_1,                Axi Stream Send.  TData: 7F7E7D7C  TStrb: 1111  TKeep: 1111  TID: 00  TDest: 0  TUser: 0  TLast: 0  Operation# 95
%%   1060 ns    Log    INFO      in receiver_1,                   Word Receive.  Operation# 95  Data: 7F7E7D7C  TID: 00  TDest: 0  TUser: 0  TLast: 0
%%   1060 ns    Log    PASSED    in Default,                      Receive TranasctionCount: Received : 95
%%   1060 ns    Log    PASSED    in Default,                      Get:  Received : 7F7E7D7C
%%   1060 ns    Log    PASSED    in Default,                      Transmit TransactionCount: Received : 95
%%   1060 ns    Log    PASSED    in Default,                      Receiver, GetAlertLogID/GetAlertCount: Verify that ErrorCount is 0 Received : 0
%%   1060 ns    Log    PASSED    in Default,                      Transmitter, GetAlertLogID/GetAlertCount: Verify that ErrorCount is 0 Received : 0
%%   1060 ns    Log    INFO      in transmitter_1,                Axi Stream Send.  TData: 83828180  TStrb: 1111  TKeep: 1111  TID: 00  TDest: 0  TUser: 0  TLast: 0  Operation# 96
%%   1070 ns    Log    PASSED    in receiver_1: Data Check,       Operation# 96  Received.  Data: 83828180  TID: 00  TDest: 0  TUser: 0  TLast: 0
%%   1070 ns    Log    PASSED    in Default,                      Receive TranasctionCount: Received : 96
%%   1070 ns    Log    PASSED    in Default,                      Transmit TransactionCount: Received : 96
%%   1070 ns    Log    PASSED    in Default,                      Receiver, GetErrorCount: Verify that ErrorCount is 0 Received : 0
%%   1070 ns    Log    PASSED    in Default,                      Transmitter, GetErrorCount: Verify that ErrorCount is 0 Received : 0
%%   1070 ns    Log    PASSED    in Default,                      Receiver: WaitForTransaction executes in 0 time when using blocking transactions Received : 1070 ns
%%   1070 ns    Log    PASSED    in Default,                      Transmitter: WaitForTransaction executes in 0 time when using blocking transactions Received : 1070 ns
%%   1070 ns    Log    INFO      in transmitter_1,                Axi Stream Send.  TData: 87868584  TStrb: 1111  TKeep: 1111  TID: 00  TDest: 0  TUser: 0  TLast: 0  Operation# 97
%%   1080 ns    Log    INFO      in receiver_1,                   Word Receive.  Operation# 97  Data: 87868584  TID: 00  TDest: 0  TUser: 0  TLast: 0
%%   1080 ns    Log    PASSED    in Default,                      Receive TranasctionCount: Received : 97
%%   1080 ns    Log    PASSED    in Default,                      Get:  Received : 87868584
%%   1080 ns    Log    PASSED    in Default,                      Transmit TransactionCount: Received : 97
%%   1080 ns    Log    PASSED    in Default,                      Receiver, GetAlertLogID/GetAlertCount: Verify that ErrorCount is 0 Received : 0
%%   1080 ns    Log    PASSED    in Default,                      Transmitter, GetAlertLogID/GetAlertCount: Verify that ErrorCount is 0 Received : 0
%%   1080 ns    Log    INFO      in transmitter_1,                Axi Stream Send.  TData: 8B8A8988  TStrb: 1111  TKeep: 1111  TID: 00  TDest: 0  TUser: 0  TLast: 0  Operation# 98
%%   1090 ns    Log    PASSED    in receiver_1: Data Check,       Operation# 98  Received.  Data: 8B8A8988  TID: 00  TDest: 0  TUser: 0  TLast: 0
%%   1090 ns    Log    PASSED    in Default,                      Receive TranasctionCount: Received : 98
%%   1090 ns    Log    PASSED    in Default,                      Transmit TransactionCount: Received : 98
%%   1090 ns    Log    PASSED    in Default,                      Receiver, GetErrorCount: Verify that ErrorCount is 0 Received : 0
%%   1090 ns    Log    PASSED    in Default,                      Transmitter, GetErrorCount: Verify that ErrorCount is 0 Received : 0
%%   1090 ns    Log    INFO      in transmitter_1,                Axi Stream Send.  TData: 8F8E8D8C  TStrb: 1111  TKeep: 1111  TID: 00  TDest: 0  TUser: 0  TLast: 0  Operation# 99
%%   1100 ns    Log    INFO      in receiver_1,                   Word Receive.  Operation# 99  Data: 8F8E8D8C  TID: 00  TDest: 0  TUser: 0  TLast: 0
%%   1100 ns    Log    PASSED    in Default,                      Receive TranasctionCount: Received : 99
%%   1100 ns    Log    PASSED    in Default,                      Get:  Received : 8F8E8D8C
%%   1100 ns    Log    PASSED    in Default,                      Transmit TransactionCount: Received : 99
%%   1100 ns    Log    PASSED    in Default,                      Receiver, GetAlertLogID/GetAlertCount: Verify that ErrorCount is 0 Received : 0
%%   1100 ns    Log    PASSED    in Default,                      Transmitter, GetAlertLogID/GetAlertCount: Verify that ErrorCount is 0 Received : 0
%%   1100 ns    Log    INFO      in transmitter_1,                Axi Stream Send.  TData: 93929190  TStrb: 1111  TKeep: 1111  TID: 00  TDest: 0  TUser: 0  TLast: 0  Operation# 100
%%   1110 ns    Log    PASSED    in receiver_1: Data Check,       Operation# 100  Received.  Data: 93929190  TID: 00  TDest: 0  TUser: 0  TLast: 0
%%   1110 ns    Log    PASSED    in Default,                      Receive TranasctionCount: Received : 100
%%   1110 ns    Log    PASSED    in Default,                      Transmit TransactionCount: Received : 100
%%   1110 ns    Log    PASSED    in Default,                      Receiver, GetErrorCount: Verify that ErrorCount is 0 Received : 0
%%   1110 ns    Log    PASSED    in Default,                      Transmitter, GetErrorCount: Verify that ErrorCount is 0 Received : 0
%%   1110 ns    Log    INFO      in transmitter_1,                Axi Stream Send.  TData: 97969594  TStrb: 1111  TKeep: 1111  TID: 00  TDest: 0  TUser: 0  TLast: 0  Operation# 101
%%   1120 ns    Log    INFO      in receiver_1,                   Word Receive.  Operation# 101  Data: 97969594  TID: 00  TDest: 0  TUser: 0  TLast: 0
%%   1120 ns    Log    PASSED    in Default,                      Receive TranasctionCount: Received : 101
%%   1120 ns    Log    PASSED    in Default,                      Get:  Received : 97969594
%%   1120 ns    Log    PASSED    in Default,                      Transmit TransactionCount: Received : 101
%%   1120 ns    Log    PASSED    in Default,                      Receiver, GetAlertLogID/GetAlertCount: Verify that ErrorCount is 0 Received : 0
%%   1120 ns    Log    PASSED    in Default,                      Transmitter, GetAlertLogID/GetAlertCount: Verify that ErrorCount is 0 Received : 0
%%   1120 ns    Log    INFO      in transmitter_1,                Axi Stream Send.  TData: 9B9A9998  TStrb: 1111  TKeep: 1111  TID: 00  TDest: 0  TUser: 0  TLast: 0  Operation# 102
%%   1130 ns    Log    PASSED    in receiver_1: Data Check,       Operation# 102  Received.  Data: 9B9A9998  TID: 00  TDest: 0  TUser: 0  TLast: 0
%%   1130 ns    Log    PASSED    in Default,                      Receive TranasctionCount: Received : 102
%%   1130 ns    Log    PASSED    in Default,                      Transmit TransactionCount: Received : 102
%%   1130 ns    Log    PASSED    in Default,                      Receiver, GetErrorCount: Verify that ErrorCount is 0 Received : 0
%%   1130 ns    Log    PASSED    in Default,                      Transmitter, GetErrorCount: Verify that ErrorCount is 0 Received : 0
%%   1130 ns    Log    INFO      in transmitter_1,                Axi Stream Send.  TData: 9F9E9D9C  TStrb: 1111  TKeep: 1111  TID: 00  TDest: 0  TUser: 0  TLast: 0  Operation# 103
%%   1140 ns    Log    INFO      in receiver_1,                   Word Receive.  Operation# 103  Data: 9F9E9D9C  TID: 00  TDest: 0  TUser: 0  TLast: 0
%%   1140 ns    Log    PASSED    in Default,                      Receive TranasctionCount: Received : 103
%%   1140 ns    Log    PASSED    in Default,                      Get:  Received : 9F9E9D9C
%%   1140 ns    Log    PASSED    in Default,                      Transmit TransactionCount: Received : 103
%%   1140 ns    Log    PASSED    in Default,                      Receiver, GetAlertLogID/GetAlertCount: Verify that ErrorCount is 0 Received : 0
%%   1140 ns    Log    PASSED    in Default,                      Transmitter, GetAlertLogID/GetAlertCount: Verify that ErrorCount is 0 Received : 0
%%   1140 ns    Log    INFO      in transmitter_1,                Axi Stream Send.  TData: A3A2A1A0  TStrb: 1111  TKeep: 1111  TID: 00  TDest: 0  TUser: 0  TLast: 0  Operation# 104
%%   1150 ns    Log    PASSED    in receiver_1: Data Check,       Operation# 104  Received.  Data: A3A2A1A0  TID: 00  TDest: 0  TUser: 0  TLast: 0
%%   1150 ns    Log    PASSED    in Default,                      Receive TranasctionCount: Received : 104
%%   1150 ns    Log    PASSED    in Default,                      Transmit TransactionCount: Received : 104
%%   1150 ns    Log    PASSED    in Default,                      Receiver, GetErrorCount: Verify that ErrorCount is 0 Received : 0
%%   1150 ns    Log    PASSED    in Default,                      Transmitter, GetErrorCount: Verify that ErrorCount is 0 Received : 0
%%   1150 ns    Log    INFO      in transmitter_1,                Axi Stream Send.  TData: A7A6A5A4  TStrb: 1111  TKeep: 1111  TID: 00  TDest: 0  TUser: 0  TLast: 0  Operation# 105
%%   1160 ns    Log    INFO      in receiver_1,                   Word Receive.  Operation# 105  Data: A7A6A5A4  TID: 00  TDest: 0  TUser: 0  TLast: 0
%%   1160 ns    Log    PASSED    in Default,                      Receive TranasctionCount: Received : 105
%%   1160 ns    Log    PASSED    in Default,                      Get:  Received : A7A6A5A4
%%   1160 ns    Log    PASSED    in Default,                      Transmit TransactionCount: Received : 105
%%   1160 ns    Log    PASSED    in Default,                      Receiver, GetAlertLogID/GetAlertCount: Verify that ErrorCount is 0 Received : 0
%%   1160 ns    Log    PASSED    in Default,                      Transmitter, GetAlertLogID/GetAlertCount: Verify that ErrorCount is 0 Received : 0
%%   1160 ns    Log    INFO      in transmitter_1,                Axi Stream Send.  TData: ABAAA9A8  TStrb: 1111  TKeep: 1111  TID: 00  TDest: 0  TUser: 0  TLast: 0  Operation# 106
%%   1170 ns    Log    PASSED    in receiver_1: Data Check,       Operation# 106  Received.  Data: ABAAA9A8  TID: 00  TDest: 0  TUser: 0  TLast: 0
%%   1170 ns    Log    PASSED    in Default,                      Receive TranasctionCount: Received : 106
%%   1170 ns    Log    PASSED    in Default,                      Transmit TransactionCount: Received : 106
%%   1170 ns    Log    PASSED    in Default,                      Receiver, GetErrorCount: Verify that ErrorCount is 0 Received : 0
%%   1170 ns    Log    PASSED    in Default,                      Transmitter, GetErrorCount: Verify that ErrorCount is 0 Received : 0
%%   1170 ns    Log    INFO      in transmitter_1,                Axi Stream Send.  TData: AFAEADAC  TStrb: 1111  TKeep: 1111  TID: 00  TDest: 0  TUser: 0  TLast: 0  Operation# 107
%%   1180 ns    Log    INFO      in receiver_1,                   Word Receive.  Operation# 107  Data: AFAEADAC  TID: 00  TDest: 0  TUser: 0  TLast: 0
%%   1180 ns    Log    PASSED    in Default,                      Receive TranasctionCount: Received : 107
%%   1180 ns    Log    PASSED    in Default,                      Get:  Received : AFAEADAC
%%   1180 ns    Log    PASSED    in Default,                      Transmit TransactionCount: Received : 107
%%   1180 ns    Log    PASSED    in Default,                      Receiver, GetAlertLogID/GetAlertCount: Verify that ErrorCount is 0 Received : 0
%%   1180 ns    Log    PASSED    in Default,                      Transmitter, GetAlertLogID/GetAlertCount: Verify that ErrorCount is 0 Received : 0
%%   1180 ns    Log    INFO      in transmitter_1,                Axi Stream Send.  TData: B3B2B1B0  TStrb: 1111  TKeep: 1111  TID: 00  TDest: 0  TUser: 0  TLast: 0  Operation# 108
%%   1190 ns    Log    PASSED    in receiver_1: Data Check,       Operation# 108  Received.  Data: B3B2B1B0  TID: 00  TDest: 0  TUser: 0  TLast: 0
%%   1190 ns    Log    PASSED    in Default,                      Receive TranasctionCount: Received : 108
%%   1190 ns    Log    PASSED    in Default,                      Transmit TransactionCount: Received : 108
%%   1190 ns    Log    PASSED    in Default,                      Receiver, GetErrorCount: Verify that ErrorCount is 0 Received : 0
%%   1190 ns    Log    PASSED    in Default,                      Transmitter, GetErrorCount: Verify that ErrorCount is 0 Received : 0
%%   1190 ns    Log    INFO      in transmitter_1,                Axi Stream Send.  TData: B7B6B5B4  TStrb: 1111  TKeep: 1111  TID: 00  TDest: 0  TUser: 0  TLast: 0  Operation# 109
%%   1200 ns    Log    INFO      in receiver_1,                   Word Receive.  Operation# 109  Data: B7B6B5B4  TID: 00  TDest: 0  TUser: 0  TLast: 0
%%   1200 ns    Log    PASSED    in Default,                      Receive TranasctionCount: Received : 109
%%   1200 ns    Log    PASSED    in Default,                      Get:  Received : B7B6B5B4
%%   1200 ns    Log    PASSED    in Default,                      Transmit TransactionCount: Received : 109
%%   1200 ns    Log    PASSED    in Default,                      Receiver, GetAlertLogID/GetAlertCount: Verify that ErrorCount is 0 Received : 0
%%   1200 ns    Log    PASSED    in Default,                      Transmitter, GetAlertLogID/GetAlertCount: Verify that ErrorCount is 0 Received : 0
%%   1200 ns    Log    INFO      in transmitter_1,                Axi Stream Send.  TData: BBBAB9B8  TStrb: 1111  TKeep: 1111  TID: 00  TDest: 0  TUser: 0  TLast: 0  Operation# 110
%%   1210 ns    Log    PASSED    in receiver_1: Data Check,       Operation# 110  Received.  Data: BBBAB9B8  TID: 00  TDest: 0  TUser: 0  TLast: 0
%%   1210 ns    Log    PASSED    in Default,                      Receive TranasctionCount: Received : 110
%%   1210 ns    Log    PASSED    in Default,                      Transmit TransactionCount: Received : 110
%%   1210 ns    Log    PASSED    in Default,                      Receiver, GetErrorCount: Verify that ErrorCount is 0 Received : 0
%%   1210 ns    Log    PASSED    in Default,                      Transmitter, GetErrorCount: Verify that ErrorCount is 0 Received : 0
%%   1210 ns    Log    INFO      in transmitter_1,                Axi Stream Send.  TData: BFBEBDBC  TStrb: 1111  TKeep: 1111  TID: 00  TDest: 0  TUser: 0  TLast: 0  Operation# 111
%%   1220 ns    Log    INFO      in receiver_1,                   Word Receive.  Operation# 111  Data: BFBEBDBC  TID: 00  TDest: 0  TUser: 0  TLast: 0
%%   1220 ns    Log    PASSED    in Default,                      Receive TranasctionCount: Received : 111
%%   1220 ns    Log    PASSED    in Default,                      Get:  Received : BFBEBDBC
%%   1220 ns    Log    PASSED    in Default,                      Transmit TransactionCount: Received : 111
%%   1220 ns    Log    PASSED    in Default,                      Receiver, GetAlertLogID/GetAlertCount: Verify that ErrorCount is 0 Received : 0
%%   1220 ns    Log    PASSED    in Default,                      Transmitter, GetAlertLogID/GetAlertCount: Verify that ErrorCount is 0 Received : 0
%%   1220 ns    Log    INFO      in transmitter_1,                Axi Stream Send.  TData: C3C2C1C0  TStrb: 1111  TKeep: 1111  TID: 00  TDest: 0  TUser: 0  TLast: 0  Operation# 112
%%   1230 ns    Log    PASSED    in receiver_1: Data Check,       Operation# 112  Received.  Data: C3C2C1C0  TID: 00  TDest: 0  TUser: 0  TLast: 0
%%   1230 ns    Log    PASSED    in Default,                      Receive TranasctionCount: Received : 112
%%   1230 ns    Log    PASSED    in Default,                      Transmit TransactionCount: Received : 112
%%   1230 ns    Log    PASSED    in Default,                      Receiver, GetErrorCount: Verify that ErrorCount is 0 Received : 0
%%   1230 ns    Log    PASSED    in Default,                      Transmitter, GetErrorCount: Verify that ErrorCount is 0 Received : 0
%%   1230 ns    Log    INFO      in transmitter_1,                Axi Stream Send.  TData: C7C6C5C4  TStrb: 1111  TKeep: 1111  TID: 00  TDest: 0  TUser: 0  TLast: 0  Operation# 113
%%   1240 ns    Log    INFO      in receiver_1,                   Word Receive.  Operation# 113  Data: C7C6C5C4  TID: 00  TDest: 0  TUser: 0  TLast: 0
%%   1240 ns    Log    PASSED    in Default,                      Receive TranasctionCount: Received : 113
%%   1240 ns    Log    PASSED    in Default,                      Get:  Received : C7C6C5C4
%%   1240 ns    Log    PASSED    in Default,                      Transmit TransactionCount: Received : 113
%%   1240 ns    Log    PASSED    in Default,                      Receiver, GetAlertLogID/GetAlertCount: Verify that ErrorCount is 0 Received : 0
%%   1240 ns    Log    PASSED    in Default,                      Transmitter, GetAlertLogID/GetAlertCount: Verify that ErrorCount is 0 Received : 0
%%   1240 ns    Log    INFO      in transmitter_1,                Axi Stream Send.  TData: CBCAC9C8  TStrb: 1111  TKeep: 1111  TID: 00  TDest: 0  TUser: 0  TLast: 0  Operation# 114
%%   1250 ns    Log    PASSED    in receiver_1: Data Check,       Operation# 114  Received.  Data: CBCAC9C8  TID: 00  TDest: 0  TUser: 0  TLast: 0
%%   1250 ns    Log    PASSED    in Default,                      Receive TranasctionCount: Received : 114
%%   1250 ns    Log    PASSED    in Default,                      Transmit TransactionCount: Received : 114
